(1438650942.075285) can0 12F85150#4001000060
(1438650942.086787) can0 12F89090#00010004
(1438650942.104556) can0 0EF81510#02
(1438650942.105905) can0 12F96050#00000000410A00
(1438650942.114550) can0 0EF82010#00
(1438650942.115532) can0 12F83010#80
(1438650942.116520) can0 12F83110#08
(1438650942.124541) can0 12F83410#20
(1438650942.125523) can0 12F84110#00
(1438650942.126506) can0 12F84210#00
(1438650942.127504) can0 12F84310#00
(1438650942.134546) can0 12F87810#00
(1438650942.135692) can0 0EF91250#0000000000000008
(1438650942.144819) can0 12F81010#3800800000
(1438650942.145549) can0 12F97450#8040
(1438650942.146507) can0 12F96750#B2270F890000
(1438650942.147638) can0 12F95F50#8284860000000000
(1438650942.155189) can0 12F85050#000324200008
(1438650942.155924) can0 12F97150#E0FF58
(1438650942.156548) can0 12F82290#80
(1438650942.157183) can0 12F97C50#18
(1438650942.157906) can0 0EF82390#0102
(1438650942.159032) can0 0EF86350#0000000055554511
(1438650942.164446) can0 1610FF10#
(1438650942.174943) can0 12F96D50#04000000
(1438650942.176449) can0 0EF88190#00
(1438650942.185778) can0 12F85450#1636000000160000
(1438650942.194918) can0 0AF81110#180000000000
(1438650942.205495) can0 12F96050#00000000410A00
(1438650942.222304) can0 1610FF50#
(1438650942.224576) can0 0AF87010#0024
(1438650942.245396) can0 12F97450#8000
(1438650942.255202) can0 12F85050#000328200008
(1438650942.255894) can0 12F97150#E0FF58
(1438650942.257064) can0 0EF86350#000000005555470F
(1438650942.264583) can0 12F82C10#20
(1438650942.265513) can0 12F83210#08
(1438650942.267760) can0 1610FF72#
(1438650942.274675) can0 0AF87110#00FF00
(1438650942.287925) can0 0EF87372#043F
(1438650942.305821) can0 12F96050#00000000410A00
(1438650942.310810) can0 16F97D54#A22518199F91B121
(1438650942.335332) can0 0EF91250#0000000000000008
(1438650942.336443) can0 12F86150#00001000000000FC
(1438650942.345274) can0 12F97450#8000
(1438650942.346090) can0 12F95A50#00000000
(1438650942.346758) can0 12F85C50#00
(1438650942.347392) can0 0AF97950#00
(1438650942.348466) can0 16F86250#0333333134300000
(1438650942.351669) can0 12F88090#00
(1438650942.354565) can0 12F84010#40
(1438650942.355569) can0 12F85050#000325200008
(1438650942.356577) can0 12F97150#E0FF58
(1438650942.356900) can0 0EF81490#00
(1438650942.357676) can0 12F97350#0000
(1438650942.359089) can0 0EF86350#0000000055554A0C
(1438650942.375068) can0 12F96D50#04000000
(1438650942.376019) can0 12F85150#4001000060
(1438650942.386779) can0 12F89090#00010004
(1438650942.404535) can0 0EF81510#02
(1438650942.405573) can0 12F96050#00000000410A00
(1438650942.414549) can0 0EF82010#00
(1438650942.415523) can0 12F83010#80
(1438650942.416512) can0 12F83110#08
(1438650942.424551) can0 12F83410#20
(1438650942.425549) can0 12F84110#00
(1438650942.426535) can0 12F84210#00
(1438650942.427533) can0 12F84310#00
(1438650942.434547) can0 12F87810#00
(1438650942.444842) can0 12F81010#3800800000
(1438650942.445536) can0 12F97450#8040
(1438650942.455305) can0 12F85050#000322200008
(1438650942.456056) can0 12F97150#E0FF58
(1438650942.456719) can0 0EF82390#0102
(1438650942.457848) can0 0EF86350#0000000055554C0A
(1438650942.476475) can0 0EF88190#00
(1438650942.485780) can0 12F85450#1636000000160000
(1438650942.494915) can0 0AF81110#180000000000
(1438650942.505659) can0 12F96050#00000000410A00
(1438650942.524599) can0 0AF87010#0024
(1438650942.535323) can0 0EF91250#0000000000000008
(1438650942.545277) can0 12F97450#8000
(1438650942.555226) can0 12F85050#000326200008
(1438650942.556344) can0 0EF86350#0000000055554F07
(1438650942.557200) can0 12F85250#7F0038A8
(1438650942.557960) can0 12F97150#E0FF58
(1438650942.564586) can0 12F82C10#20
(1438650942.565548) can0 12F83210#08
(1438650942.574685) can0 0AF87110#00FF00
(1438650942.575536) can0 12F96D50#04000000
(1438650942.587604) can0 0EF87372#043F
(1438650942.605597) can0 12F96050#00000000410A00
(1438650942.635416) can0 12F86150#00001000000000FC
(1438650942.645108) can0 12F97450#8040
(1438650942.645728) can0 12F85C50#00
(1438650942.646844) can0 12F95F50#8284860000000000
(1438650942.647971) can0 16F86250#0431144003050000
(1438650942.648666) can0 0AF97950#00
(1438650942.649614) can0 12F95A50#00000000
(1438650942.651460) can0 12F88090#00
(1438650942.654491) can0 12F84010#40
(1438650942.655491) can0 12F85050#000329200008
(1438650942.656297) can0 12F97150#E0FF58
(1438650942.656951) can0 0EF81490#00
(1438650942.657655) can0 12F97350#0000
(1438650942.658304) can0 12F97C50#18
(1438650942.659538) can0 0EF86350#0000000055555105
(1438650942.675559) can0 12F85150#4001000060
(1438650942.686807) can0 12F89090#00010004
(1438650942.704599) can0 0EF81510#02
(1438650942.705702) can0 12F96050#00000000410A00
(1438650942.714606) can0 0EF82010#00
(1438650942.715686) can0 12F83010#80
(1438650942.716544) can0 12F83110#08
(1438650942.724558) can0 12F83410#20
(1438650942.725560) can0 12F84110#00
(1438650942.726540) can0 12F84210#00
(1438650942.727545) can0 12F84310#00
(1438650942.734559) can0 12F87810#00
(1438650942.735694) can0 0EF91250#0000000000000008
(1438650942.744854) can0 12F81010#3800800000
(1438650942.745554) can0 12F97450#8040
(1438650942.755044) can0 12F85050#00032A200008
(1438650942.755802) can0 12F97150#E0FF58
(1438650942.756931) can0 0EF86350#0000000055555402
(1438650942.757542) can0 1610FF90#
(1438650942.758230) can0 0EF82390#0102
(1438650942.775053) can0 12F96D50#04000000
(1438650942.776479) can0 0EF88190#00
(1438650942.785838) can0 12F85450#1636000000160000
(1438650942.794925) can0 0AF81110#180000000000
(1438650942.805851) can0 12F96050#00000000410A00
(1438650942.824626) can0 0AF87010#0024
(1438650942.845312) can0 12F97450#8040
(1438650942.855363) can0 12F85050#00032D200008
(1438650942.856122) can0 12F97150#E0FF58
(1438650942.856750) can0 12F97650#04
(1438650942.857865) can0 0EF86350#0000000055555600
(1438650942.864565) can0 12F82C10#20
(1438650942.865508) can0 12F83210#08
(1438650942.874693) can0 0AF87110#00FF00
(1438650942.887301) can0 0EF87372#043F
(1438650942.905701) can0 12F96050#00000000410A00
(1438650942.935516) can0 0EF91250#0000000000000008
(1438650942.936616) can0 12F86150#00001000000000FC
(1438650942.945141) can0 12F97450#8040
(1438650942.945735) can0 12F85C50#00
(1438650942.946944) can0 16F86250#0500000000000000
(1438650942.947510) can0 0AF97950#00
(1438650942.948481) can0 12F95A50#00000000
(1438650942.951507) can0 12F88090#00
(1438650942.954559) can0 12F84010#40
(1438650942.955519) can0 12F85050#000334200008
(1438650942.956329) can0 12F97150#E0FF58
(1438650942.956981) can0 0EF81490#00
(1438650942.957683) can0 12F97350#0000
(1438650942.958818) can0 0EF86350#00000000555559FD
(1438650942.975109) can0 12F96D50#04000000
(1438650942.975978) can0 12F85150#4001000060
(1438650942.986756) can0 12F89090#00010004
(1438650943.004573) can0 0EF81510#02
(1438650943.005631) can0 12F96050#00000000410A00
(1438650943.014574) can0 0EF82010#00
(1438650943.015520) can0 12F83010#80
(1438650943.016513) can0 12F83110#08
(1438650943.024566) can0 12F83410#20
(1438650943.025565) can0 12F84110#00
(1438650943.026516) can0 12F84210#00
(1438650943.027518) can0 12F84310#00
(1438650943.034515) can0 12F87810#00
(1438650943.044865) can0 12F81010#3800800000
(1438650943.045614) can0 12F97450#8000
(1438650943.046082) can0 1610FF54#
(1438650943.055516) can0 12F85050#000338200008
(1438650943.056087) can0 12F97150#E0FF58
(1438650943.056766) can0 0EF82390#0102
(1438650943.057890) can0 0EF86350#0000000055555BFB
(1438650943.076510) can0 0EF88190#00
(1438650943.085643) can0 12F85450#1636000000160000
(1438650943.094897) can0 0AF81110#180000000000
(1438650943.105610) can0 12F96050#00000000410A00
(1438650943.124644) can0 0AF87010#0024
(1438650943.135397) can0 0EF91250#0000000000000008
(1438650943.145012) can0 12F97450#8000
(1438650943.146139) can0 12F95F50#8284860000000000
(1438650943.155122) can0 12F85050#000330200008
(1438650943.155865) can0 12F97150#E0FF58
(1438650943.156727) can0 12F82290#80
(1438650943.157152) can0 12F97C50#18
(1438650943.158260) can0 0EF86350#0000000055555EF8
(1438650943.164643) can0 12F82C10#20
(1438650943.165723) can0 12F83210#08
(1438650943.166507) can0 1610FF10#
(1438650943.174661) can0 0AF87110#00FF00
(1438650943.175513) can0 12F96D50#04000000
(1438650943.186992) can0 0EF87372#043F
(1438650943.205661) can0 12F96050#00000000410A00
(1438650943.227460) can0 1610FF50#
(1438650943.235369) can0 12F86150#00001000000000FC
(1438650943.245282) can0 12F97450#8040
(1438650943.245894) can0 12F85C50#00
(1438650943.247037) can0 16F86250#0600000000000000
(1438650943.247669) can0 0AF97950#00
(1438650943.248531) can0 12F95A50#00000000
(1438650943.251481) can0 12F88090#00
(1438650943.254515) can0 12F84010#40
(1438650943.255518) can0 12F85050#00032A200008
(1438650943.256278) can0 12F97150#E0FF58
(1438650943.256963) can0 0EF81490#00
(1438650943.257641) can0 12F97350#0000
(1438650943.258786) can0 0EF86350#00000000555560F6
(1438650943.266723) can0 1610FF72#
(1438650943.275475) can0 12F85150#4001000060
(1438650943.286792) can0 12F89090#00010004
(1438650943.304545) can0 0EF81510#02
(1438650943.305734) can0 12F96050#00000000410A00
(1438650943.310465) can0 16F97D54#A22518199F91B1A1
(1438650943.314521) can0 0EF82010#00
(1438650943.315534) can0 12F83010#80
(1438650943.316522) can0 12F83110#08
(1438650943.324550) can0 12F83410#20
(1438650943.325533) can0 12F84110#00
(1438650943.326524) can0 12F84210#00
(1438650943.327521) can0 12F84310#00
(1438650943.334536) can0 12F87810#00
(1438650943.335671) can0 0EF91250#0000000000000008
(1438650943.344870) can0 12F81010#3800800000
(1438650943.345528) can0 12F97450#8000
(1438650943.355288) can0 12F85050#000332200008
(1438650943.356031) can0 12F97150#E0FF58
(1438650943.356733) can0 0EF82390#0102
(1438650943.357865) can0 0EF86350#00000000555563F3
(1438650943.374989) can0 12F96D50#04000000
(1438650943.376416) can0 0EF88190#00
(1438650943.385783) can0 12F85450#1636000000160000
(1438650943.394912) can0 0AF81110#180000000000
(1438650943.405414) can0 12F96050#00000000410A00
(1438650943.424683) can0 0AF87010#0024
(1438650943.445232) can0 12F97450#8000
(1438650943.455106) can0 12F85050#000332200008
(1438650943.455854) can0 12F97150#E0FF58
(1438650943.456983) can0 0EF86350#00000000555565F1
(1438650943.464558) can0 12F82C10#20
(1438650943.465537) can0 12F83210#08
(1438650943.474676) can0 0AF87110#00FF00
(1438650943.487240) can0 0EF87372#043F
(1438650943.505681) can0 12F96050#00000000410A00
(1438650943.535383) can0 0EF91250#0000000000000008
(1438650943.536500) can0 12F86150#00001000000000FC
(1438650943.545032) can0 12F97450#8040
(1438650943.545677) can0 12F85C50#00
(1438650943.546803) can0 16F86250#0700000000000000
(1438650943.547420) can0 0AF97950#00
(1438650943.548276) can0 12F95A50#00000000
(1438650943.551498) can0 12F88090#00
(1438650943.554548) can0 12F84010#40
(1438650943.555546) can0 12F85050#000324200008
(1438650943.556673) can0 0EF86350#00000000555568EE
(1438650943.557308) can0 0EF81490#00
(1438650943.558062) can0 12F97150#E0FF58
(1438650943.558809) can0 12F97350#0000
(1438650943.559658) can0 12F85250#7F0038A8
(1438650943.575050) can0 12F96D50#04000000
(1438650943.575929) can0 12F85150#4001000060
(1438650943.586750) can0 12F89090#00010004
(1438650943.604787) can0 0EF81510#02
(1438650943.605793) can0 12F96050#00000000410A00
(1438650943.614674) can0 0EF82010#00
(1438650943.615755) can0 12F83010#80
(1438650943.616562) can0 12F83110#08
(1438650943.624564) can0 12F83410#20
(1438650943.625552) can0 12F84110#00
(1438650943.626548) can0 12F84210#00
(1438650943.627552) can0 12F84310#00
(1438650943.634561) can0 12F87810#00
(1438650943.644890) can0 12F81010#3800800000
(1438650943.645542) can0 12F97450#8040
(1438650943.646684) can0 12F95F50#8284860000000000
(1438650943.655130) can0 12F85050#00032A200008
(1438650943.655881) can0 12F97150#E0FF58
(1438650943.656541) can0 0EF82390#0102
(1438650943.657192) can0 12F97C50#18
(1438650943.658311) can0 0EF86350#0000000055556AEC
(1438650943.676450) can0 0EF88190#00
(1438650943.685693) can0 12F85450#1636000000160000
(1438650943.686704) can0 12F96250#812A0000000000
(1438650943.695005) can0 0AF81110#180000000000
(1438650943.705568) can0 12F96050#00000000410A00
(1438650943.724776) can0 0AF87010#0024
(1438650943.736302) can0 0EF91250#0000000000000008
(1438650943.745195) can0 12F97450#8000
(1438650943.754647) can0 1610FF90#
(1438650943.755560) can0 12F85050#000327200008
(1438650943.756391) can0 12F97150#E0FF58
(1438650943.757440) can0 0EF86350#0000000055556DE9
(1438650943.764576) can0 12F82C10#20
(1438650943.765565) can0 12F83210#08
(1438650943.774697) can0 0AF87110#00FF00
(1438650943.775556) can0 12F96D50#04000000
(1438650943.786404) can0 0EF87372#043F
(1438650943.805638) can0 12F96050#00000000410A00
(1438650943.835337) can0 12F86150#00001000000000FC
(1438650943.845215) can0 12F97450#8000
(1438650943.845836) can0 12F85C50#00
(1438650943.847035) can0 16F86250#0800000000000000
(1438650943.847658) can0 0AF97950#00
(1438650943.848523) can0 12F95A50#00000000
(1438650943.851535) can0 12F88090#00
(1438650943.854573) can0 12F84010#40
(1438650943.855573) can0 12F85050#000320200008
(1438650943.856328) can0 12F97150#E0FF58
(1438650943.857012) can0 0EF81490#00
(1438650943.857697) can0 12F97350#0000
(1438650943.858340) can0 12F97650#04
(1438650943.859535) can0 0EF86350#0000000055556FE7
(1438650943.875182) can0 12F85150#4001000060
(1438650943.886707) can0 12F89090#00010004
(1438650943.904580) can0 0EF81510#02
(1438650943.905601) can0 12F96050#00000000410A00
(1438650943.914593) can0 0EF82010#00
(1438650943.915575) can0 12F83010#80
(1438650943.916564) can0 12F83110#08
(1438650943.924580) can0 12F83410#20
(1438650943.925575) can0 12F84110#00
(1438650943.926567) can0 12F84210#00
(1438650943.927565) can0 12F84310#00
(1438650943.934580) can0 12F87810#00
(1438650943.935694) can0 0EF91250#0000000000000008
(1438650943.944853) can0 12F81010#3800800000
(1438650943.945794) can0 12F97450#8000
(1438650943.955102) can0 12F85050#00032C200008
(1438650943.955816) can0 12F97150#E0FF58
(1438650943.956569) can0 0EF82390#0102
(1438650943.957684) can0 0EF86350#00000000555572E4
(1438650943.975060) can0 12F96D50#04000000
(1438650943.976454) can0 0EF88190#00
(1438650943.985603) can0 12F85450#1636000000160000
(1438650943.994952) can0 0AF81110#180000000000
(1438650944.005786) can0 12F96050#00000000410A00
(1438650944.024666) can0 0AF87010#0024
(1438650944.045108) can0 12F97450#8040
(1438650944.045591) can0 1610FF54#
(1438650944.055343) can0 12F85050#000326200008
(1438650944.056047) can0 12F97150#E0FF58
(1438650944.057180) can0 0EF86350#00000000555574E2
(1438650944.064794) can0 12F82C10#20
(1438650944.065802) can0 12F83210#08
(1438650944.074728) can0 0AF87110#00FF00
(1438650944.085990) can0 0EF87372#043F
(1438650944.105556) can0 12F96050#00000000410A00
(1438650944.135479) can0 0EF91250#0000000000000008
(1438650944.136579) can0 12F86150#00001000000000FC
(1438650944.145333) can0 12F97450#8000
(1438650944.145960) can0 12F85C50#00
(1438650944.147081) can0 12F95F50#8284860000000000
(1438650944.148249) can0 16F86250#0900000000000000
(1438650944.148861) can0 0AF97950#00
(1438650944.149738) can0 12F95A50#00000000
(1438650944.151469) can0 12F88090#00
(1438650944.154557) can0 12F84010#40
(1438650944.155572) can0 12F85050#000320200008
(1438650944.156331) can0 12F97150#E0FF58
(1438650944.156957) can0 12F82290#80
(1438650944.157675) can0 12F97350#0000
(1438650944.158338) can0 0EF81490#00
(1438650944.158961) can0 12F97C50#18
(1438650944.160094) can0 0EF86350#00000000555577DF
(1438650944.164473) can0 1610FF10#
(1438650944.175248) can0 12F96D50#04000000
(1438650944.176125) can0 12F85150#4001000060
(1438650944.186746) can0 12F89090#00010004
(1438650944.204616) can0 0EF81510#02
(1438650944.205627) can0 12F96050#00000000410A00
(1438650944.214592) can0 0EF82010#00
(1438650944.215567) can0 12F83010#80
(1438650944.216565) can0 12F83110#08
(1438650944.224587) can0 12F83410#20
(1438650944.225590) can0 12F84110#00
(1438650944.226580) can0 12F84210#00
(1438650944.227567) can0 12F84310#00
(1438650944.231739) can0 1610FF50#
(1438650944.234578) can0 12F87810#00
(1438650944.244870) can0 12F81010#3800800000
(1438650944.245582) can0 12F97450#8000
(1438650944.255091) can0 12F85050#000326200008
(1438650944.255842) can0 12F97150#E0FF58
(1438650944.256962) can0 0EF86350#00000000555579DD
(1438650944.257628) can0 0EF82390#0102
(1438650944.265623) can0 1610FF72#
(1438650944.276466) can0 0EF88190#00
(1438650944.285743) can0 12F85450#1636000000160000
(1438650944.294961) can0 0AF81110#180000000000
(1438650944.305464) can0 12F96050#00000000410A00
(1438650944.310498) can0 16F97D54#A22518199F91B221
(1438650944.324689) can0 0AF87010#0024
(1438650944.335450) can0 0EF91250#0000000000000008
(1438650944.345113) can0 12F97450#8000
(1438650944.355327) can0 12F85050#000326200008
(1438650944.356088) can0 12F97150#E0FF58
(1438650944.357201) can0 0EF86350#0000000055557CDA
(1438650944.364596) can0 12F82C10#20
(1438650944.365577) can0 12F83210#08
(1438650944.374718) can0 0AF87110#00FF00
(1438650944.375565) can0 12F96D50#04000000
(1438650944.385705) can0 0EF87372#043F
(1438650944.405768) can0 12F96050#00000000410A00
(1438650944.435484) can0 12F86150#00001000000000FC
(1438650944.445139) can0 12F97450#8000
(1438650944.445754) can0 12F85C50#00
(1438650944.446952) can0 16F86250#0A00000000808000
(1438650944.447526) can0 0AF97950#00
(1438650944.448393) can0 12F95A50#00000000
(1438650944.451489) can0 12F88090#00
(1438650944.454566) can0 12F84010#40
(1438650944.455567) can0 12F85050#00032A200008
(1438650944.456333) can0 12F97150#E0FF58
(1438650944.456984) can0 0EF81490#00
(1438650944.457691) can0 12F97350#0000
(1438650944.458836) can0 0EF86350#0000000055557ED8
(1438650944.475022) can0 12F85150#4001000060
(1438650944.486735) can0 12F89090#00010004
(1438650944.504590) can0 0EF81510#02
(1438650944.505698) can0 12F96050#00000000410A00
(1438650944.514826) can0 0EF82010#00
(1438650944.515828) can0 12F83010#80
(1438650944.516773) can0 12F83110#08
(1438650944.524867) can0 12F83410#20
(1438650944.525767) can0 12F84110#00
(1438650944.526587) can0 12F84210#00
(1438650944.527590) can0 12F84310#00
(1438650944.534594) can0 12F87810#00
(1438650944.535736) can0 0EF91250#0000000000000008
(1438650944.544879) can0 12F81010#3800800000
(1438650944.545602) can0 12F97450#8000
(1438650944.555150) can0 12F85050#000324200008
(1438650944.556259) can0 0EF86350#00000000555581D5
(1438650944.556960) can0 0EF82390#0102
(1438650944.557720) can0 12F97150#E0FF58
(1438650944.558580) can0 12F85250#7F0038A8
(1438650944.575021) can0 12F96D50#04000000
(1438650944.576458) can0 0EF88190#00
(1438650944.585497) can0 12F85450#1636000000160000
(1438650944.594973) can0 0AF81110#180000000000
(1438650944.605518) can0 12F96050#00000000410A00
(1438650944.624886) can0 0AF87010#0024
(1438650944.645107) can0 12F97450#8040
(1438650944.646223) can0 12F95F50#8284860000000000
(1438650944.655228) can0 12F85050#00031D200008
(1438650944.655979) can0 12F97150#E0FF58
(1438650944.656618) can0 12F97C50#18
(1438650944.657748) can0 0EF86350#00000000555583D3
(1438650944.664603) can0 12F82C10#20
(1438650944.665581) can0 12F83210#08
(1438650944.674731) can0 0AF87110#00FF00
(1438650944.685394) can0 0EF87372#043F
(1438650944.705657) can0 12F96050#00000000410A00
(1438650944.735286) can0 0EF91250#0000000000000008
(1438650944.736725) can0 12F86150#00001000000000FC
(1438650944.745024) can0 12F97450#8000
(1438650944.745792) can0 12F85C50#00
(1438650944.746801) can0 16F86250#0B00000000000000
(1438650944.747409) can0 0AF97950#00
(1438650944.748275) can0 12F95A50#00000000
(1438650944.751476) can0 12F88090#00
(1438650944.754546) can0 12F84010#40
(1438650944.755539) can0 12F85050#000326200008
(1438650944.756342) can0 12F97150#E0FF58
(1438650944.757013) can0 12F97350#0000
(1438650944.758134) can0 0EF86350#00000000555586D0
(1438650944.758722) can0 1610FF90#
(1438650944.759779) can0 0EF81490#00
(1438650944.775009) can0 12F96D50#04000000
(1438650944.775901) can0 12F85150#4001000060
(1438650944.786779) can0 12F89090#00010004
(1438650944.804617) can0 0EF81510#02
(1438650944.805655) can0 12F96050#00000000410A00
(1438650944.814613) can0 0EF82010#00
(1438650944.815597) can0 12F83010#80
(1438650944.817128) can0 12F83110#08
(1438650944.824613) can0 12F83410#20
(1438650944.825617) can0 12F84110#00
(1438650944.826598) can0 12F84210#00
(1438650944.827558) can0 12F84310#00
(1438650944.834608) can0 12F87810#00
(1438650944.844923) can0 12F81010#3800800000
(1438650944.845810) can0 12F97450#8000
(1438650944.855122) can0 12F85050#000322200008
(1438650944.855894) can0 12F97150#E0FF58
(1438650944.857000) can0 12F97650#04
(1438650944.857555) can0 0EF82390#0102
(1438650944.858417) can0 0EF86350#00000000555588CE
(1438650944.876491) can0 0EF88190#00
(1438650944.885411) can0 12F85450#1636000000160000
(1438650944.894984) can0 0AF81110#180000000000
(1438650944.905661) can0 12F96050#00000000410A00
(1438650944.924684) can0 0AF87010#0024
(1438650944.935412) can0 0EF91250#0000000000000008
(1438650944.945107) can0 12F97450#8040
(1438650944.955191) can0 12F85050#000324200008
(1438650944.956305) can0 0EF86350#0000000055558BCB
(1438650944.957063) can0 12F97150#E0FF58
(1438650944.964814) can0 12F82C10#20
(1438650944.965865) can0 12F83210#08
(1438650944.974796) can0 0AF87110#00FF00
(1438650944.975776) can0 12F96D50#04000000
(1438650944.985062) can0 0EF87372#043F
(1438650945.005514) can0 12F96050#00000000410A00
(1438650945.035387) can0 12F86150#00001000000000FC
(1438650945.045155) can0 12F97450#8040
(1438650945.045763) can0 12F85C50#00
(1438650945.046306) can0 1610FF54#
(1438650945.047447) can0 16F86250#0C00000000000000
(1438650945.048122) can0 0AF97950#00
(1438650945.048944) can0 12F95A50#00000000
(1438650945.051493) can0 12F88090#00
(1438650945.054568) can0 12F84010#40
(1438650945.055567) can0 12F85050#000328200008
(1438650945.056367) can0 12F97150#E0FF58
(1438650945.057013) can0 0EF81490#00
(1438650945.057692) can0 12F97350#0000
(1438650945.058820) can0 0EF86350#0000000055558DC9
(1438650945.075071) can0 12F85150#4001000060
(1438650945.086756) can0 12F89090#00010004
(1438650945.104632) can0 0EF81510#02
(1438650945.105683) can0 12F96050#00000000410A00
(1438650945.114625) can0 0EF82010#00
(1438650945.115574) can0 12F83010#80
(1438650945.116559) can0 12F83110#08
(1438650945.124639) can0 12F83410#20
(1438650945.125581) can0 12F84110#00
(1438650945.126572) can0 12F84210#00
(1438650945.127573) can0 12F84310#00
(1438650945.134583) can0 12F87810#00
(1438650945.135756) can0 0EF91250#0000000000000008
(1438650945.136806) can0 12F96150#415F0000000000
(1438650945.144914) can0 12F81010#3800800000
(1438650945.145583) can0 12F97450#8040
(1438650945.146749) can0 12F96B50#7FF8F10000000000
(1438650945.147897) can0 12F95F50#8284860000000000
(1438650945.155252) can0 12F85050#000320200008
(1438650945.156005) can0 12F97150#E0FF58
(1438650945.157127) can0 0EF86350#00000000555590C6
(1438650945.157760) can0 12F82290#80
(1438650945.158397) can0 12F97C50#18
(1438650945.159067) can0 0EF82390#0102
(1438650945.164559) can0 1610FF10#
(1438650945.174901) can0 12F96D50#04000000
(1438650945.176421) can0 0EF88190#00
(1438650945.185840) can0 12F85450#1636000000160000
(1438650945.194959) can0 0AF81110#180000000000
(1438650945.205671) can0 12F96050#00000000410A00
(1438650945.224702) can0 0AF87010#0024
(1438650945.236814) can0 1610FF50#
(1438650945.245297) can0 12F97450#8040
(1438650945.255012) can0 12F85050#000324200008
(1438650945.255761) can0 12F97150#E0FF58
(1438650945.256883) can0 0EF86350#00000000555592C4
(1438650945.264588) can0 12F82C10#20
(1438650945.265178) can0 1610FF72#
(1438650945.265781) can0 12F83210#08
(1438650945.274762) can0 0AF87110#00FF00
(1438650945.284763) can0 0EF87372#043F
(1438650945.305945) can0 12F96050#00000000410A00
(1438650945.310331) can0 16F97D54#A22518199F91B2A1
(1438650945.335404) can0 0EF91250#0000000000000008
(1438650945.336466) can0 12F86150#00001000000000FC
(1438650945.345081) can0 12F97450#8040
(1438650945.345705) can0 12F85C50#00
(1438650945.346892) can0 16F86250#0D00000000000000
(1438650945.347529) can0 0AF97950#00
(1438650945.348353) can0 12F95A50#00000000
(1438650945.351463) can0 12F88090#00
(1438650945.354585) can0 12F84010#40
(1438650945.355573) can0 12F85050#000325200008
(1438650945.356340) can0 12F97150#E0FF58
(1438650945.357021) can0 0EF81490#00
(1438650945.357717) can0 12F97350#0000
(1438650945.358830) can0 0EF86350#00000000555595C1
(1438650945.375030) can0 12F96D50#04000000
(1438650945.375920) can0 12F85150#4001000060
(1438650945.386713) can0 12F89090#00010004
(1438650945.404594) can0 0EF81510#02
(1438650945.405670) can0 12F96050#00000000410A00
(1438650945.414850) can0 0EF82010#00
(1438650945.415848) can0 12F83010#80
(1438650945.417030) can0 12F83110#08
(1438650945.424844) can0 12F83410#20
(1438650945.425920) can0 12F84110#00
(1438650945.426861) can0 12F84210#00
(1438650945.427815) can0 12F84310#00
(1438650945.434662) can0 12F87810#00
(1438650945.444936) can0 12F81010#3800800000
(1438650945.445587) can0 12F97450#8000
(1438650945.455174) can0 12F85050#000324200008
(1438650945.455923) can0 12F97150#E0FF58
(1438650945.456596) can0 0EF82390#0102
(1438650945.457722) can0 0EF86350#00000000555597BF
(1438650945.476472) can0 0EF88190#00
(1438650945.485701) can0 12F85450#1636000000160000
(1438650945.494983) can0 0AF81110#180000000000
(1438650945.505602) can0 12F96050#00000000410A00
(1438650945.524920) can0 0AF87010#0024
(1438650945.535291) can0 0EF91250#0000000000000008
(1438650945.545230) can0 12F97450#8000
(1438650945.555111) can0 12F85050#000327200008
(1438650945.556220) can0 0EF86350#0000000055559ABC
(1438650945.556974) can0 12F97150#E0FF58
(1438650945.557844) can0 12F85250#7F0038A8
(1438650945.564610) can0 12F82C10#20
(1438650945.565595) can0 12F83210#08
(1438650945.574735) can0 0AF87110#00FF00
(1438650945.575591) can0 12F96D50#04000000
(1438650945.584426) can0 0EF87372#043E
(1438650945.605589) can0 12F96050#00000000410A00
(1438650945.635251) can0 12F86150#00001000000000FC
(1438650945.645192) can0 12F97450#8000
(1438650945.645841) can0 12F85C50#00
(1438650945.646978) can0 12F95F50#8284860000000000
(1438650945.648116) can0 16F86250#0E00000000000000
(1438650945.648824) can0 0AF97950#00
(1438650945.649814) can0 12F95A50#00000000
(1438650945.651610) can0 12F88090#00
(1438650945.654926) can0 12F85050#000322200008
(1438650945.655739) can0 12F84010#40
(1438650945.656311) can0 12F97150#E0FF58
(1438650945.657226) can0 0EF81490#00
(1438650945.657947) can0 12F97350#0000
(1438650945.658346) can0 12F97C50#18
(1438650945.659857) can0 0EF86350#0000000055559CBA
(1438650945.676501) can0 12F85150#4001000060
(1438650945.686735) can0 12F89090#00010004
(1438650945.704625) can0 0EF81510#02
(1438650945.705696) can0 12F96050#00000000410A00
(1438650945.714634) can0 0EF82010#00
(1438650945.715614) can0 12F83010#80
(1438650945.716603) can0 12F83110#08
(1438650945.724618) can0 12F83410#20
(1438650945.725612) can0 12F84110#00
(1438650945.726610) can0 12F84210#00
(1438650945.727609) can0 12F84310#00
(1438650945.734623) can0 12F87810#00
(1438650945.735743) can0 0EF91250#0000000000000008
(1438650945.744952) can0 12F81010#3800800000
(1438650945.745617) can0 12F97450#8040
(1438650945.755114) can0 12F85050#000322200008
(1438650945.755852) can0 12F97150#E0FF58
(1438650945.756971) can0 0EF86350#0000000055559FB7
(1438650945.757555) can0 1610FF90#
(1438650945.758249) can0 0EF82390#0102
(1438650945.775004) can0 12F96D50#04000000
(1438650945.776508) can0 0EF88190#00
(1438650945.785625) can0 12F85450#1636000000160000
(1438650945.794999) can0 0AF81110#180000000000
(1438650945.805469) can0 12F96050#00000000410A00
(1438650945.824705) can0 0AF87010#0024
(1438650945.845211) can0 12F97450#8000
(1438650945.855100) can0 12F85050#000324200008
(1438650945.855849) can0 12F97150#E0FF58
(1438650945.856483) can0 12F97650#04
(1438650945.857603) can0 0EF86350#000000005555A1B5
(1438650945.864635) can0 12F82C10#20
(1438650945.865600) can0 12F83210#08
(1438650945.874973) can0 0AF87110#00FF00
(1438650945.884124) can0 0EF87372#043E
(1438650945.905387) can0 12F96050#00000000410A00
(1438650945.935386) can0 0EF91250#0000000000000008
(1438650945.936488) can0 12F86150#00001000000000FC
(1438650945.945107) can0 12F97450#8000
(1438650945.945716) can0 12F85C50#00
(1438650945.946881) can0 16F86250#0F00000000000000
(1438650945.947503) can0 0AF97950#00
(1438650945.948364) can0 12F95A50#00000000
(1438650945.951482) can0 12F88090#00
(1438650945.954631) can0 12F84010#40
(1438650945.955627) can0 12F85050#000321200008
(1438650945.956383) can0 12F97150#E0FF58
(1438650945.957021) can0 0EF81490#00
(1438650945.957762) can0 12F97350#0000
(1438650945.958879) can0 0EF86350#000000005555A4B2
(1438650945.975092) can0 12F96D50#04000000
(1438650945.975969) can0 12F85150#4001000060
(1438650945.986907) can0 12F89090#00010004
(1438650946.004658) can0 0EF81510#02
(1438650946.005710) can0 12F96050#00000000410A00
(1438650946.014639) can0 0EF82010#00
(1438650946.015622) can0 12F83010#80
(1438650946.016617) can0 12F83110#08
(1438650946.024633) can0 12F83410#20
(1438650946.025633) can0 12F84110#00
(1438650946.026637) can0 12F84210#00
(1438650946.027616) can0 12F84310#00
(1438650946.034638) can0 12F87810#00
(1438650946.044957) can0 12F81010#3800800000
(1438650946.045878) can0 12F97450#8000
(1438650946.046653) can0 1610FF54#
(1438650946.055026) can0 12F85050#000326200008
(1438650946.055770) can0 12F97150#E0FF58
(1438650946.056888) can0 0EF86350#000000005555A6B0
(1438650946.057599) can0 0EF82390#0102
(1438650946.076477) can0 0EF88190#00
(1438650946.086033) can0 12F85450#1636000000160000
(1438650946.095012) can0 0AF81110#180000000000
(1438650946.105542) can0 12F96050#00000000410A00
(1438650946.124733) can0 0AF87010#0024
(1438650946.135391) can0 0EF91250#0000000000000008
(1438650946.145149) can0 12F97450#8040
(1438650946.146273) can0 12F95F50#8284860000000000
(1438650946.155113) can0 12F85050#000328200008
(1438650946.155851) can0 12F97150#E0FF58
(1438650946.156488) can0 12F82290#80
(1438650946.157110) can0 12F97C50#18
(1438650946.158235) can0 0EF86350#000000005555A9AD
(1438650946.164650) can0 12F82C10#20
(1438650946.165625) can0 12F83210#08
(1438650946.166607) can0 1610FF10#
(1438650946.174768) can0 0AF87110#00FF00
(1438650946.175612) can0 12F96D50#04000000
(1438650946.183787) can0 0EF87372#043E
(1438650946.205725) can0 12F96050#00000000410A00
(1438650946.235244) can0 12F86150#00001000000000FC
(1438650946.241869) can0 1610FF50#
(1438650946.245278) can0 12F97450#8000
(1438650946.245918) can0 12F85C50#00
(1438650946.247112) can0 16F86250#0000000010000000
(1438650946.247742) can0 0AF97950#00
(1438650946.248615) can0 12F95A50#00000000
(1438650946.251494) can0 12F88090#00
(1438650946.254632) can0 12F84010#40
(1438650946.255621) can0 12F85050#000325200008
(1438650946.256390) can0 12F97150#E0FF58
(1438650946.257036) can0 0EF81490#00
(1438650946.257743) can0 12F97350#0000
(1438650946.258871) can0 0EF86350#000000005555ABAB
(1438650946.263599) can0 1610FF72#
(1438650946.274980) can0 12F85150#4001000060
(1438650946.286733) can0 12F89090#00010004
(1438650946.304651) can0 0EF81510#02
(1438650946.305683) can0 12F96050#00000000410A00
(1438650946.310604) can0 16F97D54#A22518199F91B321
(1438650946.314623) can0 0EF82010#00
(1438650946.315618) can0 12F83010#80
(1438650946.316608) can0 12F83110#08
(1438650946.324933) can0 12F83410#20
(1438650946.325937) can0 12F84110#00
(1438650946.326929) can0 12F84210#00
(1438650946.327927) can0 12F84310#00
(1438650946.334882) can0 12F87810#00
(1438650946.335934) can0 0EF91250#0000000000000008
(1438650946.344928) can0 12F81010#3800800000
(1438650946.345629) can0 12F97450#8040
(1438650946.355182) can0 12F85050#000326200008
(1438650946.355921) can0 12F97150#E0FF58
(1438650946.356627) can0 0EF82390#0102
(1438650946.357754) can0 0EF86350#000000005555AEA8
(1438650946.374944) can0 12F96D50#04000000
(1438650946.376412) can0 0EF88190#00
(1438650946.385557) can0 12F85450#1636000000160000
(1438650946.395023) can0 0AF81110#180000000000
(1438650946.405758) can0 12F96050#00000000410A00
(1438650946.424739) can0 0AF87010#0024
(1438650946.445284) can0 12F97450#8000
(1438650946.455565) can0 12F85050#000320200008
(1438650946.456154) can0 12F97150#E0FF58
(1438650946.457043) can0 0EF86350#000000005555B0A6
(1438650946.464669) can0 12F82C10#20
(1438650946.465635) can0 12F83210#08
(1438650946.474779) can0 0AF87110#00FF00
(1438650946.483445) can0 0EF87372#043E
(1438650946.505517) can0 12F96050#00000000410A00
(1438650946.535441) can0 0EF91250#0000000000000008
(1438650946.536545) can0 12F86150#00001000000000FC
(1438650946.545171) can0 12F97450#8000
(1438650946.545807) can0 12F85C50#00
(1438650946.546884) can0 16F86250#01334847474B3500
(1438650946.547518) can0 0AF97950#00
(1438650946.548382) can0 12F95A50#00000000
(1438650946.551432) can0 12F88090#00
(1438650946.554634) can0 12F84010#40
(1438650946.555624) can0 12F85050#00031D200008
(1438650946.556748) can0 0EF86350#000000005555B3A3
(1438650946.558081) can0 0EF81490#00
(1438650946.558507) can0 12F97150#E0FF58
(1438650946.558887) can0 12F97350#0000
(1438650946.559944) can0 12F85250#7F0038A8
(1438650946.574938) can0 12F96D50#04000000
(1438650946.575896) can0 12F85150#4001000060
(1438650946.586703) can0 12F89090#00010004
(1438650946.604676) can0 0EF81510#02
(1438650946.605698) can0 12F96050#00000000410A00
(1438650946.614661) can0 0EF82010#00
(1438650946.615650) can0 12F83010#80
(1438650946.616633) can0 12F83110#08
(1438650946.624650) can0 12F83410#20
(1438650946.625652) can0 12F84110#00
(1438650946.626651) can0 12F84210#00
(1438650946.627648) can0 12F84310#00
(1438650946.634653) can0 12F87810#00
(1438650946.644953) can0 12F81010#3800800000
(1438650946.645651) can0 12F97450#8000
(1438650946.646793) can0 12F95F50#8284860000000000
(1438650946.655141) can0 12F85050#00031D200008
(1438650946.655891) can0 12F97150#E0FF58
(1438650946.656556) can0 0EF82390#0102
(1438650946.657203) can0 12F97C50#18
(1438650946.658325) can0 0EF86350#000000005555B5A1
(1438650946.676470) can0 0EF88190#00
(1438650946.685708) can0 12F85450#1636000000160000
(1438650946.695032) can0 0AF81110#180000000000
(1438650946.705531) can0 12F96050#00000000410A00
(1438650946.724720) can0 0AF87010#0024
(1438650946.735152) can0 0EF91250#0000000000000008
(1438650946.745080) can0 12F97450#8040
(1438650946.755196) can0 12F85050#000321200008
(1438650946.755940) can0 12F97150#E0FF58
(1438650946.757058) can0 0EF86350#000000005555B89E
(1438650946.757597) can0 1610FF90#
(1438650946.764689) can0 12F82C10#20
(1438650946.765645) can0 12F83210#08
(1438650946.774789) can0 0AF87110#00FF00
(1438650946.775589) can0 12F96D50#04000000
(1438650946.783189) can0 0EF87372#043E
(1438650946.805447) can0 12F96050#00000000410A00
(1438650946.835320) can0 12F86150#00001000000000FC
(1438650946.845198) can0 12F97450#8000
(1438650946.845817) can0 12F85C50#00
(1438650946.846912) can0 16F86250#02483839464D3700
(1438650946.847547) can0 0AF97950#00
(1438650946.848399) can0 12F95A50#00000000
(1438650946.851470) can0 12F88090#00
(1438650946.854669) can0 12F84010#40
(1438650946.855656) can0 12F85050#00031E200008
(1438650946.856420) can0 12F97150#E0FF58
(1438650946.857082) can0 0EF81490#00
(1438650946.857778) can0 12F97350#0000
(1438650946.858424) can0 12F97650#04
(1438650946.859546) can0 0EF86350#000000005555BA9C
(1438650946.875098) can0 12F85150#4001000060
(1438650946.886719) can0 12F89090#00010004
(1438650946.904820) can0 0EF81510#02
(1438650946.905905) can0 12F96050#00000000410A00
(1438650946.914679) can0 0EF82010#00
(1438650946.915659) can0 12F83010#80
(1438650946.916610) can0 12F83110#08
(1438650946.924612) can0 12F83410#20
(1438650946.925613) can0 12F84110#00
(1438650946.926603) can0 12F84210#00
(1438650946.927600) can0 12F84310#00
(1438650946.934658) can0 12F87810#00
(1438650946.935802) can0 0EF91250#0000000000000008
(1438650946.944971) can0 12F81010#3800800000
(1438650946.945613) can0 12F97450#8040
(1438650946.955111) can0 12F85050#00031E200008
(1438650946.956217) can0 0EF86350#000000005555BD99
(1438650946.956926) can0 0EF82390#0102
(1438650946.957695) can0 12F97150#E0FF58
(1438650946.974946) can0 12F96D50#04000000
(1438650946.976454) can0 0EF88190#00
(1438650946.985310) can0 12F85450#1636000000160000
(1438650946.995042) can0 0AF81110#180000000000
(1438650947.005617) can0 12F96050#00000000410A00
(1438650947.024935) can0 0AF87010#0024
(1438650947.045055) can0 12F97450#8000
(1438650947.047076) can0 1610FF54#
(1438650947.055081) can0 12F85050#000323200008
(1438650947.055832) can0 12F97150#E0FF58
(1438650947.056955) can0 0EF86350#000000005555BF97
(1438650947.064666) can0 12F82C10#20
(1438650947.065618) can0 12F83210#08
(1438650947.074816) can0 0AF87110#00FF00
(1438650947.082848) can0 0EF87372#043E
(1438650947.105499) can0 12F96050#00000000410A00
(1438650947.135183) can0 0EF91250#0000000000000008
(1438650947.136321) can0 12F86150#00001000000000FC
(1438650947.145175) can0 12F97450#8040
(1438650947.145809) can0 12F85C50#00
(1438650947.146946) can0 12F95F50#8284860000000000
(1438650947.148061) can0 16F86250#0333333134300000
(1438650947.149803) can0 12F96750#B2270F890000
(1438650947.150179) can0 0AF97950#00
(1438650947.150554) can0 12F95A50#00000000
(1438650947.151438) can0 12F88090#00
(1438650947.154623) can0 12F84010#40
(1438650947.155835) can0 12F85050#000323200008
(1438650947.156381) can0 12F97150#E0FF58
(1438650947.157009) can0 12F82290#80
(1438650947.158216) can0 12F97350#0000
(1438650947.158829) can0 0EF81490#00
(1438650947.159216) can0 12F97C50#18
(1438650947.160489) can0 0EF86350#000000005555C294
(1438650947.164611) can0 1610FF10#
(1438650947.175055) can0 12F96D50#04000000
(1438650947.175935) can0 12F85150#4001000060
(1438650947.186723) can0 12F89090#00010004
(1438650947.204642) can0 0EF81510#02
(1438650947.205734) can0 12F96050#00000000410A00
(1438650947.214639) can0 0EF82010#00
(1438650947.215625) can0 12F83010#80
(1438650947.216617) can0 12F83110#08
(1438650947.224642) can0 12F83410#20
(1438650947.225626) can0 12F84110#00
(1438650947.226612) can0 12F84210#00
(1438650947.227613) can0 12F84310#00
(1438650947.234953) can0 12F87810#00
(1438650947.245079) can0 12F81010#3800800000
(1438650947.245937) can0 12F97450#8000
(1438650947.246367) can0 1610FF50#
(1438650947.255003) can0 12F85050#00031E200008
(1438650947.255760) can0 12F97150#E0FF58
(1438650947.256866) can0 0EF86350#000000005555C492
(1438650947.257580) can0 0EF82390#0102
(1438650947.262516) can0 1610FF72#
(1438650947.276995) can0 0EF88190#00
(1438650947.285725) can0 12F85450#1636000000160000
(1438650947.295016) can0 0AF81110#180000000000
(1438650947.305581) can0 12F96050#00000000410A00
(1438650947.310450) can0 16F97D54#A22518199F91B3A1
(1438650947.324766) can0 0AF87010#0024
(1438650947.335230) can0 0EF91250#0000000000000008
(1438650947.345089) can0 12F97450#8040
(1438650947.355119) can0 12F85050#000320200008
(1438650947.356081) can0 12F97150#E0FF58
(1438650947.357122) can0 0EF86350#000000005555C78F
(1438650947.364703) can0 12F82C10#20
(1438650947.365629) can0 12F83210#08
(1438650947.374773) can0 0AF87110#00FF00
(1438650947.375626) can0 12F96D50#04000000
(1438650947.382575) can0 0EF87372#043F
(1438650947.405464) can0 12F96050#00000000410A00
(1438650947.435376) can0 12F86150#00001000000000FC
(1438650947.445028) can0 12F97450#8000
(1438650947.445874) can0 12F95A50#00000000
(1438650947.446499) can0 12F85C50#00
(1438650947.447132) can0 0AF97950#00
(1438650947.448261) can0 16F86250#0431144003050000
(1438650947.451409) can0 12F88090#00
(1438650947.454975) can0 12F85050#00031B200008
(1438650947.455597) can0 12F84010#40
(1438650947.456362) can0 12F97150#E0FF58
(1438650947.456997) can0 0EF81490#00
(1438650947.457723) can0 12F97350#0000
(1438650947.458847) can0 0EF86350#000000005555C98D
(1438650947.475127) can0 12F85150#4001000060
(1438650947.486840) can0 12F89090#00010004
(1438650947.504659) can0 0EF81510#02
(1438650947.505749) can0 12F96050#00000000410A00
(1438650947.514667) can0 0EF82010#00
(1438650947.515652) can0 12F83010#80
(1438650947.516642) can0 12F83110#08
(1438650947.524648) can0 12F83410#20
(1438650947.525641) can0 12F84110#00
(1438650947.526639) can0 12F84210#00
(1438650947.527637) can0 12F84310#00
(1438650947.534657) can0 12F87810#00
(1438650947.535789) can0 0EF91250#0000000000000008
(1438650947.544983) can0 12F81010#3800800000
(1438650947.545642) can0 12F97450#8000
(1438650947.555040) can0 12F85050#00031E200008
(1438650947.556150) can0 0EF86350#000000005555CC8A
(1438650947.556875) can0 0EF82390#0102
(1438650947.557642) can0 12F97150#E0FF58
(1438650947.558482) can0 12F85250#7F0038A8
(1438650947.575134) can0 12F96D50#04000000
(1438650947.576418) can0 0EF88190#00
(1438650947.585664) can0 12F85450#1636000000160000
(1438650947.595035) can0 0AF81110#180000000000
(1438650947.605529) can0 12F96050#00000000410A00
(1438650947.624765) can0 0AF87010#0024
(1438650947.645114) can0 12F97450#8040
(1438650947.646224) can0 12F95F50#8284860000000000
(1438650947.655131) can0 12F85050#00031E200008
(1438650947.655882) can0 12F97150#E0FF58
(1438650947.656515) can0 12F97C50#18
(1438650947.657631) can0 0EF86350#000000005555CE88
(1438650947.664674) can0 12F82C10#20
(1438650947.665656) can0 12F83210#08
(1438650947.674803) can0 0AF87110#00FF00
(1438650947.684995) can0 0EF87372#043F
(1438650947.705547) can0 12F96050#00000000410A00
(1438650947.735114) can0 0EF91250#0000000000000008
(1438650947.736235) can0 12F86150#00001000000000FC
(1438650947.745169) can0 12F97450#8000
(1438650947.746027) can0 12F95A50#00000000
(1438650947.746663) can0 12F85C50#00
(1438650947.747285) can0 0AF97950#00
(1438650947.748496) can0 16F86250#0500000000000000
(1438650947.751417) can0 12F88090#00
(1438650947.754898) can0 12F85050#000321200008
(1438650947.755525) can0 12F84010#40
(1438650947.756272) can0 12F97150#E0FF58
(1438650947.757000) can0 12F97350#0000
(1438650947.758125) can0 0EF86350#000000005555D185
(1438650947.758662) can0 1610FF90#
(1438650947.759629) can0 0EF81490#00
(1438650947.775002) can0 12F96D50#04000000
(1438650947.775897) can0 12F85150#4001000060
(1438650947.786757) can0 12F89090#00010004
(1438650947.804885) can0 0EF81510#02
(1438650947.806045) can0 12F96050#00000000410A00
(1438650947.814684) can0 0EF82010#00
(1438650947.815670) can0 12F83010#80
(1438650947.816662) can0 12F83110#08
(1438650947.824683) can0 12F83410#20
(1438650947.825668) can0 12F84110#00
(1438650947.826673) can0 12F84210#00
(1438650947.827664) can0 12F84310#00
(1438650947.834685) can0 12F87810#00
(1438650947.845008) can0 12F81010#3800800000
(1438650947.845658) can0 12F97450#8040
(1438650947.855142) can0 12F85050#000323200008
(1438650947.855886) can0 12F97150#E0FF58
(1438650947.856555) can0 0EF82390#0102
(1438650947.857188) can0 12F97650#04
(1438650947.858313) can0 0EF86350#000000005555D383
(1438650947.876436) can0 0EF88190#00
(1438650947.885543) can0 12F85450#1636000000160000
(1438650947.895060) can0 0AF81110#180000000000
(1438650947.905501) can0 12F96050#00000000410A00
(1438650947.925035) can0 0AF87010#0024
(1438650947.935178) can0 0EF91250#0000000000000008
(1438650947.945127) can0 12F97450#8000
(1438650947.955052) can0 12F85050#00031D200008
(1438650947.955804) can0 12F97150#E0FF58
(1438650947.956926) can0 0EF86350#000000005555D680
(1438650947.964694) can0 12F82C10#20
(1438650947.965672) can0 12F83210#08
(1438650947.974822) can0 0AF87110#00FF00
(1438650947.975662) can0 12F96D50#04000000
(1438650947.981910) can0 0EF87372#043F
(1438650948.005449) can0 12F96050#00000000410A00
(1438650948.035191) can0 12F86150#00001000000000FC
(1438650948.045089) can0 12F97450#8040
(1438650948.045696) can0 12F85C50#00
(1438650948.046884) can0 16F86250#0600000000000000
(1438650948.047456) can0 0AF97950#00
(1438650948.048323) can0 12F95A50#00000000
(1438650948.048902) can0 1610FF54#
(1438650948.051449) can0 12F88090#00
(1438650948.055024) can0 12F85050#000320200008
(1438650948.055653) can0 12F84010#40
(1438650948.056420) can0 12F97150#E0FF58
(1438650948.057069) can0 0EF81490#00
(1438650948.057777) can0 12F97350#0000
(1438650948.058919) can0 0EF86350#000000005555D87E
(1438650948.075082) can0 12F85150#4001000060
(1438650948.086705) can0 12F89090#00010004
(1438650948.104712) can0 0EF81510#02
(1438650948.105767) can0 12F96050#00000000410A00
(1438650948.114704) can0 0EF82010#00
(1438650948.115702) can0 12F83010#80
(1438650948.116673) can0 12F83110#08
(1438650948.124688) can0 12F83410#20
(1438650948.125671) can0 12F84110#00
(1438650948.126657) can0 12F84210#00
(1438650948.127659) can0 12F84310#00
(1438650948.134962) can0 12F87810#00
(1438650948.136088) can0 0EF91250#0000000000000008
(1438650948.145166) can0 12F81010#3800800000
(1438650948.145844) can0 12F97450#8040
(1438650948.146818) can0 12F95F50#8284860000000000
(1438650948.154948) can0 12F85050#000316200008
(1438650948.155690) can0 12F97150#E0FF58
(1438650948.156328) can0 12F97C50#18
(1438650948.157450) can0 0EF86350#000000005555DB7B
(1438650948.158083) can0 12F82290#80
(1438650948.158807) can0 0EF82390#0102
(1438650948.164600) can0 1610FF10#
(1438650948.174964) can0 12F96D50#04000000
(1438650948.176424) can0 0EF88190#00
(1438650948.185460) can0 12F85450#1636000000160000
(1438650948.195068) can0 0AF81110#180000000000
(1438650948.205450) can0 12F96050#00000000410A00
(1438650948.224782) can0 0AF87010#0024
(1438650948.245194) can0 12F97450#8000
(1438650948.251459) can0 1610FF50#
(1438650948.255173) can0 12F85050#000321200008
(1438650948.256149) can0 12F97150#E0FF58
(1438650948.257177) can0 0EF86350#000000005555DD79
(1438650948.261433) can0 1610FF72#
(1438650948.264683) can0 12F82C10#20
(1438650948.265662) can0 12F83210#08
(1438650948.274853) can0 0AF87110#00FF00
(1438650948.281591) can0 0EF87372#043F
(1438650948.305483) can0 12F96050#00000000410A00
(1438650948.310187) can0 16F97D54#A22518199F91B421
(1438650948.335241) can0 0EF91250#0000000000000008
(1438650948.336359) can0 12F86150#00001000000000FC
(1438650948.344967) can0 12F97450#8000
(1438650948.345591) can0 12F85C50#00
(1438650948.346728) can0 16F86250#0700000000000000
(1438650948.347356) can0 0AF97950#00
(1438650948.348221) can0 12F95A50#00000000
(1438650948.351438) can0 12F88090#00
(1438650948.354680) can0 12F84010#40
(1438650948.355667) can0 12F85050#000322200008
(1438650948.356427) can0 12F97150#E0FF58
(1438650948.357078) can0 0EF81490#00
(1438650948.357803) can0 12F97350#0000
(1438650948.358925) can0 0EF86350#000000005555E076
(1438650948.375217) can0 12F96D50#04000000
(1438650948.376169) can0 12F85150#4001000060
(1438650948.386718) can0 12F89090#00010004
(1438650948.404713) can0 0EF81510#02
(1438650948.405729) can0 12F96050#00000000410A00
(1438650948.414717) can0 0EF82010#00
(1438650948.415691) can0 12F83010#80
(1438650948.416678) can0 12F83110#08
(1438650948.424707) can0 12F83410#20
(1438650948.425700) can0 12F84110#00
(1438650948.426689) can0 12F84210#00
(1438650948.427684) can0 12F84310#00
(1438650948.434709) can0 12F87810#00
(1438650948.444989) can0 12F81010#3800800000
(1438650948.445687) can0 12F97450#8040
(1438650948.455083) can0 12F85050#000318200008
(1438650948.455835) can0 12F97150#E0FF58
(1438650948.456544) can0 0EF82390#0102
(1438650948.457619) can0 0EF86350#000000005555E274
(1438650948.476461) can0 0EF88190#00
(1438650948.485494) can0 12F85450#1636000000160000
(1438650948.495086) can0 0AF81110#180000000000
(1438650948.505463) can0 12F96050#00000000410A00
(1438650948.524748) can0 0AF87010#0024
(1438650948.535179) can0 0EF91250#0000000000000008
(1438650948.544982) can0 12F97450#8040
(1438650948.555070) can0 12F85050#000322200008
(1438650948.556173) can0 0EF86350#000000005555E571
(1438650948.556945) can0 12F97150#E0FF58
(1438650948.557751) can0 12F85250#7F0038A8
(1438650948.564712) can0 12F82C10#20
(1438650948.565693) can0 12F83210#08
(1438650948.574855) can0 12F96D50#04000000
(1438650948.575589) can0 0AF87110#00FF00
(1438650948.581303) can0 0EF87372#043F
(1438650948.605858) can0 12F96050#00000000410A00
(1438650948.635263) can0 12F86150#00001000000000FC
(1438650948.645143) can0 12F97450#8040
(1438650948.645754) can0 12F85C50#00
(1438650948.646934) can0 12F95F50#8284860000000000
(1438650948.648119) can0 16F86250#0800000000000000
(1438650948.648748) can0 0AF97950#00
(1438650948.649628) can0 12F95A50#00000000
(1438650948.651389) can0 12F88090#00
(1438650948.654682) can0 12F84010#40
(1438650948.655700) can0 12F85050#000321200008
(1438650948.656451) can0 12F97150#E0FF58
(1438650948.657102) can0 0EF81490#00
(1438650948.657808) can0 12F97350#0000
(1438650948.658452) can0 12F97C50#18
(1438650948.659608) can0 0EF86350#000000005555E76F
(1438650948.675339) can0 12F85150#4001000060
(1438650948.687755) can0 12F89090#00010004
(1438650948.704888) can0 0EF81510#02
(1438650948.706090) can0 12F96050#00000000410A00
(1438650948.714737) can0 0EF82010#00
(1438650948.715702) can0 12F83010#80
(1438650948.716695) can0 12F83110#08
(1438650948.724711) can0 12F83410#20
(1438650948.725709) can0 12F84110#00
(1438650948.726696) can0 12F84210#00
(1438650948.727693) can0 12F84310#00
(1438650948.735147) can0 0EF91250#0000000000000008
(1438650948.735761) can0 12F87810#00
(1438650948.745003) can0 12F81010#3800800000
(1438650948.745698) can0 12F97450#8040
(1438650948.755128) can0 12F85050#00031E200008
(1438650948.755880) can0 12F97150#E0FF58
(1438650948.756998) can0 0EF86350#000000005555EA6C
(1438650948.757588) can0 1610FF90#
(1438650948.758268) can0 0EF82390#0102
(1438650948.774863) can0 12F96D50#04000000
(1438650948.776399) can0 0EF88190#00
(1438650948.785467) can0 12F85450#1636000000160000
(1438650948.795090) can0 0AF81110#180000000000
(1438650948.805280) can0 12F96050#00000000410A00
(1438650948.825090) can0 0AF87010#0024
(1438650948.845150) can0 12F97450#8040
(1438650948.855005) can0 12F85050#000322200008
(1438650948.855761) can0 12F97150#E0FF58
(1438650948.856396) can0 12F97650#04
(1438650948.857504) can0 0EF86350#000000005555EC6A
(1438650948.864719) can0 12F82C10#20
(1438650948.865658) can0 12F83210#08
(1438650948.874849) can0 0AF87110#00FF00
(1438650948.880968) can0 0EF87372#043F
(1438650948.905461) can0 12F96050#00000000410A00
(1438650948.935265) can0 0EF91250#0000000000000008
(1438650948.936392) can0 12F86150#00001000000000FC
(1438650948.945094) can0 12F97450#8040
(1438650948.945714) can0 12F85C50#00
(1438650948.946868) can0 16F86250#0900000000000000
(1438650948.947728) can0 12F95A50#00000000
(1438650948.948354) can0 0AF97950#00
(1438650948.951459) can0 12F88090#00
(1438650948.954909) can0 12F85050#000324200008
(1438650948.955542) can0 12F84010#40
(1438650948.956337) can0 12F97150#E0FF58
(1438650948.956999) can0 0EF81490#00
(1438650948.957716) can0 12F97350#0000
(1438650948.958792) can0 0EF86350#000000005555EF67
(1438650948.974912) can0 12F96D50#04000000
(1438650948.975841) can0 12F85150#4001000060
(1438650948.986714) can0 12F89090#00010004
(1438650949.004726) can0 0EF81510#02
(1438650949.005770) can0 12F96050#00000000410A00
(1438650949.014719) can0 0EF82010#00
(1438650949.015723) can0 12F83010#80
(1438650949.016664) can0 12F83110#08
(1438650949.025113) can0 12F83410#20
(1438650949.025715) can0 12F84110#00
(1438650949.026661) can0 12F84210#00
(1438650949.027662) can0 12F84310#00
(1438650949.034907) can0 12F87810#00
(1438650949.045238) can0 12F81010#3800800000
(1438650949.046411) can0 12F97450#8040
(1438650949.048243) can0 1610FF54#
(1438650949.055163) can0 12F85050#00031C200008
(1438650949.055892) can0 12F97150#E0FF58
(1438650949.056542) can0 0EF82390#0102
(1438650949.057669) can0 0EF86350#000000005555F165
(1438650949.076490) can0 0EF88190#00
(1438650949.085416) can0 12F85450#1636000000160000
(1438650949.095098) can0 0AF81110#180000000000
(1438650949.105170) can0 12F96050#00000000410A00
(1438650949.124865) can0 0AF87010#0024
(1438650949.135170) can0 0EF91250#0000000000000008
(1438650949.145224) can0 12F97450#8040
(1438650949.146250) can0 12F95F50#8284860000000000
(1438650949.155256) can0 12F85050#000320200008
(1438650949.156158) can0 12F97150#E0FF58
(1438650949.156620) can0 12F82290#80
(1438650949.157121) can0 12F97C50#18
(1438650949.158276) can0 0EF86350#000000005555F462
(1438650949.164727) can0 12F82C10#20
(1438650949.165669) can0 12F83210#08
(1438650949.166672) can0 1610FF10#
(1438650949.174918) can0 12F96D50#04000000
(1438650949.175663) can0 0AF87110#00FF00
(1438650949.180652) can0 0EF87372#043F
(1438650949.205402) can0 12F96050#00000000410A00
(1438650949.235128) can0 12F86150#00001000000000FC
(1438650949.245034) can0 12F97450#8000
(1438650949.245652) can0 12F85C50#00
(1438650949.246808) can0 16F86250#0A00000000808000
(1438650949.247418) can0 0AF97950#00
(1438650949.248275) can0 12F95A50#00000000
(1438650949.251486) can0 12F88090#00
(1438650949.255257) can0 12F85050#000323200008
(1438650949.255793) can0 12F84010#40
(1438650949.256394) can0 12F97150#E0FF58
(1438650949.257246) can0 0EF81490#00
(1438650949.258149) can0 12F97350#0000
(1438650949.258548) can0 1610FF50#
(1438650949.259537) can0 0EF86350#000000005555F660
(1438650949.260317) can0 1610FF72#
(1438650949.274869) can0 12F85150#4001000060
(1438650949.286752) can0 12F89090#00010004
(1438650949.304740) can0 0EF81510#02
(1438650949.305797) can0 12F96050#00000000410A00
(1438650949.310385) can0 16F97D54#A22518199F91B4A1
(1438650949.314692) can0 0EF82010#00
(1438650949.315686) can0 12F83010#80
(1438650949.316678) can0 12F83110#08
(1438650949.324749) can0 12F83410#20
(1438650949.325824) can0 12F84110#00
(1438650949.326681) can0 12F84210#00
(1438650949.327686) can0 12F84310#00
(1438650949.335192) can0 0EF91250#0000000000000008
(1438650949.335811) can0 12F87810#00
(1438650949.345034) can0 12F81010#3800800000
(1438650949.345691) can0 12F97450#8040
(1438650949.355004) can0 12F85050#000321200008
(1438650949.355747) can0 12F97150#E0FF58
(1438650949.356875) can0 0EF86350#000000005555F95D
(1438650949.357554) can0 0EF82390#0102
(1438650949.375172) can0 12F96D50#04000000
(1438650949.376429) can0 0EF88190#00
(1438650949.385518) can0 12F85450#1636000000160000
(1438650949.395079) can0 0AF81110#180000000000
(1438650949.405444) can0 12F96050#00000000410A00
(1438650949.425145) can0 0AF87010#0024
(1438650949.444957) can0 12F97450#8040
(1438650949.454937) can0 12F85050#000320200008
(1438650949.455692) can0 12F97150#E0FF58
(1438650949.456815) can0 0EF86350#000000005555FB5B
(1438650949.464705) can0 12F82C10#20
(1438650949.465689) can0 12F83210#08
(1438650949.474837) can0 0AF87110#00FF00
(1438650949.480583) can0 0EF87372#043F
(1438650949.505563) can0 12F96050#00000000410A00
(1438650949.535214) can0 0EF91250#0000000000000008
(1438650949.536340) can0 12F86150#00001000000000FC
(1438650949.545093) can0 12F97450#8000
(1438650949.545710) can0 12F85C50#00
(1438650949.546907) can0 16F86250#0B00000000000000
(1438650949.547532) can0 0AF97950#00
(1438650949.548405) can0 12F95A50#00000000
(1438650949.551448) can0 12F88090#00
(1438650949.554951) can0 12F85050#000321200008
(1438650949.556068) can0 0EF86350#000000005555FE58
(1438650949.556718) can0 0EF81490#00
(1438650949.557391) can0 12F84010#40
(1438650949.558157) can0 12F97150#E0FF58
(1438650949.558835) can0 12F97350#0000
(1438650949.559699) can0 12F85250#7F0038A8
(1438650949.574786) can0 12F96D50#04000000
(1438650949.575695) can0 12F85150#4001000060
(1438650949.586705) can0 12F89090#00010004
(1438650949.604811) can0 0EF81510#02
(1438650949.605961) can0 12F96050#00000000410A00
(1438650949.614765) can0 0EF82010#00
(1438650949.615709) can0 12F83010#80
(1438650949.616703) can0 12F83110#08
(1438650949.624714) can0 12F83410#20
(1438650949.625707) can0 12F84110#00
(1438650949.626705) can0 12F84210#00
(1438650949.627699) can0 12F84310#00
(1438650949.634781) can0 12F87810#00
(1438650949.645042) can0 12F81010#3800800000
(1438650949.645694) can0 12F97450#8000
(1438650949.646843) can0 12F95F50#8284860000000000
(1438650949.655020) can0 12F85050#000318200008
(1438650949.655782) can0 12F97150#E0FF58
(1438650949.656900) can0 0EF86350#0000000055550056
(1438650949.657566) can0 0EF82390#0102
(1438650949.658204) can0 12F97C50#18
(1438650949.676451) can0 0EF88190#00
(1438650949.685297) can0 12F85450#1636000000160000
(1438650949.695096) can0 0AF81110#180000000000
(1438650949.705323) can0 12F96050#00000000410A00
(1438650949.724824) can0 0AF87010#0024
(1438650949.735080) can0 0EF91250#0000000000000008
(1438650949.744957) can0 12F97450#8040
(1438650949.754536) can0 1610FF90#
(1438650949.755532) can0 12F85050#000320200008
(1438650949.756292) can0 12F97150#E0FF58
(1438650949.757426) can0 0EF86350#0000000055550353
(1438650949.764733) can0 12F82C10#20
(1438650949.765717) can0 12F83210#08
(1438650949.774734) can0 12F96D50#04000000
(1438650949.775485) can0 0AF87110#00FF00
(1438650949.779989) can0 0EF87372#043F
(1438650949.805482) can0 12F96050#00000000410A00
(1438650949.835201) can0 12F86150#00001000000000FC
(1438650949.845111) can0 12F97450#8040
(1438650949.845730) can0 12F85C50#00
(1438650949.846847) can0 16F86250#0C00000000000000
(1438650949.847478) can0 0AF97950#00
(1438650949.848343) can0 12F95A50#00000000
(1438650949.851450) can0 12F88090#00
(1438650949.854852) can0 12F85050#00031F200008
(1438650949.855488) can0 12F84010#40
(1438650949.856224) can0 12F97150#E0FF58
(1438650949.856914) can0 0EF81490#00
(1438650949.857599) can0 12F97350#0000
(1438650949.858234) can0 12F97650#04
(1438650949.859462) can0 0EF86350#0000000055550551
(1438650949.874840) can0 12F85150#4001000060
(1438650949.886701) can0 12F89090#00010004
(1438650949.904724) can0 0EF81510#02
(1438650949.905793) can0 12F96050#00000000410A00
(1438650949.914746) can0 0EF82010#00
(1438650949.915728) can0 12F83010#80
(1438650949.916715) can0 12F83110#08
(1438650949.924738) can0 12F83410#20
(1438650949.925716) can0 12F84110#00
(1438650949.926704) can0 12F84210#00
(1438650949.927716) can0 12F84310#00
(1438650949.935305) can0 0EF91250#0000000000000008
(1438650949.936176) can0 12F87810#00
(1438650949.945250) can0 12F81010#3800800000
(1438650949.945749) can0 12F97450#8040
(1438650949.954999) can0 12F85050#000320200008
(1438650949.955742) can0 12F97150#E0FF58
(1438650949.956851) can0 0EF86350#000000005555084E
(1438650949.957548) can0 0EF82390#0102
(1438650949.974874) can0 12F96D50#04000000
(1438650949.976430) can0 0EF88190#00
(1438650949.985451) can0 12F85450#1636000000160000
(1438650949.995115) can0 0AF81110#180000000000
(1438650950.005318) can0 12F96050#00000000410A00
(1438650950.024824) can0 0AF87010#0024
(1438650950.045080) can0 12F97450#8000
(1438650950.049068) can0 1610FF54#
(1438650950.055229) can0 12F85050#000321200008
(1438650950.055752) can0 12F97150#E0FF58
(1438650950.056872) can0 0EF86350#0000000055550A4C
(1438650950.064747) can0 12F82C10#20
(1438650950.065725) can0 12F83210#08
(1438650950.074887) can0 12F85150#0001000060
(1438650950.075636) can0 0AF87110#00FF00
(1438650950.079702) can0 0EF87372#043F
(1438650950.105378) can0 12F96050#00000000410A00
(1438650950.106490) can0 0EF82390#0002
(1438650950.135266) can0 0EF91250#0000000000000008
(1438650950.136334) can0 12F96150#415F0000000000
(1438650950.137482) can0 12F86150#00001000000000FC
(1438650950.145200) can0 12F97450#8040
(1438650950.145767) can0 12F85C50#00
(1438650950.146957) can0 12F95F50#8284860000000000
(1438650950.148128) can0 16F86250#0D00000000000000
(1438650950.149227) can0 12F96B50#7FF8F10000000000
(1438650950.150215) can0 0AF97950#00
(1438650950.150714) can0 12F95A50#00000000
(1438650950.151369) can0 12F88090#00
(1438650950.155198) can0 12F85050#00031D200008
(1438650950.155644) can0 12F84010#40
(1438650950.156315) can0 12F97150#E0FF58
(1438650950.157216) can0 12F82290#80
(1438650950.157627) can0 12F97350#0000
(1438650950.158268) can0 0EF81490#00
(1438650950.159214) can0 12F97C50#18
(1438650950.160313) can0 0EF86350#0000000055550D49
(1438650950.164705) can0 1610FF10#
(1438650950.174772) can0 12F96D50#04000000
(1438650950.186718) can0 12F89090#00010004
(1438650950.204753) can0 0EF81510#02
(1438650950.205822) can0 12F96050#00000000410A00
(1438650950.214754) can0 0EF82010#00
(1438650950.215737) can0 12F83010#80
(1438650950.216730) can0 12F83110#08
(1438650950.224752) can0 12F83410#20
(1438650950.225745) can0 12F84110#00
(1438650950.226737) can0 12F84210#00
(1438650950.227733) can0 12F84310#00
(1438650950.234751) can0 12F87810#00
(1438650950.245499) can0 12F81010#3800800000
(1438650950.245968) can0 12F97450#8000
(1438650950.254844) can0 12F85050#000327200008
(1438650950.255592) can0 12F97150#E0FF58
(1438650950.256703) can0 0EF86350#0000000055550F47
(1438650950.259451) can0 1610FF72#
(1438650950.260783) can0 1610FF50#
(1438650950.276456) can0 0EF88190#00
(1438650950.285653) can0 12F85450#1636000000160000
(1438650950.294828) can0 12F85150#1001000060
(1438650950.295769) can0 0AF81110#180000000000
(1438650950.305847) can0 12F96050#00000000410A00
(1438650950.310959) can0 16F97D54#A22518199F91B521
(1438650950.315025) can0 12F81010#3800808000
(1438650950.324786) can0 0AF87010#0024
(1438650950.335164) can0 0EF91250#0000000000000008
(1438650950.345006) can0 12F97450#8000
(1438650950.354965) can0 12F85050#000319200008
(1438650950.355657) can0 12F97150#E0FF58
(1438650950.356762) can0 0EF86350#0000000055551244
(1438650950.364753) can0 12F82C10#20
(1438650950.365730) can0 12F83210#08
(1438650950.374794) can0 12F96D50#04000000
(1438650950.375528) can0 0AF87110#00FF00
(1438650950.379615) can0 0EF87372#043E
(1438650950.405539) can0 12F96050#00000000410A00
(1438650950.406499) can0 0EF82390#0002
(1438650950.435046) can0 12F86150#00001000000000FC
(1438650950.444988) can0 12F97450#8000
(1438650950.445600) can0 12F85C50#00
(1438650950.446753) can0 16F86250#0E00000000000000
(1438650950.447391) can0 0AF97950#00
(1438650950.448241) can0 12F95A50#00000000
(1438650950.451406) can0 12F88090#00
(1438650950.454919) can0 12F85050#00031D200008
(1438650950.455548) can0 12F84010#40
(1438650950.456354) can0 12F97150#E0FF58
(1438650950.457145) can0 0EF81490#00
(1438650950.457715) can0 12F97350#0000
(1438650950.458845) can0 0EF86350#0000000055551442
(1438650950.486719) can0 12F89090#00010004
(1438650950.504779) can0 0EF81510#02
(1438650950.505798) can0 12F96050#00000000410A00
(1438650950.514763) can0 0EF82010#00
(1438650950.515739) can0 12F83010#80
(1438650950.516736) can0 12F83110#08
(1438650950.524744) can0 12F83410#20
(1438650950.525743) can0 12F84110#00
(1438650950.526741) can0 12F84210#00
(1438650950.527741) can0 12F84310#00
(1438650950.535035) can0 0EF91250#0000000000000008
(1438650950.535660) can0 12F87810#00
(1438650950.545096) can0 12F97450#8040
(1438650950.554996) can0 12F85050#00031C200008
(1438650950.556049) can0 0EF86350#000000005555173F
(1438650950.556809) can0 12F97150#E0FF58
(1438650950.557662) can0 12F85250#7F0038A8
(1438650950.574616) can0 12F96D50#04000000
(1438650950.576410) can0 0EF88190#00
(1438650950.585536) can0 12F85450#1636000000160000
(1438650950.594867) can0 12F85150#1001000060
(1438650950.595807) can0 0AF81110#180000000000
(1438650950.605436) can0 12F96050#00000000410A00
(1438650950.615295) can0 12F81010#3800808000
(1438650950.624812) can0 0AF87010#0024
(1438650950.645145) can0 12F97450#8040
(1438650950.646253) can0 12F95F50#8284860000000000
(1438650950.654903) can0 12F85050#00031B200008
(1438650950.655630) can0 12F97150#E0FF58
(1438650950.656273) can0 12F97C50#18
(1438650950.657381) can0 0EF86350#000000005555193D
(1438650950.664768) can0 12F82C10#20
(1438650950.665745) can0 12F83210#08
(1438650950.674891) can0 0AF87110#00FF00
(1438650950.679055) can0 0EF87372#043E
(1438650950.705314) can0 12F96050#00000000410A00
(1438650950.706506) can0 0EF82390#0002
(1438650950.735291) can0 0EF91250#0000000000000008
(1438650950.736309) can0 12F86150#00001000000000FC
(1438650950.744923) can0 12F97450#8040
(1438650950.745552) can0 12F85C50#00
(1438650950.746682) can0 16F86250#0F00000000000000
(1438650950.747316) can0 0AF97950#00
(1438650950.748188) can0 12F95A50#00000000
(1438650950.751418) can0 12F88090#00
(1438650950.754893) can0 12F85050#00031C200008
(1438650950.755529) can0 12F84010#40
(1438650950.756452) can0 12F97150#E0FF58
(1438650950.756932) can0 12F97350#0000
(1438650950.758078) can0 0EF86350#0000000055551C3A
(1438650950.758695) can0 1610FF90#
(1438650950.759629) can0 0EF81490#00
(1438650950.774701) can0 12F96D50#04000000
(1438650950.786686) can0 12F89090#00010004
(1438650950.804772) can0 0EF81510#02
(1438650950.805810) can0 12F96050#00000000410A00
(1438650950.814768) can0 0EF82010#00
(1438650950.815764) can0 12F83010#80
(1438650950.816707) can0 12F83110#08
(1438650950.824771) can0 12F83410#20
(1438650950.825749) can0 12F84110#00
(1438650950.826698) can0 12F84210#00
(1438650950.827703) can0 12F84310#00
(1438650950.834779) can0 12F87810#00
(1438650950.845133) can0 12F97450#8040
(1438650950.854830) can0 12F85050#000323200008
(1438650950.855575) can0 12F97150#E0FF58
(1438650950.856201) can0 12F97650#04
(1438650950.857329) can0 0EF86350#0000000055551E38
(1438650950.876449) can0 0EF88190#00
(1438650950.885451) can0 12F85450#1636000000160000
(1438650950.894832) can0 12F85150#1001000060
(1438650950.895814) can0 0AF81110#180000000000
(1438650950.905402) can0 12F96050#00000000410A00
(1438650950.915085) can0 12F81010#3800808000
(1438650950.924828) can0 0AF87010#0024
(1438650950.935093) can0 0EF91250#0000000000000008
(1438650950.944922) can0 12F97450#8000
(1438650950.954950) can0 12F85050#00031E200008
(1438650950.955652) can0 12F97150#E0FF58
(1438650950.956779) can0 0EF86350#0000000055552135
(1438650950.964793) can0 12F82C10#20
(1438650950.965757) can0 12F83210#08
(1438650950.974805) can0 12F96D50#04000000
(1438650950.975557) can0 0AF87110#00FF00
(1438650950.978704) can0 0EF87372#043E
(1438650951.005332) can0 12F96050#00000000410A00
(1438650951.006535) can0 0EF82390#0002
(1438650951.034944) can0 12F86150#00001000000000FC
(1438650951.044842) can0 12F97450#8000
(1438650951.045452) can0 12F85C50#00
(1438650951.046655) can0 16F86250#0000000010000000
(1438650951.047222) can0 0AF97950#00
(1438650951.048088) can0 12F95A50#00000000
(1438650951.049831) can0 1610FF54#
(1438650951.051543) can0 12F88090#00
(1438650951.054977) can0 12F85050#00031F200008
(1438650951.055658) can0 12F84010#40
(1438650951.056398) can0 12F97150#E0FF58
(1438650951.057289) can0 0EF81490#00
(1438650951.057725) can0 12F97350#0000
(1438650951.058797) can0 0EF86350#0000000055552333
(1438650951.086784) can0 12F89090#00010004
(1438650951.104795) can0 0EF81510#02
(1438650951.105833) can0 12F96050#00000000410A00
(1438650951.114787) can0 0EF82010#00
(1438650951.115728) can0 12F83010#80
(1438650951.116722) can0 12F83110#08
(1438650951.124777) can0 12F83410#20
(1438650951.125775) can0 12F84110#00
(1438650951.126726) can0 12F84210#00
(1438650951.127728) can0 12F84310#00
(1438650951.135096) can0 0EF91250#0000000000000008
(1438650951.135711) can0 12F87810#00
(1438650951.144821) can0 12F97450#8000
(1438650951.145944) can0 12F95F50#8284860000000000
(1438650951.154837) can0 12F85050#00031D200008
(1438650951.155581) can0 12F97150#E0FF58
(1438650951.156218) can0 12F97C50#18
(1438650951.157345) can0 0EF86350#0000000055552630
(1438650951.157983) can0 12F82290#80
(1438650951.164714) can0 1610FF10#
(1438650951.174830) can0 12F96D50#04000000
(1438650951.176424) can0 0EF88190#00
(1438650951.185409) can0 12F85450#1636000000160000
(1438650951.194809) can0 12F85150#1001000060
(1438650951.195798) can0 0AF81110#180000000000
(1438650951.205413) can0 12F96050#00000000410A00
(1438650951.215075) can0 12F81010#3800808000
(1438650951.224844) can0 0AF87010#0024
(1438650951.244909) can0 12F97450#8000
(1438650951.254829) can0 12F85050#000318200008
(1438650951.255581) can0 12F97150#E0FF58
(1438650951.256701) can0 0EF86350#000000005555282E
(1438650951.258238) can0 1610FF72#
(1438650951.264745) can0 12F82C10#20
(1438650951.265717) can0 12F83210#08
(1438650951.266328) can0 1610FF50#
(1438650951.274926) can0 0AF87110#00FF00
(1438650951.278372) can0 0EF87372#043E
(1438650951.305217) can0 12F96050#00000000410A00
(1438650951.306476) can0 0EF82390#0002
(1438650951.311488) can0 16F97D54#A22518199F91B5A1
(1438650951.335191) can0 0EF91250#0000000000000008
(1438650951.336304) can0 12F86150#00001000000000FC
(1438650951.344924) can0 12F97450#8000
(1438650951.345504) can0 12F85C50#00
(1438650951.346627) can0 16F86250#01334847474B3500
(1438650951.347237) can0 0AF97950#00
(1438650951.348099) can0 12F95A50#00000000
(1438650951.351433) can0 12F88090#00
(1438650951.354867) can0 12F85050#000311200008
(1438650951.355499) can0 12F84010#40
(1438650951.356299) can0 12F97150#E0FF58
(1438650951.356953) can0 0EF81490#00
(1438650951.357622) can0 12F97350#0000
(1438650951.358750) can0 0EF86350#0000000055552B2B
(1438650951.374624) can0 12F96D50#04000000
(1438650951.386691) can0 12F89090#00010004
(1438650951.404748) can0 0EF81510#02
(1438650951.405836) can0 12F96050#00000000410A00
(1438650951.414753) can0 0EF82010#00
(1438650951.415727) can0 12F83010#80
(1438650951.416732) can0 12F83110#08
(1438650951.424804) can0 12F83410#20
(1438650951.425748) can0 12F84110#00
(1438650951.426738) can0 12F84210#00
(1438650951.427735) can0 12F84310#00
(1438650951.434750) can0 12F87810#00
(1438650951.444826) can0 12F97450#8000
(1438650951.454932) can0 12F85050#000315200008
(1438650951.455683) can0 12F97150#E0FF58
(1438650951.456763) can0 0EF86350#0000000055552D29
(1438650951.476442) can0 0EF88190#00
(1438650951.485385) can0 12F85450#1636000000160000
(1438650951.494756) can0 12F85150#1001000060
(1438650951.495720) can0 0AF81110#180000000000
(1438650951.505473) can0 12F96050#00000000410A00
(1438650951.515366) can0 12F81010#3800808000
(1438650951.524866) can0 0AF87010#0024
(1438650951.535068) can0 0EF91250#0000000000000008
(1438650951.544989) can0 12F97450#8040
(1438650951.555015) can0 12F85050#000310200008
(1438650951.556120) can0 0EF86350#0000000055553026
(1438650951.556872) can0 12F97150#E0FF58
(1438650951.557735) can0 12F85250#7F0038A8
(1438650951.564761) can0 12F82C10#20
(1438650951.565746) can0 12F83210#08
(1438650951.574759) can0 12F96D50#04000000
(1438650951.575725) can0 0AF87110#00FF00
(1438650951.578105) can0 0EF87372#043E
(1438650951.605330) can0 12F96050#00000000410A00
(1438650951.606511) can0 0EF82390#0002
(1438650951.635207) can0 12F86150#00001000000000FC
(1438650951.644953) can0 12F97450#8040
(1438650951.645520) can0 12F85C50#00
(1438650951.646712) can0 12F95F50#8284860000000000
(1438650951.647774) can0 16F86250#02483839464D3700
(1438650951.648400) can0 0AF97950#00
(1438650951.649266) can0 12F95A50#00000000
(1438650951.651377) can0 12F88090#00
(1438650951.654761) can0 12F85050#000307200008
(1438650951.655393) can0 12F84010#40
(1438650951.656155) can0 12F97150#E0FF58
(1438650951.656840) can0 0EF81490#00
(1438650951.657522) can0 12F97350#0000
(1438650951.658193) can0 12F97C50#18
(1438650951.659385) can0 0EF86350#0000000055553224
(1438650951.686719) can0 12F89090#00010004
(1438650951.705236) can0 12F96050#00000000410A00
(1438650951.705784) can0 0EF81510#02
(1438650951.714775) can0 0EF82010#00
(1438650951.715757) can0 12F83010#80
(1438650951.716759) can0 12F83110#08
(1438650951.724770) can0 12F83410#20
(1438650951.725745) can0 12F84110#00
(1438650951.726749) can0 12F84210#00
(1438650951.727738) can0 12F84310#00
(1438650951.735372) can0 0EF91250#0000000000000008
(1438650951.735856) can0 12F87810#00
(1438650951.744786) can0 12F97450#8000
(1438650951.754835) can0 12F85050#00030E200008
(1438650951.755536) can0 12F97150#E0FF58
(1438650951.756655) can0 0EF86350#0000000055553521
(1438650951.757256) can0 1610FF90#
(1438650951.774761) can0 12F96D50#04000000
(1438650951.776391) can0 0EF88190#00
(1438650951.785274) can0 12F85450#1636000000160000
(1438650951.794777) can0 12F85150#1001000060
(1438650951.795743) can0 0AF81110#180000000000
(1438650951.805336) can0 12F96050#00000000410A00
(1438650951.815095) can0 12F81010#3800808000
(1438650951.824857) can0 0AF87010#0024
(1438650951.844853) can0 12F97450#8040
(1438650951.855027) can0 12F85050#000317200008
(1438650951.855657) can0 12F97150#E0FF58
(1438650951.856358) can0 12F97650#04
(1438650951.857475) can0 0EF86350#000000005555371F
(1438650951.864787) can0 12F82C10#20
(1438650951.865772) can0 12F83210#08
(1438650951.874914) can0 0AF87110#00FF00
(1438650951.877771) can0 0EF87372#043E
(1438650951.905394) can0 12F96050#00000000410A00
(1438650951.906500) can0 0EF82390#0002
(1438650951.935049) can0 0EF91250#0000000000000008
(1438650951.936178) can0 12F86150#00001000000000FC
(1438650951.944787) can0 12F97450#8000
(1438650951.945409) can0 12F85C50#00
(1438650951.946515) can0 16F86250#0333333134300000
(1438650951.947150) can0 0AF97950#00
(1438650951.948014) can0 12F95A50#00000000
(1438650951.951510) can0 12F88090#00
(1438650951.954891) can0 12F85050#00032D200008
(1438650951.955654) can0 12F84010#40
(1438650951.956419) can0 12F97150#E0FF58
(1438650951.956905) can0 0EF81490#00
(1438650951.957601) can0 12F97350#0000
(1438650951.958755) can0 0EF86350#0000000055553A1C
(1438650951.974683) can0 12F96D50#04000000
(1438650951.986723) can0 12F89090#00010004
(1438650952.005245) can0 12F96050#00000000410A00
(1438650952.005775) can0 0EF81510#02
(1438650952.014802) can0 0EF82010#00
(1438650952.015786) can0 12F83010#80
(1438650952.016773) can0 12F83110#08
(1438650952.024798) can0 12F83410#20
(1438650952.025789) can0 12F84110#00
(1438650952.026775) can0 12F84210#00
(1438650952.027786) can0 12F84310#00
(1438650952.034800) can0 12F87810#00
(1438650952.044911) can0 12F97450#8040
(1438650952.049932) can0 1610FF54#
(1438650952.054807) can0 12F85050#000328200008
(1438650952.055608) can0 12F97150#E0FF58
(1438650952.056737) can0 0EF86350#0000000055553C1A
(1438650952.076502) can0 0EF88190#00
(1438650952.085487) can0 12F85450#1636000000160000
(1438650952.094991) can0 12F85150#1001000060
(1438650952.095901) can0 0AF81110#180000000000
(1438650952.105284) can0 12F96050#00000000410A00
(1438650952.115070) can0 12F81010#3800808000
(1438650952.124876) can0 0AF87010#0024
(1438650952.135285) can0 0EF91250#0000000000000008
(1438650952.144799) can0 12F97450#8040
(1438650952.145761) can0 12F96750#B2270F890000
(1438650952.146912) can0 12F95F50#8284860000000000
(1438650952.154890) can0 12F85050#000327200008
(1438650952.155636) can0 12F97150#E0FF58
(1438650952.156279) can0 12F97C50#18
(1438650952.157416) can0 0EF86350#0000000055553F17
(1438650952.158049) can0 12F82290#80
(1438650952.164807) can0 12F82C10#20
(1438650952.165784) can0 12F83210#08
(1438650952.166697) can0 1610FF10#
(1438650952.174685) can0 12F96D50#04000000
(1438650952.175420) can0 0AF87110#00FF00
(1438650952.177422) can0 0EF87372#043E
(1438650952.205258) can0 12F96050#00000000410A00
(1438650952.206538) can0 0EF82390#0002
(1438650952.235079) can0 12F86150#00001000000000FC
(1438650952.244805) can0 12F97450#8000
(1438650952.245439) can0 12F85C50#00
(1438650952.246543) can0 16F86250#0431144003050000
(1438650952.247170) can0 0AF97950#00
(1438650952.248039) can0 12F95A50#00000000
(1438650952.251429) can0 12F88090#00
(1438650952.254829) can0 12F85050#000322200008
(1438650952.255499) can0 12F84010#40
(1438650952.256262) can0 12F97150#E0FF58
(1438650952.256917) can0 0EF81490#00
(1438650952.257583) can0 12F97350#0000
(1438650952.258767) can0 0EF86350#0000000055554115
(1438650952.259420) can0 1610FF72#
(1438650952.270309) can0 1610FF50#
(1438650952.286689) can0 12F89090#00010004
(1438650952.304881) can0 0EF81510#02
(1438650952.305886) can0 12F96050#00000000410A00
(1438650952.311824) can0 16F97D54#A22518199F91B621
(1438650952.314796) can0 0EF82010#00
(1438650952.315792) can0 12F83010#80
(1438650952.316776) can0 12F83110#08
(1438650952.324800) can0 12F83410#20
(1438650952.325799) can0 12F84110#00
(1438650952.326786) can0 12F84210#00
(1438650952.327776) can0 12F84310#00
(1438650952.335067) can0 0EF91250#0000000000000008
(1438650952.335670) can0 12F87810#00
(1438650952.344770) can0 12F97450#8000
(1438650952.354959) can0 12F85050#00031D200008
(1438650952.355694) can0 12F97150#E0FF58
(1438650952.356824) can0 0EF86350#0000000055554412
(1438650952.374682) can0 12F96D50#04000000
(1438650952.376398) can0 0EF88190#00
(1438650952.385531) can0 12F85450#1636000000160000
(1438650952.394907) can0 12F85150#1001000060
(1438650952.395840) can0 0AF81110#180000000000
(1438650952.405468) can0 12F96050#00000000410A00
(1438650952.415414) can0 12F81010#3800808000
(1438650952.424904) can0 0AF87010#0024
(1438650952.445035) can0 12F97450#8000
(1438650952.454822) can0 12F85050#00031B200008
(1438650952.455562) can0 12F97150#E0FF58
(1438650952.456684) can0 0EF86350#0000000055554610
(1438650952.464838) can0 12F82C10#20
(1438650952.465788) can0 12F83210#08
(1438650952.474951) can0 0AF87110#00FF00
(1438650952.477160) can0 0EF87372#043E
(1438650952.505281) can0 12F96050#00000000410A00
(1438650952.506465) can0 0EF82390#0002
(1438650952.535314) can0 0EF91250#0000000000000008
(1438650952.536279) can0 12F86150#00001000000000FC
(1438650952.544900) can0 12F97450#8000
(1438650952.545522) can0 12F85C50#00
(1438650952.546349) can0 12F95A50#00000000
(1438650952.547561) can0 16F86250#0500000000000000
(1438650952.548171) can0 0AF97950#00
(1438650952.551421) can0 12F88090#00
(1438650952.555051) can0 12F85050#000315200008
(1438650952.556169) can0 0EF86350#000000005555490D
(1438650952.556818) can0 0EF81490#00
(1438650952.557456) can0 12F84010#40
(1438650952.558210) can0 12F97150#E0FF58
(1438650952.558920) can0 12F97350#0000
(1438650952.559785) can0 12F85250#7F0038A8
(1438650952.574675) can0 12F96D50#04000000
(1438650952.586673) can0 12F89090#00010004
(1438650952.604837) can0 0EF81510#02
(1438650952.605854) can0 12F96050#00000000410A00
(1438650952.614816) can0 0EF82010#00
(1438650952.615798) can0 12F83010#80
(1438650952.616798) can0 12F83110#08
(1438650952.624803) can0 12F83410#20
(1438650952.625793) can0 12F84110#00
(1438650952.626778) can0 12F84210#00
(1438650952.627785) can0 12F84310#00
(1438650952.634832) can0 12F87810#00
(1438650952.644956) can0 12F97450#8040
(1438650952.646077) can0 12F95F50#8284860000000000
(1438650952.654842) can0 12F85050#00030D200008
(1438650952.655584) can0 12F97150#E0FF58
(1438650952.656218) can0 12F97C50#18
(1438650952.657338) can0 0EF86350#0000000055554B0B
(1438650952.676417) can0 0EF88190#00
(1438650952.685411) can0 12F85450#1636000000160000
(1438650952.694717) can0 12F85150#1001000060
(1438650952.695699) can0 0AF81110#180000000000
(1438650952.705335) can0 12F96050#00000000410A00
(1438650952.715178) can0 12F81010#3800808000
(1438650952.724863) can0 0AF87010#0024
(1438650952.734990) can0 0EF91250#0000000000000008
(1438650952.744870) can0 12F97450#8040
(1438650952.754858) can0 12F85050#00030F200008
(1438650952.755595) can0 12F97150#E0FF58
(1438650952.756731) can0 0EF86350#0000000055554E08
(1438650952.757338) can0 1610FF90#
(1438650952.764844) can0 12F82C10#20
(1438650952.765798) can0 12F83210#08
(1438650952.774672) can0 12F96D50#04000000
(1438650952.775423) can0 0AF87110#00FF00
(1438650952.776869) can0 0EF87372#043E
(1438650952.805191) can0 12F96050#00000000410A00
(1438650952.806477) can0 0EF82390#0002
(1438650952.835074) can0 12F86150#00001000000000FC
(1438650952.844993) can0 12F97450#8000
(1438650952.845610) can0 12F85C50#00
(1438650952.846743) can0 16F86250#0600000000000000
(1438650952.847374) can0 0AF97950#00
(1438650952.848241) can0 12F95A50#00000000
(1438650952.851589) can0 12F88090#00
(1438650952.854852) can0 12F85050#00031B200008
(1438650952.855597) can0 12F84010#40
(1438650952.856553) can0 12F97150#E0FF58
(1438650952.856983) can0 0EF81490#00
(1438650952.857616) can0 12F97350#0000
(1438650952.858550) can0 12F97650#04
(1438650952.859675) can0 0EF86350#0000000055555006
(1438650952.886825) can0 12F89090#00010004
(1438650952.904825) can0 0EF81510#02
(1438650952.905850) can0 12F96050#00000000410A00
(1438650952.914841) can0 0EF82010#00
(1438650952.915812) can0 12F83010#80
(1438650952.916804) can0 12F83110#08
(1438650952.924826) can0 12F83410#20
(1438650952.925767) can0 12F84110#00
(1438650952.926759) can0 12F84210#00
(1438650952.927760) can0 12F84310#00
(1438650952.934861) can0 0EF91250#0000000000000008
(1438650952.935498) can0 12F87810#00
(1438650952.944871) can0 12F97450#8000
(1438650952.954705) can0 12F85050#000323200008
(1438650952.955455) can0 12F97150#E0FF58
(1438650952.956579) can0 0EF86350#0000000055555303
(1438650952.974695) can0 12F96D50#04000000
(1438650952.976581) can0 0EF88190#00
(1438650952.985396) can0 12F85450#1636000000160000
(1438650952.994765) can0 12F85150#1001000060
(1438650952.995734) can0 0AF81110#180000000000
(1438650953.005206) can0 12F96050#00000000410A00
(1438650953.015142) can0 12F81010#3800808000
(1438650953.024885) can0 0AF87010#0024
(1438650953.044767) can0 12F97450#8040
(1438650953.050482) can0 1610FF54#
(1438650953.054886) can0 12F85050#000327200008
(1438650953.055629) can0 12F97150#E0FF58
(1438650953.056752) can0 0EF86350#0000000055555501
(1438650953.064830) can0 12F82C10#20
(1438650953.065774) can0 12F83210#08
(1438650953.074964) can0 0AF87110#00FF00
(1438650953.076487) can0 0EF87372#043E
(1438650953.105205) can0 12F96050#00000000410A00
(1438650953.106507) can0 0EF82390#0002
(1438650953.135088) can0 0EF91250#0000000000000008
(1438650953.136142) can0 12F86150#00001000000000FC
(1438650953.144851) can0 12F97450#8040
(1438650953.145486) can0 12F85C50#00
(1438650953.146618) can0 12F95F50#8284860000000000
(1438650953.147766) can0 16F86250#0700000000000000
(1438650953.148394) can0 0AF97950#00
(1438650953.149258) can0 12F95A50#00000000
(1438650953.151369) can0 12F88090#00
(1438650953.154660) can0 12F85050#000323200008
(1438650953.155339) can0 12F84010#40
(1438650953.156094) can0 12F97150#E0FF58
(1438650953.156722) can0 12F82290#80
(1438650953.157405) can0 12F97350#0000
(1438650953.158088) can0 0EF81490#00
(1438650953.158723) can0 12F97C50#18
(1438650953.159901) can0 0EF86350#00000000555558FE
(1438650953.164752) can0 1610FF10#
(1438650953.174628) can0 12F96D50#04000000
(1438650953.186652) can0 12F89090#00010004
(1438650953.205357) can0 12F96050#00000000410A00
(1438650953.205904) can0 0EF81510#02
(1438650953.215229) can0 0EF82010#00
(1438650953.215767) can0 12F83010#80
(1438650953.216782) can0 12F83110#08
(1438650953.224831) can0 12F83410#20
(1438650953.225790) can0 12F84110#00
(1438650953.226783) can0 12F84210#00
(1438650953.227782) can0 12F84310#00
(1438650953.234792) can0 12F87810#00
(1438650953.244880) can0 12F97450#8040
(1438650953.254783) can0 12F85050#000325200008
(1438650953.255525) can0 12F97150#E0FF58
(1438650953.256638) can0 0EF86350#0000000055555AFC
(1438650953.257496) can0 1610FF72#
(1438650953.273912) can0 1610FF50#
(1438650953.276393) can0 0EF88190#00
(1438650953.285281) can0 12F85450#1636000000160000
(1438650953.294793) can0 12F85150#1001000060
(1438650953.295779) can0 0AF81110#180000000000
(1438650953.305491) can0 12F96050#00000000410A00
(1438650953.309968) can0 16F97D54#A22518199F91B6A1
(1438650953.315289) can0 12F81010#3800808000
(1438650953.324917) can0 0AF87010#0024
(1438650953.334976) can0 0EF91250#0000000000000008
(1438650953.344718) can0 12F97450#8040
(1438650953.354799) can0 12F85050#00031F200008
(1438650953.355550) can0 12F97150#E0FF58
(1438650953.356678) can0 0EF86350#0000000055555DF9
(1438650953.364806) can0 12F82C10#20
(1438650953.365791) can0 12F83210#08
(1438650953.374642) can0 12F96D50#04000000
(1438650953.375404) can0 0AF87110#00FF00
(1438650953.376281) can0 0EF87372#043E
(1438650953.405161) can0 12F96050#00000000410A00
(1438650953.406471) can0 0EF82390#0002
(1438650953.434910) can0 12F86150#00001000000000FC
(1438650953.444809) can0 12F97450#8040
(1438650953.445420) can0 12F85C50#00
(1438650953.446622) can0 16F86250#0800000000000000
(1438650953.447229) can0 0AF97950#00
(1438650953.448057) can0 12F95A50#00000000
(1438650953.451406) can0 12F88090#00
(1438650953.454745) can0 12F85050#00031F200008
(1438650953.455375) can0 12F84010#40
(1438650953.456145) can0 12F97150#E0FF58
(1438650953.456786) can0 0EF81490#00
(1438650953.457500) can0 12F97350#0000
(1438650953.458624) can0 0EF86350#0000000055555FF7
(1438650953.486680) can0 12F89090#00010004
(1438650953.505273) can0 12F96050#00000000410A00
(1438650953.505907) can0 0EF81510#02
(1438650953.514809) can0 0EF82010#00
(1438650953.515799) can0 12F83010#80
(1438650953.516788) can0 12F83110#08
(1438650953.524815) can0 12F83410#20
(1438650953.525798) can0 12F84110#00
(1438650953.526780) can0 12F84210#00
(1438650953.527784) can0 12F84310#00
(1438650953.535375) can0 0EF91250#0000000000000008
(1438650953.535939) can0 12F87810#00
(1438650953.544788) can0 12F97450#8000
(1438650953.554910) can0 12F85050#000320200008
(1438650953.556006) can0 0EF86350#00000000555562F4
(1438650953.556772) can0 12F97150#E0FF58
(1438650953.557624) can0 12F85250#7F0038A8
(1438650953.574690) can0 12F96D50#04000000
(1438650953.576383) can0 0EF88190#00
(1438650953.585310) can0 12F85450#1636000000160000
(1438650953.594810) can0 12F85150#1001000060
(1438650953.595786) can0 0AF81110#180000000000
(1438650953.605265) can0 12F96050#00000000410A00
(1438650953.615140) can0 12F81010#3800808000
(1438650953.624928) can0 0AF87010#0024
(1438650953.644910) can0 12F97450#8000
(1438650953.646037) can0 12F95F50#8284860000000000
(1438650953.654791) can0 12F85050#000319200008
(1438650953.655555) can0 12F97150#E0FF58
(1438650953.656186) can0 12F97C50#18
(1438650953.657286) can0 0EF86350#00000000555564F2
(1438650953.664824) can0 12F82C10#20
(1438650953.665811) can0 12F83210#08
(1438650953.674942) can0 0AF87110#00FF00
(1438650953.676044) can0 0EF87372#043E
(1438650953.705265) can0 12F96050#00000000410A00
(1438650953.706450) can0 0EF82390#0002
(1438650953.734923) can0 0EF91250#0000000000000008
(1438650953.736022) can0 12F86150#00001000000000FC
(1438650953.744650) can0 12F97450#8000
(1438650953.745289) can0 12F85C50#00
(1438650953.746440) can0 16F86250#0900000000000000
(1438650953.747067) can0 0AF97950#00
(1438650953.747922) can0 12F95A50#00000000
(1438650953.751648) can0 12F88090#00
(1438650953.754836) can0 12F85050#00031C200008
(1438650953.755632) can0 12F84010#40
(1438650953.756530) can0 12F97150#E0FF58
(1438650953.757577) can0 0EF86350#00000000555567EF
(1438650953.758051) can0 12F97350#0000
(1438650953.758759) can0 1610FF90#
(1438650953.759797) can0 0EF81490#00
(1438650953.774800) can0 12F96D50#04000000
(1438650953.786680) can0 12F89090#00010004
(1438650953.805090) can0 12F96050#00000000410A00
(1438650953.805710) can0 0EF81510#02
(1438650953.814830) can0 0EF82010#00
(1438650953.815822) can0 12F83010#80
(1438650953.816816) can0 12F83110#08
(1438650953.824828) can0 12F83410#20
(1438650953.825820) can0 12F84110#00
(1438650953.826814) can0 12F84210#00
(1438650953.828399) can0 12F84310#00
(1438650953.834836) can0 12F87810#00
(1438650953.844833) can0 12F97450#8000
(1438650953.854932) can0 12F85050#000318200008
(1438650953.855689) can0 12F97150#E0FF58
(1438650953.856316) can0 12F97650#04
(1438650953.857434) can0 0EF86350#00000000555569ED
(1438650953.876585) can0 0EF88190#00
(1438650953.885541) can0 12F85450#1636000000160000
(1438650953.894686) can0 12F85150#1001000060
(1438650953.895663) can0 0AF81110#180000000000
(1438650953.905040) can0 12F96050#00000000410A00
(1438650953.915168) can0 12F81010#3800808000
(1438650953.924917) can0 0AF87010#0024
(1438650953.934973) can0 0EF91250#0000000000000008
(1438650953.944709) can0 12F97450#8040
(1438650953.954817) can0 12F85050#000315200008
(1438650953.955568) can0 12F97150#E0FF58
(1438650953.956683) can0 0EF86350#0000000055556CEA
(1438650953.964850) can0 12F82C10#20
(1438650953.965830) can0 12F83210#08
(1438650953.974606) can0 12F96D50#04000000
(1438650953.975350) can0 0AF87110#00FF00
(1438650953.976067) can0 0EF87372#043E
(1438650954.005202) can0 12F96050#00000000410A00
(1438650954.006457) can0 0EF82390#0002
(1438650954.035033) can0 12F86150#00001000000000FC
(1438650954.044797) can0 12F97450#8000
(1438650954.045405) can0 12F85C50#00
(1438650954.046549) can0 16F86250#0A00000000808000
(1438650954.047176) can0 0AF97950#00
(1438650954.048041) can0 12F95A50#00000000
(1438650954.051094) can0 1610FF54#
(1438650954.051667) can0 12F88090#00
(1438650954.054837) can0 12F85050#000319200008
(1438650954.055480) can0 12F84010#40
(1438650954.056225) can0 12F97150#E0FF58
(1438650954.056864) can0 0EF81490#00
(1438650954.057590) can0 12F97350#0000
(1438650954.058711) can0 0EF86350#0000000055556EE8
(1438650954.086678) can0 12F89090#00010004
(1438650954.105199) can0 12F96050#00000000410A00
(1438650954.105930) can0 0EF81510#02
(1438650954.114860) can0 0EF82010#00
(1438650954.115844) can0 12F83010#80
(1438650954.116832) can0 12F83110#08
(1438650954.124850) can0 12F83410#20
(1438650954.125846) can0 12F84110#00
(1438650954.126837) can0 12F84210#00
(1438650954.127844) can0 12F84310#00
(1438650954.135455) can0 0EF91250#0000000000000008
(1438650954.135871) can0 12F87810#00
(1438650954.144811) can0 12F97450#8040
(1438650954.145955) can0 12F95F50#8284860000000000
(1438650954.154729) can0 12F85050#00031B200008
(1438650954.155467) can0 12F97150#E0FF58
(1438650954.156105) can0 12F97C50#18
(1438650954.157226) can0 0EF86350#00000000555571E5
(1438650954.157858) can0 12F82290#80
(1438650954.164799) can0 1610FF10#
(1438650954.174609) can0 12F96D50#04000000
(1438650954.176353) can0 0EF88190#00
(1438650954.185178) can0 12F85450#1636000000160000
(1438650954.194714) can0 12F85150#1001000060
(1438650954.195689) can0 0AF81110#180000000000
(1438650954.205226) can0 12F96050#00000000410A00
(1438650954.215216) can0 12F81010#3800808000
(1438650954.224940) can0 0AF87010#0024
(1438650954.244805) can0 12F97450#8040
(1438650954.254845) can0 12F85050#00031F200008
(1438650954.255590) can0 12F97150#E0FF58
(1438650954.256728) can0 0EF86350#00000000555573E3
(1438650954.257239) can0 1610FF72#
(1438650954.264858) can0 12F82C10#20
(1438650954.265819) can0 12F83210#08
(1438650954.274994) can0 0AF87110#00FF00
(1438650954.275677) can0 0EF87372#043E
(1438650954.278480) can0 1610FF50#
(1438650954.305245) can0 12F96050#00000000410A00
(1438650954.306480) can0 0EF82390#0002
(1438650954.310253) can0 16F97D54#A22518199F91B721
(1438650954.334884) can0 0EF91250#0000000000000008
(1438650954.336013) can0 12F86150#00001000000000FC
(1438650954.344875) can0 12F97450#8000
(1438650954.345497) can0 12F85C50#00
(1438650954.346622) can0 16F86250#0B00000000000000
(1438650954.347256) can0 0AF97950#00
(1438650954.348114) can0 12F95A50#00000000
(1438650954.351454) can0 12F88090#00
(1438650954.354863) can0 12F85050#00031C200008
(1438650954.355506) can0 12F84010#40
(1438650954.356242) can0 12F97150#E0FF58
(1438650954.356889) can0 0EF81490#00
(1438650954.357617) can0 12F97350#0000
(1438650954.358738) can0 0EF86350#00000000555576E0
(1438650954.374755) can0 12F96D50#04000000
(1438650954.386632) can0 12F89090#00010004
(1438650954.404854) can0 0EF81510#02
(1438650954.405893) can0 12F96050#00000000410A00
(1438650954.414887) can0 0EF82010#00
(1438650954.415856) can0 12F83010#80
(1438650954.416835) can0 12F83110#08
(1438650954.424859) can0 12F83410#20
(1438650954.425834) can0 12F84110#00
(1438650954.426830) can0 12F84210#00
(1438650954.427832) can0 12F84310#00
(1438650954.434878) can0 12F87810#00
(1438650954.444767) can0 12F97450#8000
(1438650954.454891) can0 12F85050#000322200008
(1438650954.455613) can0 12F97150#E0FF58
(1438650954.456732) can0 0EF86350#00000000555578DE
(1438650954.476401) can0 0EF88190#00
(1438650954.485139) can0 12F85450#1636000000160000
(1438650954.494693) can0 12F85150#1001000060
(1438650954.495636) can0 0AF81110#180000000000
(1438650954.505089) can0 12F96050#00000000410A00
(1438650954.515150) can0 12F81010#3800808000
(1438650954.524903) can0 0AF87010#0024
(1438650954.534952) can0 0EF91250#0000000000000008
(1438650954.544964) can0 12F97450#8000
(1438650954.554842) can0 12F85050#000321200008
(1438650954.555895) can0 0EF86350#0000000055557BDB
(1438650954.556634) can0 12F97150#E0FF58
(1438650954.557505) can0 12F85250#7F0038A8
(1438650954.564864) can0 12F82C10#20
(1438650954.565847) can0 12F83210#08
(1438650954.574646) can0 12F96D50#04000000
(1438650954.575388) can0 0AF87110#00FF00
(1438650954.576101) can0 0EF87372#043E
(1438650954.605159) can0 12F96050#00000000410A00
(1438650954.606475) can0 0EF82390#0002
(1438650954.635011) can0 12F86150#00001000000000FC
(1438650954.644839) can0 12F97450#8040
(1438650954.645413) can0 12F85C50#00
(1438650954.646599) can0 12F95F50#8284860000000000
(1438650954.647769) can0 16F86250#0C00000000000000
(1438650954.650117) can0 12F95A50#00000000
(1438650954.650773) can0 0AF97950#00
(1438650954.651661) can0 12F88090#00
(1438650954.654729) can0 12F85050#000321200008
(1438650954.655458) can0 12F84010#40
(1438650954.655996) can0 12F97150#E0FF58
(1438650954.656660) can0 0EF81490#00
(1438650954.657668) can0 12F97350#0000
(1438650954.658151) can0 12F97C50#18
(1438650954.659146) can0 0EF86350#0000000055557DD9
(1438650954.686757) can0 12F89090#00010004
(1438650954.705969) can0 12F96050#00000000410A00
(1438650954.707230) can0 0EF81510#02
(1438650954.714876) can0 0EF82010#00
(1438650954.715859) can0 12F83010#80
(1438650954.716857) can0 12F83110#08
(1438650954.724861) can0 12F83410#20
(1438650954.725859) can0 12F84110#00
(1438650954.726860) can0 12F84210#00
(1438650954.727853) can0 12F84310#00
(1438650954.734907) can0 0EF91250#0000000000000008
(1438650954.735523) can0 12F87810#00
(1438650954.744737) can0 12F97450#8000
(1438650954.754796) can0 12F85050#00031C200008
(1438650954.755529) can0 12F97150#E0FF58
(1438650954.756668) can0 0EF86350#00000000555580D6
(1438650954.757135) can0 1610FF90#
(1438650954.774753) can0 12F96D50#04000000
(1438650954.776675) can0 0EF88190#00
(1438650954.785120) can0 12F85450#1636000000160000
(1438650954.794664) can0 12F85150#1001000060
(1438650954.795643) can0 0AF81110#180000000000
(1438650954.805156) can0 12F96050#00000000410A00
(1438650954.815175) can0 12F81010#3800808000
(1438650954.824920) can0 0AF87010#0024
(1438650954.844930) can0 12F97450#8000
(1438650954.854803) can0 12F85050#00031C200008
(1438650954.855538) can0 12F97150#E0FF58
(1438650954.856173) can0 12F97650#04
(1438650954.857282) can0 0EF86350#00000000555582D4
(1438650954.864876) can0 12F82C10#20
(1438650954.865859) can0 12F83210#08
(1438650954.874632) can0 0EF87372#043E
(1438650954.875374) can0 0AF87110#00FF00
(1438650954.905233) can0 12F96050#00000000410A00
(1438650954.906429) can0 0EF82390#0002
(1438650954.935108) can0 0EF91250#0000000000000008
(1438650954.936162) can0 12F86150#00001000000000FC
(1438650954.944794) can0 12F97450#8040
(1438650954.945422) can0 12F85C50#00
(1438650954.946621) can0 16F86250#0D00000000000000
(1438650954.947257) can0 0AF97950#00
(1438650954.948111) can0 12F95A50#00000000
(1438650954.951424) can0 12F88090#00
(1438650954.954885) can0 12F85050#00031D200008
(1438650954.955507) can0 12F84010#40
(1438650954.956269) can0 12F97150#E0FF58
(1438650954.956918) can0 0EF81490#00
(1438650954.957628) can0 12F97350#0000
(1438650954.958757) can0 0EF86350#00000000555585D1
(1438650954.974695) can0 12F96D50#04000000
(1438650954.986652) can0 12F89090#00010004
(1438650955.005430) can0 12F96050#00000000410A00
(1438650955.006013) can0 0EF81510#02
(1438650955.014884) can0 0EF82010#00
(1438650955.015872) can0 12F83010#80
(1438650955.016823) can0 12F83110#08
(1438650955.024876) can0 12F83410#20
(1438650955.025880) can0 12F84110#00
(1438650955.026864) can0 12F84210#00
(1438650955.027823) can0 12F84310#00
(1438650955.034875) can0 12F87810#00
(1438650955.044744) can0 12F97450#8000
(1438650955.051575) can0 1610FF54#
(1438650955.054814) can0 12F85050#00031A200008
(1438650955.055575) can0 12F97150#E0FF58
(1438650955.057030) can0 0EF86350#00000000555587CF
(1438650955.076392) can0 0EF88190#00
(1438650955.085546) can0 12F85450#1636000000160000
(1438650955.094767) can0 12F85150#1001000060
(1438650955.095747) can0 0AF81110#180000000000
(1438650955.105148) can0 12F96050#00000000410A00
(1438650955.115189) can0 12F81010#3800808000
(1438650955.124998) can0 0AF87010#0024
(1438650955.134894) can0 0EF91250#0000000000000008
(1438650955.135919) can0 12F96150#415F0000000000
(1438650955.144665) can0 12F97450#8000
(1438650955.145786) can0 12F96B50#7FF8F10000000000
(1438650955.146920) can0 12F95F50#8284860000000000
(1438650955.154807) can0 12F85050#000321200008
(1438650955.155553) can0 12F97150#E0FF58
(1438650955.156186) can0 12F97C50#18
(1438650955.157309) can0 0EF86350#0000000055558ACC
(1438650955.157941) can0 12F82290#80
(1438650955.164917) can0 12F82C10#20
(1438650955.165836) can0 12F83210#08
(1438650955.166812) can0 1610FF10#
(1438650955.174319) can0 0EF87372#043E
(1438650955.175060) can0 0AF87110#00FF00
(1438650955.175936) can0 12F96D50#04000000
(1438650955.205262) can0 12F96050#00000000410A00
(1438650955.206447) can0 0EF82390#0002
(1438650955.234950) can0 12F86150#00001000000000FC
(1438650955.244783) can0 12F97450#8000
(1438650955.245389) can0 12F85C50#00
(1438650955.246539) can0 16F86250#0E00000000000000
(1438650955.247172) can0 0AF97950#00
(1438650955.248031) can0 12F95A50#00000000
(1438650955.251407) can0 12F88090#00
(1438650955.254055) can0 1610FF72#
(1438650955.255053) can0 12F85050#000319200008
(1438650955.255699) can0 12F84010#40
(1438650955.256450) can0 12F97150#E0FF58
(1438650955.257083) can0 0EF81490#00
(1438650955.257821) can0 12F97350#0000
(1438650955.258940) can0 0EF86350#0000000055558CCA
(1438650955.282797) can0 1610FF50#
(1438650955.286643) can0 12F89090#00010004
(1438650955.304966) can0 12F96050#00000000410A00
(1438650955.305595) can0 0EF81510#02
(1438650955.309955) can0 16F97D54#A22518199F91B7A1
(1438650955.314842) can0 0EF82010#00
(1438650955.315842) can0 12F83010#80
(1438650955.316839) can0 12F83110#08
(1438650955.324848) can0 12F83410#20
(1438650955.325836) can0 12F84110#00
(1438650955.326828) can0 12F84210#00
(1438650955.327828) can0 12F84310#00
(1438650955.334971) can0 0EF91250#0000000000000008
(1438650955.335769) can0 12F87810#00
(1438650955.344779) can0 12F97450#8000
(1438650955.354836) can0 12F85050#000316200008
(1438650955.355565) can0 12F97150#E0FF58
(1438650955.356695) can0 0EF86350#0000000055558FC7
(1438650955.374657) can0 12F96D50#04000000
(1438650955.376347) can0 0EF88190#00
(1438650955.385183) can0 12F85450#1636000000160000
(1438650955.394722) can0 12F85150#1001000060
(1438650955.395696) can0 0AF81110#180000000000
(1438650955.404969) can0 12F96050#00000000410A00
(1438650955.415185) can0 12F81010#3800808000
(1438650955.424976) can0 0AF87010#0024
(1438650955.444790) can0 12F97450#8000
(1438650955.454818) can0 12F85050#00031F200008
(1438650955.455720) can0 12F97150#E0FF58
(1438650955.456667) can0 0EF86350#00000000555591C5
(1438650955.464906) can0 12F82C10#20
(1438650955.465848) can0 12F83210#08
(1438650955.473987) can0 0EF87372#043E
(1438650955.475030) can0 0AF87110#00FF00
(1438650955.504942) can0 12F96050#00000000410A00
(1438650955.506467) can0 0EF82390#0002
(1438650955.534932) can0 0EF91250#0000000000000008
(1438650955.536056) can0 12F86150#00001000000000FC
(1438650955.544696) can0 12F97450#8000
(1438650955.545306) can0 12F85C50#00
(1438650955.546465) can0 16F86250#0F00000000000000
(1438650955.547110) can0 0AF97950#00
(1438650955.547956) can0 12F95A50#00000000
(1438650955.551680) can0 12F88090#00
(1438650955.554812) can0 12F85050#000321200008
(1438650955.555911) can0 0EF86350#00000000555594C2
(1438650955.556741) can0 0EF81490#00
(1438650955.557213) can0 12F84010#40
(1438650955.557862) can0 12F97150#E0FF58
(1438650955.558825) can0 12F97350#0000
(1438650955.559800) can0 12F85250#7F0038A8
(1438650955.574818) can0 12F96D50#04000000
(1438650955.586688) can0 12F89090#00010004
(1438650955.605048) can0 12F96050#00000000410A00
(1438650955.605664) can0 0EF81510#02
(1438650955.614874) can0 0EF82010#00
(1438650955.615856) can0 12F83010#80
(1438650955.616855) can0 12F83110#08
(1438650955.624862) can0 12F83410#20
(1438650955.625861) can0 12F84110#00
(1438650955.626855) can0 12F84210#00
(1438650955.627850) can0 12F84310#00
(1438650955.634864) can0 12F87810#00
(1438650955.644498) can0 12F97450#8000
(1438650955.645622) can0 12F95F50#8284860000000000
(1438650955.654603) can0 12F85050#000319200008
(1438650955.655718) can0 0EF86350#00000000555596C0
(1438650955.656467) can0 12F97150#E0FF58
(1438650955.657106) can0 12F97C50#18
(1438650955.677747) can0 0EF88190#00
(1438650955.685375) can0 12F85450#1636000000160000
(1438650955.694631) can0 12F85150#1001000060
(1438650955.695603) can0 0AF81110#180000000000
(1438650955.704975) can0 12F96050#00000000410A00
(1438650955.715221) can0 12F81010#3800808000
(1438650955.724973) can0 0AF87010#0024
(1438650955.734927) can0 0EF91250#0000000000000008
(1438650955.744613) can0 12F97450#8000
(1438650955.754723) can0 12F85050#00031A200008
(1438650955.755482) can0 12F97150#E0FF58
