(1438651189.931001) can0 12F83410#20
(1438651189.932081) can0 12F84310#00
(1438651189.936757) can0 12F97450#8040
(1438651189.937618) can0 12F85150#4001000060
(1438651189.940880) can0 12F87810#00
(1438651189.946862) can0 12F85050#000320200008
(1438651189.947613) can0 12F97150#E0FF0D
(1438651189.948733) can0 0EF86350#00000000555578DE
(1438651189.961019) can0 12F83010#80
(1438651189.964373) can0 0EF82390#0102
(1438651189.966630) can0 12F96D50#04000000
(1438651189.971198) can0 12F81010#2800800000
(1438651189.974264) can0 0EF88190#00
(1438651189.997143) can0 12F96050#00000000410A00
(1438651190.006526) can0 1610FF72#
(1438651190.030907) can0 0EF82010#00
(1438651190.036759) can0 12F97450#8000
(1438651190.046848) can0 12F85050#00031F200008
(1438651190.047596) can0 12F97150#E0FF0D
(1438651190.048712) can0 0EF86350#0000000055557ADC
(1438651190.056608) can0 0EF87372#DC35
(1438651190.071028) can0 12F82C10#20
(1438651190.072019) can0 12F83210#08
(1438651190.081283) can0 0AF81110#52C000000000
(1438651190.083021) can0 0AF87110#00FF00
(1438651190.097230) can0 12F85450#D536000000160000
(1438651190.098261) can0 12F96050#00000000410A00
(1438651190.110979) can0 0AF87010#1024
(1438651190.127132) can0 0EF91250#0000000000000008
(1438651190.128163) can0 12F96150#415F0000000000
(1438651190.129420) can0 12F86150#00001000000000FC
(1438651190.130902) can0 12F83110#08
(1438651190.136725) can0 12F97450#8000
(1438651190.137357) can0 12F85C50#00
(1438651190.138520) can0 12F95F50#8284860000000000
(1438651190.139734) can0 16F86250#0D00000000000000
(1438651190.140794) can0 12F96B50#7FF8F10000000000
(1438651190.141419) can0 0AF97950#00
(1438651190.142289) can0 12F95A50#00000000
(1438651190.146729) can0 12F85050#00031F200008
(1438651190.147483) can0 12F97150#E0FF0D
(1438651190.148162) can0 12F97350#0000
(1438651190.148798) can0 12F97C50#18
(1438651190.149983) can0 0EF86350#0000000055557DD9
(1438651190.150611) can0 12F88090#00
(1438651190.154260) can0 12F82290#80
(1438651190.154909) can0 0EF81490#00
(1438651190.160891) can0 12F84010#40
(1438651190.166774) can0 12F96D50#04000000
(1438651190.171112) can0 1610FF10#
(1438651190.181018) can0 12F84110#80
(1438651190.182015) can0 12F84210#80
(1438651190.184546) can0 12F89090#00010004
(1438651190.185278) can0 1610FF54#
(1438651190.197169) can0 12F96050#00000000410A00
(1438651190.210915) can0 0EF81510#02
(1438651190.230910) can0 12F83410#20
(1438651190.231902) can0 12F84310#00
(1438651190.236866) can0 12F97450#8000
(1438651190.237787) can0 12F85150#4001000060
(1438651190.240905) can0 12F87810#00
(1438651190.246889) can0 12F85050#00031D200008
(1438651190.247656) can0 12F97150#E0FF0D
(1438651190.248771) can0 0EF86350#0000000055557FD7
(1438651190.260921) can0 12F83010#80
(1438651190.264369) can0 0EF82390#0102
(1438651190.271234) can0 12F81010#2800800000
(1438651190.274245) can0 0EF88190#00
(1438651190.297031) can0 12F96050#00000000410A00
(1438651190.298036) can0 16F97D54#A22518199F923521
(1438651190.326985) can0 0EF91250#0000000000000008
(1438651190.330915) can0 0EF82010#00
(1438651190.337124) can0 12F97450#8000
(1438651190.346804) can0 12F85050#00031D200008
(1438651190.347554) can0 12F97150#E0FF0D
(1438651190.348677) can0 0EF86350#00000000555582D4
(1438651190.356299) can0 0EF87372#DC35
(1438651190.366663) can0 12F96D50#04000000
(1438651190.370910) can0 12F82C10#20
(1438651190.371894) can0 12F83210#08
(1438651190.381365) can0 0AF81110#52C000000000
(1438651190.383039) can0 0AF87110#00FF00
(1438651190.393042) can0 1610FF50#
(1438651190.397498) can0 12F85450#D536000000160000
(1438651190.398542) can0 12F96050#00000000410A00
(1438651190.411050) can0 0AF87010#1024
(1438651190.427193) can0 12F86150#00001000000000FC
(1438651190.430901) can0 12F83110#08
(1438651190.437055) can0 12F97450#8040
(1438651190.437687) can0 12F85C50#00
(1438651190.438821) can0 16F86250#0E00000000000000
(1438651190.439559) can0 0AF97950#00
(1438651190.440313) can0 12F95A50#00000000
(1438651190.446697) can0 12F85050#00032B200008
(1438651190.447503) can0 12F97150#E0FF0D
(1438651190.449418) can0 12F97350#0000
(1438651190.450401) can0 0EF86350#00000000555584D2
(1438651190.450615) can0 12F88090#00
(1438651190.454316) can0 0EF81490#00
(1438651190.460923) can0 12F84010#40
(1438651190.480939) can0 12F84110#80
(1438651190.481901) can0 12F84210#80
(1438651190.484541) can0 12F89090#00010004
(1438651190.497195) can0 12F96050#00000000410A00
(1438651190.511035) can0 0EF81510#02
(1438651190.527061) can0 0EF91250#0000000000000008
(1438651190.530924) can0 12F83410#20
(1438651190.531888) can0 12F84310#00
(1438651190.537046) can0 12F97450#8000
(1438651190.537937) can0 12F85150#4001000060
(1438651190.540892) can0 12F87810#00
(1438651190.546763) can0 12F85050#000323200008
(1438651190.547879) can0 0EF86350#00000000555587CF
(1438651190.548644) can0 12F97150#E0FF0D
(1438651190.549579) can0 12F85250#7F0038A8
(1438651190.560928) can0 12F83010#80
(1438651190.564317) can0 0EF82390#0102
(1438651190.566579) can0 12F96D50#04000000
(1438651190.571197) can0 12F81010#2800800000
(1438651190.574258) can0 0EF88190#00
(1438651190.597332) can0 12F96050#00000000410A00
(1438651190.631048) can0 0EF82010#00
(1438651190.637084) can0 12F97450#8000
(1438651190.638205) can0 12F95F50#8284860000000000
(1438651190.646905) can0 12F85050#000320200008
(1438651190.647654) can0 12F97150#E0FF0D
(1438651190.648276) can0 12F97C50#18
(1438651190.649524) can0 0EF86350#00000000555589CD
(1438651190.655930) can0 0EF87372#DC35
(1438651190.670926) can0 12F82C10#20
(1438651190.671902) can0 12F83210#08
(1438651190.681331) can0 0AF81110#52C000000000
(1438651190.683059) can0 0AF87110#00FF00
(1438651190.697086) can0 12F85450#D536000000160000
(1438651190.698145) can0 12F96050#00000000410A00
(1438651190.710967) can0 0AF87010#1024
(1438651190.726965) can0 0EF91250#0000000000000008
(1438651190.728083) can0 12F86150#00001000000000FC
(1438651190.731011) can0 12F83110#08
(1438651190.736970) can0 12F97450#8000
(1438651190.737427) can0 12F85C50#00
(1438651190.738589) can0 16F86250#0F00000000000000
(1438651190.739194) can0 0AF97950#00
(1438651190.740281) can0 12F95A50#00000000
(1438651190.747013) can0 12F85050#000327200008
(1438651190.747562) can0 12F97150#E0FF0D
(1438651190.748461) can0 12F97350#0000
(1438651190.749570) can0 0EF86350#0000000055558CCA
(1438651190.750061) can0 12F88090#00
(1438651190.752210) can0 1610FF90#
(1438651190.754327) can0 0EF81490#00
(1438651190.761045) can0 12F84010#40
(1438651190.766718) can0 12F96D50#04000000
(1438651190.780926) can0 12F84110#80
(1438651190.781901) can0 12F84210#80
(1438651190.784535) can0 12F89090#00010004
(1438651190.797084) can0 12F96050#00000000410A00
(1438651190.810936) can0 0EF81510#02
(1438651190.830933) can0 12F83410#20
(1438651190.831914) can0 12F84310#00
(1438651190.836690) can0 12F97450#8000
(1438651190.837587) can0 12F85150#4001000060
(1438651190.840918) can0 12F87810#00
(1438651190.846917) can0 12F85050#000325200008
(1438651190.847693) can0 12F97150#E0FF0D
(1438651190.848318) can0 12F97650#04
(1438651190.849564) can0 0EF86350#0000000055558EC8
(1438651190.861044) can0 12F83010#80
(1438651190.864420) can0 0EF82390#0102
(1438651190.871226) can0 12F81010#2800800000
(1438651190.874282) can0 0EF88190#00
(1438651190.897104) can0 12F96050#00000000410A00
(1438651190.926985) can0 0EF91250#0000000000000008
(1438651190.931030) can0 0EF82010#00
(1438651190.936740) can0 12F97450#8000
(1438651190.946861) can0 12F85050#000320200008
(1438651190.947606) can0 12F97150#E0FF0D
(1438651190.948728) can0 0EF86350#00000000555591C5
(1438651190.955663) can0 0EF87372#DC35
(1438651190.966706) can0 12F96D50#04000000
(1438651190.971038) can0 12F82C10#20
(1438651190.972051) can0 12F83210#08
(1438651190.981306) can0 0AF81110#52C000000000
(1438651190.983079) can0 0AF87110#00FF00
(1438651190.997232) can0 12F85450#D536000000160000
(1438651190.998231) can0 12F96050#00000000410A00
(1438651191.005454) can0 1610FF72#
(1438651191.010980) can0 0AF87010#1024
(1438651191.026980) can0 12F86150#00001000000000FC
(1438651191.030871) can0 12F83110#08
(1438651191.036946) can0 12F97450#8000
(1438651191.037586) can0 12F85C50#00
(1438651191.038744) can0 16F86250#0000000010000000
(1438651191.039473) can0 0AF97950#00
(1438651191.040214) can0 12F95A50#00000000
(1438651191.046708) can0 12F85050#00031B200008
(1438651191.047459) can0 12F97150#E0FF0D
(1438651191.048181) can0 12F97350#0000
(1438651191.049294) can0 0EF86350#00000000555593C3
(1438651191.049928) can0 12F88090#00
(1438651191.054309) can0 0EF81490#00
(1438651191.060924) can0 12F84010#40
(1438651191.081118) can0 12F84110#80
(1438651191.082166) can0 12F84210#80
(1438651191.084497) can0 12F89090#00010004
(1438651191.097097) can0 12F96050#00000000410A00
(1438651191.111067) can0 0EF81510#02
(1438651191.126983) can0 0EF91250#0000000000000008
(1438651191.130933) can0 12F83410#20
(1438651191.131868) can0 12F84310#00
(1438651191.136716) can0 12F97450#8000
(1438651191.137860) can0 12F95F50#8284860000000000
(1438651191.138808) can0 12F85150#4001000060
(1438651191.140881) can0 12F87810#00
(1438651191.146971) can0 12F85050#000320200008
(1438651191.147713) can0 12F97150#E0FF0D
(1438651191.148352) can0 12F97C50#18
(1438651191.149586) can0 0EF86350#00000000555596C0
(1438651191.154233) can0 12F82290#80
(1438651191.160930) can0 12F83010#80
(1438651191.164355) can0 0EF82390#0102
(1438651191.166817) can0 12F96D50#04000000
(1438651191.171215) can0 12F81010#2800800000
(1438651191.171855) can0 1610FF10#
(1438651191.174234) can0 0EF88190#00
(1438651191.185804) can0 1610FF54#
(1438651191.197247) can0 12F96050#00000000410A00
(1438651191.230956) can0 0EF82010#00
(1438651191.236884) can0 12F97450#8000
(1438651191.246860) can0 12F85050#000328200008
(1438651191.247597) can0 12F97150#E0FF0D
(1438651191.248712) can0 0EF86350#00000000555598BE
(1438651191.255343) can0 0EF87372#DC35
(1438651191.271072) can0 12F82C10#20
(1438651191.271881) can0 12F83210#08
(1438651191.281268) can0 0AF81110#52C000000000
(1438651191.283013) can0 0AF87110#00FF00
(1438651191.297346) can0 16F97D54#A22518199F9235A1
(1438651191.298104) can0 12F85450#D536000000160000
(1438651191.299182) can0 12F96050#00000000410A00
(1438651191.310992) can0 0AF87010#1024
(1438651191.327124) can0 0EF91250#0000000000000008
(1438651191.328238) can0 12F86150#00001000000000FC
(1438651191.331022) can0 12F83110#08
(1438651191.336877) can0 12F97450#8040
(1438651191.337497) can0 12F85C50#00
(1438651191.338583) can0 16F86250#01334847474B3500
(1438651191.339220) can0 0AF97950#00
(1438651191.340082) can0 12F95A50#00000000
(1438651191.346884) can0 12F85050#000329200008
(1438651191.347641) can0 12F97150#E0FF0D
(1438651191.348358) can0 12F97350#0000
(1438651191.349587) can0 0EF86350#0000000055559BBB
(1438651191.350140) can0 12F88090#00
(1438651191.354313) can0 0EF81490#00
(1438651191.360899) can0 12F84010#40
(1438651191.366713) can0 12F96D50#04000000
(1438651191.380902) can0 12F84110#80
(1438651191.381883) can0 12F84210#80
(1438651191.384501) can0 12F89090#00010004
(1438651191.397109) can0 12F96050#00000000410A00
(1438651191.398123) can0 1610FF50#
(1438651191.410945) can0 0EF81510#02
(1438651191.431078) can0 12F83410#20
(1438651191.432085) can0 12F84310#00
(1438651191.436885) can0 12F97450#8040
(1438651191.437739) can0 12F85150#4001000060
(1438651191.441029) can0 12F87810#00
(1438651191.446653) can0 12F85050#000324200008
(1438651191.447403) can0 12F97150#E0FF0D
(1438651191.448533) can0 0EF86350#0000000055559DB9
(1438651191.460959) can0 12F83010#80
(1438651191.464333) can0 0EF82390#0102
(1438651191.471238) can0 12F81010#2800800000
(1438651191.474244) can0 0EF88190#00
(1438651191.497024) can0 12F96050#00000000410A00
(1438651191.526990) can0 0EF91250#0000000000000008
(1438651191.530901) can0 0EF82010#00
(1438651191.536834) can0 12F97450#8040
(1438651191.546900) can0 12F85050#00031F200008
(1438651191.548010) can0 0EF86350#000000005555A0B6
(1438651191.548786) can0 12F97150#E0FF0D
(1438651191.549651) can0 12F85250#7F0038A8
(1438651191.555002) can0 0EF87372#DC35
(1438651191.566963) can0 12F96D50#04000000
(1438651191.571086) can0 12F82C10#20
(1438651191.572089) can0 12F83210#08
(1438651191.581288) can0 0AF81110#52C000000000
(1438651191.583016) can0 0AF87110#00FF00
(1438651191.597228) can0 12F85450#D536000000160000
(1438651191.598255) can0 12F96050#00000000410A00
(1438651191.611019) can0 0AF87010#1024
(1438651191.626999) can0 12F86150#00001000000000FC
(1438651191.630913) can0 12F83110#08
(1438651191.636666) can0 12F97450#8000
(1438651191.637339) can0 12F85C50#00
(1438651191.638483) can0 12F95F50#8284860000000000
(1438651191.639600) can0 16F86250#02483839464D3700
(1438651191.640173) can0 0AF97950#00
(1438651191.641033) can0 12F95A50#00000000
(1438651191.646781) can0 12F85050#000326200008
(1438651191.647542) can0 12F97150#E0FF0D
(1438651191.648260) can0 12F97350#0000
(1438651191.648889) can0 12F97C50#18
(1438651191.650022) can0 0EF86350#000000005555A2B4
(1438651191.650658) can0 12F88090#00
(1438651191.654273) can0 0EF81490#00
(1438651191.660903) can0 12F84010#40
(1438651191.681100) can0 12F84110#80
(1438651191.682105) can0 12F84210#80
(1438651191.684548) can0 12F89090#00010004
(1438651191.697106) can0 12F96050#00000000410A00
(1438651191.710986) can0 0EF81510#02
(1438651191.726921) can0 0EF91250#0000000000000008
(1438651191.730928) can0 12F83410#20
(1438651191.731895) can0 12F84310#00
(1438651191.736652) can0 12F97450#8000
(1438651191.737601) can0 12F85150#4001000060
(1438651191.740909) can0 12F87810#00
(1438651191.746905) can0 12F85050#00031B200008
(1438651191.747656) can0 12F97150#E0FF0D
(1438651191.748781) can0 0EF86350#000000005555A5B1
(1438651191.752423) can0 1610FF90#
(1438651191.761111) can0 12F83010#80
(1438651191.764302) can0 0EF82390#0102
(1438651191.766755) can0 12F96D50#04000000
(1438651191.771240) can0 12F81010#2800800000
(1438651191.774228) can0 0EF88190#00
(1438651191.797048) can0 12F96050#00000000410A00
(1438651191.830993) can0 0EF82010#00
(1438651191.836671) can0 12F97450#8040
(1438651191.846931) can0 12F85050#000329200008
(1438651191.847677) can0 12F97150#E0FF0D
(1438651191.848301) can0 12F97650#04
(1438651191.849550) can0 0EF86350#000000005555A7AF
(1438651191.854672) can0 0EF87372#DC35
(1438651191.870935) can0 12F82C10#20
(1438651191.871921) can0 12F83210#08
(1438651191.881303) can0 0AF81110#52C000000000
(1438651191.883026) can0 0AF87110#00FF00
(1438651191.897161) can0 12F85450#D536000000160000
(1438651191.898274) can0 12F96050#00000000410A00
(1438651191.911139) can0 0AF87010#1024
(1438651191.926903) can0 0EF91250#0000000000000008
(1438651191.928025) can0 12F86150#00001000000000FC
(1438651191.931065) can0 12F83110#08
(1438651191.936684) can0 12F97450#8040
(1438651191.937318) can0 12F85C50#00
(1438651191.938179) can0 12F95A50#00000000
(1438651191.939296) can0 16F86250#0333333134300000
(1438651191.940003) can0 0AF97950#00
(1438651191.946637) can0 12F85050#000325200008
(1438651191.947405) can0 12F97150#E0FF0D
(1438651191.948114) can0 12F97350#0000
(1438651191.949240) can0 0EF86350#000000005555AAAC
(1438651191.949908) can0 12F88090#00
(1438651191.954296) can0 0EF81490#00
(1438651191.960936) can0 12F84010#40
(1438651191.966540) can0 12F96D50#04000000
(1438651191.980947) can0 12F84110#80
(1438651191.981924) can0 12F84210#80
(1438651191.984505) can0 12F89090#00010004
(1438651191.997267) can0 12F96050#00000000410A00
(1438651192.004398) can0 1610FF72#
(1438651192.011410) can0 0EF81510#02
(1438651192.031138) can0 12F83410#20
(1438651192.032139) can0 12F84310#00
(1438651192.036911) can0 12F97450#8000
(1438651192.037804) can0 12F85150#4001000060
(1438651192.040940) can0 12F87810#00
(1438651192.046693) can0 12F85050#00031F200008
(1438651192.047451) can0 12F97150#E0FF0D
(1438651192.048574) can0 0EF86350#000000005555ACAA
(1438651192.060952) can0 12F83010#80
(1438651192.064311) can0 0EF82390#0102
(1438651192.071205) can0 12F81010#2800800000
(1438651192.074209) can0 0EF88190#00
(1438651192.097212) can0 12F96050#00000000410A00
(1438651192.127188) can0 0EF91250#0000000000000008
(1438651192.131131) can0 0EF82010#00
(1438651192.136833) can0 12F97450#8000
(1438651192.137796) can0 12F96750#B2270F890000
(1438651192.139064) can0 12F95F50#8284860000000000
(1438651192.146766) can0 12F85050#00031F200008
(1438651192.147513) can0 12F97150#E0FF0D
(1438651192.148150) can0 12F97C50#18
(1438651192.149277) can0 0EF86350#000000005555AFA7
(1438651192.154278) can0 12F82290#80
(1438651192.154931) can0 0EF87372#DC35
(1438651192.166581) can0 12F96D50#04000000
(1438651192.170952) can0 12F82C10#20
(1438651192.171927) can0 12F83210#08
(1438651192.172910) can0 1610FF10#
(1438651192.181321) can0 0AF81110#52C000000000
(1438651192.183065) can0 0AF87110#00FF00
(1438651192.186319) can0 1610FF54#
(1438651192.197081) can0 12F85450#D536000000160000
(1438651192.198148) can0 12F96050#00000000410A00
(1438651192.211022) can0 0AF87010#1024
(1438651192.226889) can0 12F86150#00001000000000FC
(1438651192.230939) can0 12F83110#08
(1438651192.236832) can0 12F97450#8040
(1438651192.237464) can0 12F85C50#00
(1438651192.238654) can0 16F86250#0431144003050000
(1438651192.239223) can0 0AF97950#00
(1438651192.240301) can0 12F95A50#00000000
(1438651192.247014) can0 12F85050#000324200008
(1438651192.247578) can0 12F97150#E0FF0D
(1438651192.248273) can0 12F97350#0000
(1438651192.249532) can0 0EF86350#000000005555B1A5
(1438651192.250271) can0 12F88090#00
(1438651192.254336) can0 0EF81490#00
(1438651192.261090) can0 12F84010#40
(1438651192.280963) can0 12F84110#80
(1438651192.281921) can0 12F84210#80
(1438651192.284470) can0 12F89090#00010004
(1438651192.297095) can0 16F97D54#A22518199F923621
(1438651192.298087) can0 12F96050#00000000410A00
(1438651192.310964) can0 0EF81510#02
(1438651192.327073) can0 0EF91250#0000000000000008
(1438651192.330950) can0 12F83410#20
(1438651192.331919) can0 12F84310#00
(1438651192.336819) can0 12F97450#8040
(1438651192.337728) can0 12F85150#4001000060
(1438651192.340938) can0 12F87810#00
(1438651192.346951) can0 12F85050#00031E200008
(1438651192.348061) can0 0EF86350#000000005555B4A2
(1438651192.348816) can0 12F97150#E0FF0D
(1438651192.360976) can0 12F83010#80
(1438651192.364296) can0 0EF82390#0102
(1438651192.366791) can0 12F96D50#04000000
(1438651192.371319) can0 12F81010#2800800000
(1438651192.374299) can0 0EF88190#00
(1438651192.397227) can0 12F96050#00000000410A00
(1438651192.402285) can0 1610FF50#
(1438651192.431029) can0 0EF82010#00
(1438651192.436908) can0 12F97450#8000
(1438651192.441235) can0 12F81010#3800800000
(1438651192.446611) can0 12F85050#000320200008
(1438651192.447409) can0 12F97150#E0FF0D
(1438651192.448531) can0 0EF86350#000000005555B6A0
(1438651192.454067) can0 0EF87372#DC35
(1438651192.470983) can0 12F82C10#20
(1438651192.471928) can0 12F83210#08
(1438651192.481368) can0 0AF81110#52C000000000
(1438651192.483202) can0 0AF87110#00FF00
(1438651192.496986) can0 12F85450#D536000000160000
(1438651192.498055) can0 12F96050#00000000410A00
(1438651192.510995) can0 0AF87010#1024
(1438651192.526963) can0 0EF91250#0000000000000008
(1438651192.528094) can0 12F86150#00001000000000FC
(1438651192.530935) can0 12F83110#08
(1438651192.536873) can0 12F97450#8000
(1438651192.537543) can0 12F85C50#00
(1438651192.538721) can0 16F86250#0500000000000000
(1438651192.539567) can0 0AF97950#00
(1438651192.540207) can0 12F95A50#00000000
(1438651192.546982) can0 12F85050#000320200008
(1438651192.548105) can0 0EF86350#000000005555B99D
(1438651192.548874) can0 12F97150#E0FF0D
(1438651192.549592) can0 12F88090#00
(1438651192.550232) can0 12F97350#0000
(1438651192.551101) can0 12F85250#7F0038A8
(1438651192.554309) can0 0EF81490#00
(1438651192.560957) can0 12F84010#40
(1438651192.566732) can0 12F96D50#04000000
(1438651192.580964) can0 12F84110#80
(1438651192.581923) can0 12F84210#80
(1438651192.584473) can0 12F89090#00010004
(1438651192.597218) can0 12F96050#00000000410A00
(1438651192.611122) can0 0EF81510#02
(1438651192.631004) can0 12F83410#20
(1438651192.631946) can0 12F84310#00
(1438651192.636739) can0 12F97450#8000
(1438651192.637860) can0 12F95F50#8284860000000000
(1438651192.638812) can0 12F85150#4001000060
(1438651192.640956) can0 12F87810#00
(1438651192.647070) can0 12F85050#00031D200008
(1438651192.647847) can0 12F97150#E0FF0D
(1438651192.648467) can0 12F97C50#18
(1438651192.649615) can0 0EF86350#000000005555BB9B
(1438651192.660968) can0 12F83010#80
(1438651192.664319) can0 0EF82390#0102
(1438651192.674234) can0 0EF88190#00
(1438651192.697122) can0 12F96050#00000000410A00
(1438651192.727109) can0 0EF91250#0000000000000008
(1438651192.731114) can0 0EF82010#00
(1438651192.736866) can0 12F97450#8040
(1438651192.741246) can0 12F81010#3800800000
(1438651192.746818) can0 12F85050#000325200008
(1438651192.747589) can0 12F97150#E0FF0D
(1438651192.748701) can0 0EF86350#000000005555BE98
(1438651192.752828) can0 1610FF90#
(1438651192.753852) can0 0EF87372#DC35
(1438651192.766762) can0 12F96D50#04000000
(1438651192.770955) can0 12F82C10#20
(1438651192.771944) can0 12F83210#08
(1438651192.781331) can0 0AF81110#52C000000000
(1438651192.783082) can0 0AF87110#00FF00
(1438651192.797257) can0 12F85450#D536000000160000
(1438651192.798334) can0 12F96050#00000000410A00
(1438651192.811015) can0 0AF87010#1024
(1438651192.827018) can0 12F86150#00001000000000FC
(1438651192.831144) can0 12F83110#08
(1438651192.836770) can0 12F97450#8000
(1438651192.837393) can0 12F85C50#00
(1438651192.838575) can0 16F86250#0600000000000000
(1438651192.839216) can0 0AF97950#00
(1438651192.840241) can0 12F95A50#00000000
(1438651192.847111) can0 12F85050#000328200008
(1438651192.847711) can0 12F97150#E0FF0D
(1438651192.848389) can0 12F97350#0000
(1438651192.849601) can0 0EF86350#000000005555C096
(1438651192.850208) can0 12F88090#00
(1438651192.850836) can0 12F97650#04
(1438651192.854262) can0 0EF81490#00
(1438651192.860964) can0 12F84010#40
(1438651192.880965) can0 12F84110#80
(1438651192.881903) can0 12F84210#80
(1438651192.884493) can0 12F89090#00010004
(1438651192.897077) can0 12F96050#00000000410A00
(1438651192.910978) can0 0EF81510#02
(1438651192.926897) can0 0EF91250#0000000000000008
(1438651192.930968) can0 12F83410#20
(1438651192.931905) can0 12F84310#00
(1438651192.936774) can0 12F97450#8040
(1438651192.937658) can0 12F85150#4001000060
(1438651192.941212) can0 12F87810#00
(1438651192.946575) can0 12F85050#00032C200008
(1438651192.947368) can0 12F97150#E0FF0D
(1438651192.948449) can0 0EF86350#000000005555C393
(1438651192.961142) can0 12F83010#80
(1438651192.964278) can0 0EF82390#0102
(1438651192.966484) can0 12F96D50#04000000
(1438651192.974254) can0 0EF88190#00
(1438651192.997121) can0 12F96050#00000000410A00
(1438651193.003369) can0 1610FF72#
(1438651193.030977) can0 0EF82010#00
(1438651193.036666) can0 12F97450#8000
(1438651193.041276) can0 12F81010#3800800000
(1438651193.046718) can0 12F85050#000337200008
(1438651193.047477) can0 12F97150#E0FF0D
(1438651193.048596) can0 0EF86350#000000005555C591
(1438651193.053413) can0 0EF87372#DC35
(1438651193.071142) can0 12F82C10#20
(1438651193.072134) can0 12F83210#08
(1438651193.081343) can0 0AF81110#52C000000000
(1438651193.083229) can0 0AF87110#00FF00
(1438651193.097156) can0 12F85450#D536000000160000
(1438651193.098159) can0 12F96050#00000000410A00
(1438651193.111040) can0 0AF87010#1024
(1438651193.126987) can0 0EF91250#0000000000000008
(1438651193.128129) can0 12F86150#00001000000000FC
(1438651193.130920) can0 12F83110#08
(1438651193.136656) can0 12F97450#8000
(1438651193.137290) can0 12F85C50#00
(1438651193.138475) can0 12F95F50#8284860000000000
(1438651193.139734) can0 16F86250#0700000000000000
(1438651193.140275) can0 0AF97950#00
(1438651193.141130) can0 12F95A50#00000000
(1438651193.146769) can0 12F85050#000323200008
(1438651193.147531) can0 12F97150#E0FF0D
(1438651193.148262) can0 12F97350#0000
(1438651193.148885) can0 12F97C50#18
(1438651193.150020) can0 0EF86350#000000005555C88E
(1438651193.150653) can0 12F88090#00
(1438651193.154215) can0 12F82290#80
(1438651193.154885) can0 0EF81490#00
(1438651193.160981) can0 12F84010#40
(1438651193.166476) can0 12F96D50#04000000
(1438651193.170924) can0 1610FF10#
(1438651193.181240) can0 12F84110#80
(1438651193.182135) can0 12F84210#80
(1438651193.184506) can0 12F89090#00010004
(1438651193.187119) can0 1610FF54#
(1438651193.197103) can0 12F96050#00000000410A00
(1438651193.210992) can0 0EF81510#02
(1438651193.230986) can0 12F83410#20
(1438651193.231933) can0 12F84310#00
(1438651193.236637) can0 12F97450#8000
(1438651193.237534) can0 12F85150#4001000060
(1438651193.240992) can0 12F87810#00
(1438651193.246745) can0 12F85050#000330200008
(1438651193.247501) can0 12F97150#E0FF0D
(1438651193.248621) can0 0EF86350#000000005555CA8C
(1438651193.260988) can0 12F83010#80
(1438651193.264281) can0 0EF82390#0102
(1438651193.274246) can0 0EF88190#00
(1438651193.297128) can0 12F96050#00000000410A00
(1438651193.298291) can0 16F97D54#A22518199F9236A1
(1438651193.326859) can0 0EF91250#0000000000000008
(1438651193.330941) can0 0EF82010#00
(1438651193.336554) can0 12F97450#8040
(1438651193.341280) can0 12F81010#3800800000
(1438651193.346615) can0 12F85050#000331200008
(1438651193.347305) can0 12F97150#E0FF0D
(1438651193.348431) can0 0EF86350#000000005555CD89
(1438651193.353128) can0 0EF87372#DC35
(1438651193.366488) can0 12F96D50#04000000
(1438651193.370937) can0 12F82C10#20
(1438651193.371928) can0 12F83210#08
(1438651193.381318) can0 0AF81110#52C000000000
(1438651193.383067) can0 0AF87110#00FF00
(1438651193.397241) can0 12F85450#D536000000160000
(1438651193.398281) can0 12F96050#00000000410A00
(1438651193.406557) can0 1610FF50#
(1438651193.411193) can0 0AF87010#1024
(1438651193.426948) can0 12F86150#00001000000000FC
(1438651193.430935) can0 12F83110#08
(1438651193.436933) can0 12F97450#8040
(1438651193.437565) can0 12F85C50#00
(1438651193.438787) can0 16F86250#0800000000000000
(1438651193.439531) can0 0AF97950#00
(1438651193.440258) can0 12F95A50#00000000
(1438651193.446813) can0 12F85050#00032A200008
(1438651193.447554) can0 12F97150#E0FF0D
(1438651193.448284) can0 12F97350#0000
(1438651193.449546) can0 0EF86350#000000005555CF87
(1438651193.450054) can0 12F88090#00
(1438651193.454264) can0 0EF81490#00
(1438651193.461002) can0 12F84010#40
(1438651193.480954) can0 12F84110#80
(1438651193.481925) can0 12F84210#80
(1438651193.484542) can0 12F89090#00010004
(1438651193.497194) can0 12F96050#00000000410A00
(1438651193.510997) can0 0EF81510#02
(1438651193.527149) can0 0EF91250#0000000000000008
(1438651193.531128) can0 12F83410#20
(1438651193.532126) can0 12F84310#00
(1438651193.536678) can0 12F97450#8040
(1438651193.537547) can0 12F85150#4001000060
(1438651193.540936) can0 12F87810#00
(1438651193.546785) can0 12F85050#000329200008
(1438651193.547928) can0 0EF86350#000000005555D284
(1438651193.548672) can0 12F97150#E0FF0D
(1438651193.549632) can0 12F85250#7F0038A8
(1438651193.560960) can0 12F83010#80
(1438651193.564304) can0 0EF82390#0102
(1438651193.566433) can0 12F96D50#04000000
(1438651193.574202) can0 0EF88190#00
(1438651193.596903) can0 12F96050#00000000410A00
(1438651193.631158) can0 0EF82010#00
(1438651193.637075) can0 12F97450#8040
(1438651193.638261) can0 12F95F50#8284860000000000
(1438651193.641300) can0 12F81010#3800800000
(1438651193.646697) can0 12F85050#000328200008
(1438651193.647446) can0 12F97150#E0FF0D
(1438651193.648080) can0 12F97C50#18
(1438651193.649216) can0 0EF86350#000000005555D482
(1438651193.652798) can0 0EF87372#DC35
(1438651193.670967) can0 12F82C10#20
(1438651193.671955) can0 12F83210#08
(1438651193.681395) can0 0AF81110#52C000000000
(1438651193.683077) can0 0AF87110#00FF00
(1438651193.697150) can0 12F85450#D536000000160000
(1438651193.698179) can0 12F96050#00000000410A00
(1438651193.711050) can0 0AF87010#1024
(1438651193.726914) can0 0EF91250#0000000000000008
(1438651193.728085) can0 12F86150#00001000000000FC
(1438651193.730959) can0 12F83110#08
(1438651193.736642) can0 12F97450#8000
(1438651193.737475) can0 12F95A50#00000000
(1438651193.738149) can0 12F85C50#00
(1438651193.738782) can0 0AF97950#00
(1438651193.740334) can0 16F86250#0900000000000000
(1438651193.746682) can0 12F85050#00032E200008
(1438651193.747461) can0 12F97150#E0FF0D
(1438651193.748351) can0 12F97350#0000
(1438651193.749539) can0 0EF86350#000000005555D77F
(1438651193.750289) can0 12F88090#00
(1438651193.753413) can0 1610FF90#
(1438651193.754418) can0 0EF81490#00
(1438651193.761283) can0 12F84010#40
(1438651193.766662) can0 12F96D50#04000000
(1438651193.780979) can0 12F84110#80
(1438651193.781952) can0 12F84210#80
(1438651193.784479) can0 12F89090#00010004
(1438651193.797216) can0 12F96050#00000000410A00
(1438651193.810975) can0 0EF81510#02
(1438651193.831024) can0 12F83410#20
(1438651193.831966) can0 12F84310#00
(1438651193.836839) can0 12F97450#8000
(1438651193.837724) can0 12F85150#4001000060
(1438651193.840978) can0 12F87810#00
(1438651193.846595) can0 12F85050#00031F200008
(1438651193.847356) can0 12F97150#E0FF0D
(1438651193.848029) can0 12F97650#04
(1438651193.849157) can0 0EF86350#000000005555D97D
(1438651193.861303) can0 12F83010#80
(1438651193.864446) can0 0EF82390#0102
(1438651193.874454) can0 0EF88190#00
(1438651193.897280) can0 12F96050#00000000410A00
(1438651193.926867) can0 0EF91250#0000000000000008
(1438651193.930965) can0 0EF82010#00
(1438651193.936580) can0 12F97450#8000
(1438651193.941293) can0 12F81010#3800800000
(1438651193.946680) can0 12F85050#000329200008
(1438651193.947443) can0 12F97150#E0FF0D
(1438651193.948556) can0 0EF86350#000000005555DC7A
(1438651193.952479) can0 0EF87372#DC35
(1438651193.966672) can0 12F96D50#04000000
(1438651193.971203) can0 12F82C10#20
(1438651193.972308) can0 12F83210#08
(1438651193.981359) can0 0AF81110#52C000000000
(1438651193.983289) can0 0AF87110#00FF00
(1438651193.997049) can0 12F85450#D536000000160000
(1438651193.998080) can0 12F96050#00000000410A00
(1438651194.002303) can0 1610FF72#
(1438651194.011058) can0 0AF87010#1024
(1438651194.026974) can0 12F86150#00001000000000FC
(1438651194.030970) can0 12F83110#08
(1438651194.036711) can0 12F97450#8000
(1438651194.037349) can0 12F85C50#00
(1438651194.038490) can0 16F86250#0A00000000808000
(1438651194.039124) can0 0AF97950#00
(1438651194.039981) can0 12F95A50#00000000
(1438651194.046690) can0 12F85050#000324200008
(1438651194.047459) can0 12F97150#E0FF0D
(1438651194.048169) can0 12F97350#0000
(1438651194.049253) can0 0EF86350#000000005555DE78
(1438651194.049936) can0 12F88090#00
(1438651194.054313) can0 0EF81490#00
(1438651194.061053) can0 12F84010#40
(1438651194.081311) can0 12F84110#80
(1438651194.082316) can0 12F84210#80
(1438651194.084556) can0 12F89090#00010004
(1438651194.097193) can0 12F96050#00000000410A00
(1438651194.111006) can0 0EF81510#02
(1438651194.127122) can0 0EF91250#0000000000000008
(1438651194.130991) can0 12F83410#20
(1438651194.131961) can0 12F84310#00
(1438651194.136590) can0 12F97450#8000
(1438651194.137752) can0 12F95F50#8284860000000000
(1438651194.138689) can0 12F85150#4001000060
(1438651194.140975) can0 12F87810#00
(1438651194.146817) can0 12F85050#000329200008
(1438651194.147572) can0 12F97150#E0FF0D
(1438651194.148216) can0 12F97C50#18
(1438651194.149453) can0 0EF86350#000000005555E175
(1438651194.154224) can0 12F82290#80
(1438651194.160998) can0 12F83010#80
(1438651194.164440) can0 0EF82390#0102
(1438651194.166574) can0 12F96D50#04000000
(1438651194.170934) can0 1610FF10#
(1438651194.174247) can0 0EF88190#00
(1438651194.187438) can0 1610FF54#
(1438651194.197340) can0 12F96050#00000000410A00
(1438651194.231061) can0 0EF82010#00
(1438651194.236703) can0 12F97450#8000
(1438651194.241309) can0 12F81010#3800800000
(1438651194.246751) can0 12F85050#000328200008
(1438651194.247506) can0 12F97150#E0FF0D
(1438651194.248638) can0 0EF86350#000000005555E373
(1438651194.252139) can0 0EF87372#DC35
(1438651194.271015) can0 12F82C10#20
(1438651194.271993) can0 12F83210#08
(1438651194.281378) can0 0AF81110#52C000000000
(1438651194.283117) can0 0AF87110#00FF00
(1438651194.297237) can0 12F85450#D536000000160000
(1438651194.298258) can0 12F96050#00000000410A00
(1438651194.299584) can0 16F97D54#A22518199F923721
(1438651194.311228) can0 0AF87010#1024
(1438651194.326815) can0 0EF91250#0000000000000008
(1438651194.327897) can0 12F86150#00001000000000FC
(1438651194.330978) can0 12F83110#08
(1438651194.336836) can0 12F97450#8000
(1438651194.337465) can0 12F85C50#00
(1438651194.338609) can0 16F86250#0B00000000000000
(1438651194.339243) can0 0AF97950#00
(1438651194.340123) can0 12F95A50#00000000
(1438651194.346511) can0 12F85050#00032A200008
(1438651194.347271) can0 12F97150#E0FF0D
(1438651194.347986) can0 12F97350#0000
(1438651194.349108) can0 0EF86350#000000005555E670
(1438651194.349817) can0 12F88090#00
(1438651194.354340) can0 0EF81490#00
(1438651194.361002) can0 12F84010#40
(1438651194.366827) can0 12F96D50#04000000
(1438651194.381010) can0 12F84110#80
(1438651194.381979) can0 12F84210#80
(1438651194.384593) can0 12F89090#00010004
(1438651194.397343) can0 12F96050#00000000410A00
(1438651194.410859) can0 1610FF50#
(1438651194.411362) can0 0EF81510#02
(1438651194.431209) can0 12F83410#20
(1438651194.432206) can0 12F84310#00
(1438651194.436600) can0 12F97450#8000
(1438651194.437517) can0 12F85150#4001000060
(1438651194.441003) can0 12F87810#00
(1438651194.446657) can0 12F85050#000323200008
(1438651194.447450) can0 12F97150#E0FF0D
(1438651194.448587) can0 0EF86350#000000005555E86E
(1438651194.461586) can0 12F83010#80
(1438651194.464351) can0 0EF82390#0102
(1438651194.474276) can0 0EF88190#00
(1438651194.497131) can0 12F96050#00000000410A00
(1438651194.526961) can0 0EF91250#0000000000000008
(1438651194.531041) can0 0EF82010#00
(1438651194.536652) can0 12F97450#8000
(1438651194.541389) can0 12F81010#3800800000
(1438651194.546722) can0 12F85050#00032B200008
(1438651194.547792) can0 0EF86350#000000005555EB6B
(1438651194.548593) can0 12F97150#E0FF0D
(1438651194.549609) can0 12F85250#7F0038A8
(1438651194.551864) can0 0EF87372#DC35
(1438651194.566482) can0 12F96D50#04000000
(1438651194.571387) can0 12F82C10#20
(1438651194.571977) can0 12F83210#08
(1438651194.581395) can0 0AF81110#52C000000000
(1438651194.583110) can0 0AF87110#00FF00
(1438651194.597023) can0 12F85450#D536000000160000
(1438651194.598089) can0 12F96050#00000000410A00
(1438651194.611039) can0 0AF87010#1024
(1438651194.626977) can0 12F86150#00001000000000FC
(1438651194.630997) can0 12F83110#08
(1438651194.636673) can0 12F97450#8040
(1438651194.637302) can0 12F85C50#00
(1438651194.638494) can0 12F95F50#8284860000000000
(1438651194.639718) can0 16F86250#0C00000000000000
(1438651194.640239) can0 0AF97950#00
(1438651194.641136) can0 12F95A50#00000000
(1438651194.646759) can0 12F85050#000329200008
(1438651194.647509) can0 12F97150#E0FF0D
(1438651194.648231) can0 12F97350#0000
(1438651194.648864) can0 12F97C50#18
(1438651194.650272) can0 0EF86350#000000005555ED69
(1438651194.650925) can0 12F88090#00
(1438651194.654482) can0 0EF81490#00
(1438651194.661223) can0 12F84010#40
(1438651194.681471) can0 12F84110#80
(1438651194.681992) can0 12F84210#80
(1438651194.684540) can0 12F89090#00010004
(1438651194.697130) can0 12F96050#00000000410A00
(1438651194.706725) can0 12F85150#0001000060
(1438651194.711010) can0 0EF81510#02
(1438651194.726797) can0 0EF91250#0000000000000008
(1438651194.730997) can0 12F83410#20
(1438651194.731979) can0 12F84310#00
(1438651194.734289) can0 0EF82390#0002
(1438651194.736803) can0 12F97450#8000
(1438651194.740998) can0 12F87810#00
(1438651194.746621) can0 12F85050#000327200008
(1438651194.747372) can0 12F97150#E0FF0D
(1438651194.748516) can0 0EF86350#000000005555F066
(1438651194.753653) can0 1610FF90#
(1438651194.761186) can0 12F83010#80
(1438651194.766604) can0 12F96D50#04000000
(1438651194.774437) can0 0EF88190#00
(1438651194.797053) can0 12F96050#00000000410A00
(1438651194.831041) can0 0EF82010#00
(1438651194.836665) can0 12F97450#8000
(1438651194.841301) can0 12F81010#3800800000
(1438651194.846755) can0 12F85050#000329200008
(1438651194.847512) can0 12F97150#E0FF0D
(1438651194.848156) can0 12F97650#04
(1438651194.849274) can0 0EF86350#000000005555F264
(1438651194.851531) can0 0EF87372#DC35
(1438651194.871072) can0 12F82C10#20
(1438651194.872060) can0 12F83210#08
(1438651194.881537) can0 0AF81110#52C000000000
(1438651194.883401) can0 0AF87110#00FF00
(1438651194.897193) can0 12F85450#D536000000160000
(1438651194.898192) can0 12F96050#00000000410A00
(1438651194.911116) can0 0AF87010#1024
(1438651194.917041) can0 12F85150#1001000060
(1438651194.926763) can0 0EF91250#0000000000000008
(1438651194.927891) can0 12F86150#00001000000000FC
(1438651194.930991) can0 12F83110#08
(1438651194.936748) can0 12F97450#8040
(1438651194.937385) can0 12F85C50#00
(1438651194.938533) can0 16F86250#0D00000000000000
(1438651194.939164) can0 0AF97950#00
(1438651194.940053) can0 12F95A50#00000000
(1438651194.941290) can0 12F81010#3800808000
(1438651194.946536) can0 12F85050#000325200008
(1438651194.947286) can0 12F97150#E0FF0D
(1438651194.948013) can0 12F97350#0000
(1438651194.949672) can0 0EF86350#000000005555F561
(1438651194.950131) can0 12F88090#00
(1438651194.954310) can0 0EF81490#00
(1438651194.961043) can0 12F84010#40
(1438651194.966498) can0 12F96D50#04000000
(1438651194.981312) can0 12F84110#80
(1438651194.981947) can0 12F84210#80
(1438651194.984526) can0 12F89090#00010004
(1438651194.996942) can0 12F96050#00000000410A00
(1438651195.001440) can0 1610FF72#
(1438651195.011044) can0 0EF81510#02
(1438651195.031024) can0 12F83410#20
(1438651195.032014) can0 12F84310#00
(1438651195.034310) can0 0EF82390#0002
(1438651195.036565) can0 12F97450#8000
(1438651195.041016) can0 12F87810#00
(1438651195.046670) can0 12F85050#000322200008
(1438651195.047421) can0 12F97150#E0FF0D
(1438651195.048543) can0 0EF86350#000000005555F75F
(1438651195.061033) can0 12F83010#80
(1438651195.074215) can0 0EF88190#00
(1438651195.097278) can0 12F96050#00000000410A00
(1438651195.126779) can0 0EF91250#0000000000000008
(1438651195.127822) can0 12F96150#415F0000000000
(1438651195.131017) can0 0EF82010#00
(1438651195.136526) can0 12F97450#8000
(1438651195.137657) can0 12F96B50#7FF8F10000000000
(1438651195.138812) can0 12F95F50#8284860000000000
(1438651195.146636) can0 12F85050#000319200008
(1438651195.147347) can0 12F97150#E0FF0D
(1438651195.148021) can0 12F97C50#18
(1438651195.149156) can0 0EF86350#000000005555FA5C
(1438651195.151184) can0 0EF87372#DC35
(1438651195.154186) can0 12F82290#80
(1438651195.166558) can0 12F96D50#04000000
(1438651195.171024) can0 12F82C10#20
(1438651195.171968) can0 12F83210#08
(1438651195.172942) can0 1610FF10#
(1438651195.181399) can0 0AF81110#52C000000000
(1438651195.183151) can0 0AF87110#00FF00
(1438651195.187975) can0 1610FF54#
(1438651195.197211) can0 12F85450#D536000000160000
(1438651195.198288) can0 12F96050#00000000410A00
(1438651195.211288) can0 0AF87010#1024
(1438651195.216917) can0 12F85150#1001000060
(1438651195.226791) can0 12F86150#00001000000000FC
(1438651195.230975) can0 12F83110#08
(1438651195.236805) can0 12F97450#8000
(1438651195.237438) can0 12F85C50#00
(1438651195.238292) can0 12F95A50#00000000
(1438651195.239544) can0 16F86250#0E00000000000000
(1438651195.240094) can0 0AF97950#00
(1438651195.241308) can0 12F81010#3800808000
(1438651195.246775) can0 12F85050#000320200008
(1438651195.247537) can0 12F97150#E0FF0D
(1438651195.248210) can0 12F97350#0000
(1438651195.249458) can0 0EF86350#000000005555FC5A
(1438651195.250069) can0 12F88090#00
(1438651195.254274) can0 0EF81490#00
(1438651195.261026) can0 12F84010#40
(1438651195.281043) can0 12F84110#80
(1438651195.281967) can0 12F84210#80
(1438651195.284457) can0 12F89090#00010004
(1438651195.296784) can0 16F97D54#A22518199F9237A1
(1438651195.297816) can0 12F96050#00000000410A00
(1438651195.311041) can0 0EF81510#02
(1438651195.326951) can0 0EF91250#0000000000000008
(1438651195.331064) can0 12F83410#20
(1438651195.331979) can0 12F84310#00
(1438651195.334541) can0 0EF82390#0002
(1438651195.336778) can0 12F97450#8000
(1438651195.340982) can0 12F87810#00
(1438651195.346709) can0 12F85050#00031D200008
(1438651195.347470) can0 12F97150#E0FF0D
(1438651195.348600) can0 0EF86350#000000005555FF57
(1438651195.361036) can0 12F83010#80
(1438651195.366596) can0 12F96D50#04000000
(1438651195.374202) can0 0EF88190#00
(1438651195.397166) can0 12F96050#00000000410A00
(1438651195.416063) can0 1610FF50#
(1438651195.431097) can0 0EF82010#00
(1438651195.436789) can0 12F97450#8000
(1438651195.446482) can0 12F85050#00032A200008
(1438651195.447452) can0 12F97150#E0FF0D
(1438651195.448547) can0 0EF86350#0000000055550155
(1438651195.450915) can0 0EF87372#DC35
(1438651195.471058) can0 12F82C10#20
(1438651195.471979) can0 12F83210#08
(1438651195.481372) can0 0AF81110#52C000000000
(1438651195.483115) can0 0AF87110#00FF00
(1438651195.497171) can0 12F85450#D536000000160000
(1438651195.498181) can0 12F96050#00000000410A00
(1438651195.511098) can0 0AF87010#1024
(1438651195.516625) can0 12F85150#1001000060
(1438651195.526740) can0 0EF91250#0000000000000008
(1438651195.527871) can0 12F86150#00001000000000FC
(1438651195.530984) can0 12F83110#08
(1438651195.536586) can0 12F97450#8040
(1438651195.537459) can0 12F85C50#00
(1438651195.538374) can0 16F86250#0F00000000000000
(1438651195.539046) can0 0AF97950#00
(1438651195.539880) can0 12F95A50#00000000
(1438651195.541317) can0 12F81010#3800808000
(1438651195.546719) can0 12F85050#000326200008
(1438651195.547833) can0 0EF86350#0000000055550452
(1438651195.548589) can0 12F97150#E0FF0D
(1438651195.549232) can0 12F88090#00
(1438651195.550334) can0 12F97350#0000
(1438651195.550943) can0 12F85250#7F0038A8
(1438651195.554498) can0 0EF81490#00
(1438651195.561088) can0 12F84010#40
(1438651195.566505) can0 12F96D50#04000000
(1438651195.581048) can0 12F84110#80
(1438651195.581968) can0 12F84210#80
(1438651195.584444) can0 12F89090#00010004
(1438651195.597094) can0 12F96050#00000000410A00
(1438651195.611011) can0 0EF81510#02
(1438651195.631055) can0 12F83410#20
(1438651195.631997) can0 12F84310#00
(1438651195.634259) can0 0EF82390#0002
(1438651195.636684) can0 12F97450#8040
(1438651195.637821) can0 12F95F50#8284860000000000
(1438651195.640998) can0 12F87810#00
(1438651195.646571) can0 12F85050#000322200008
(1438651195.647691) can0 0EF86350#0000000055550650
(1438651195.648449) can0 12F97150#E0FF0D
(1438651195.649099) can0 12F97C50#18
(1438651195.661093) can0 12F83010#80
(1438651195.674489) can0 0EF88190#00
(1438651195.697245) can0 12F96050#00000000410A00
(1438651195.726874) can0 0EF91250#0000000000000008
(1438651195.731007) can0 0EF82010#00
(1438651195.736582) can0 12F97450#8000
(1438651195.746573) can0 12F85050#00032D200008
(1438651195.747317) can0 12F97150#E0FF0D
(1438651195.748435) can0 0EF86350#000000005555094D
(1438651195.750583) can0 0EF87372#DC35
(1438651195.753895) can0 1610FF90#
(1438651195.766511) can0 12F96D50#04000000
(1438651195.771018) can0 12F82C10#20
(1438651195.772014) can0 12F83210#08
(1438651195.781589) can0 0AF81110#52C000000000
(1438651195.783324) can0 0AF87110#00FF00
(1438651195.797192) can0 12F85450#D536000000160000
(1438651195.798212) can0 12F96050#00000000410A00
(1438651195.811120) can0 0AF87010#1024
(1438651195.816839) can0 12F85150#1001000060
(1438651195.826885) can0 12F86150#00001000000000FC
(1438651195.831015) can0 12F83110#08
(1438651195.836633) can0 12F97450#8040
(1438651195.837267) can0 12F85C50#00
(1438651195.838403) can0 16F86250#0000000010000000
(1438651195.839073) can0 0AF97950#00
(1438651195.839894) can0 12F95A50#00000000
(1438651195.841327) can0 12F81010#3800808000
(1438651195.846644) can0 12F85050#000328200008
(1438651195.847404) can0 12F97150#E0FF0D
(1438651195.848125) can0 12F97350#0000
(1438651195.848756) can0 12F97650#04
(1438651195.849894) can0 0EF86350#0000000055550B4B
(1438651195.850524) can0 12F88090#00
(1438651195.854250) can0 0EF81490#00
(1438651195.861019) can0 12F84010#40
(1438651195.881032) can0 12F84110#80
(1438651195.882025) can0 12F84210#80
(1438651195.884610) can0 12F89090#00010004
(1438651195.896767) can0 12F96050#00000000410A00
(1438651195.911076) can0 0EF81510#02
(1438651195.926878) can0 0EF91250#0000000000000008
(1438651195.931014) can0 12F83410#20
(1438651195.931996) can0 12F84310#00
(1438651195.934245) can0 0EF82390#0002
(1438651195.936849) can0 12F97450#8000
(1438651195.941010) can0 12F87810#00
(1438651195.946651) can0 12F85050#000320200008
(1438651195.947454) can0 12F97150#E0FF0D
(1438651195.948531) can0 0EF86350#0000000055550E48
(1438651195.961033) can0 12F83010#80
(1438651195.966520) can0 12F96D50#04000000
(1438651195.974165) can0 0EF88190#00
(1438651195.997035) can0 12F96050#00000000410A00
(1438651196.000391) can0 1610FF72#
(1438651196.031092) can0 0EF82010#00
(1438651196.036656) can0 12F97450#8000
(1438651196.046733) can0 12F85050#000327200008
(1438651196.047473) can0 12F97150#E0FF0D
(1438651196.048610) can0 0EF86350#0000000055551046
(1438651196.050271) can0 0EF87372#DC35
(1438651196.071046) can0 12F82C10#20
(1438651196.072025) can0 12F83210#08
(1438651196.081408) can0 0AF81110#52C000000000
(1438651196.083148) can0 0AF87110#00FF00
(1438651196.097103) can0 12F85450#D536000000160000
(1438651196.098130) can0 12F96050#00000000410A00
(1438651196.111175) can0 0AF87010#1024
(1438651196.116843) can0 12F85150#1001000060
(1438651196.127036) can0 0EF91250#0000000000000008
(1438651196.128162) can0 12F86150#00001000000000FC
(1438651196.131023) can0 12F83110#08
(1438651196.136644) can0 12F97450#8000
(1438651196.137266) can0 12F85C50#00
(1438651196.138416) can0 12F95F50#8284860000000000
(1438651196.139756) can0 16F86250#01334847474B3500
(1438651196.140154) can0 0AF97950#00
(1438651196.141012) can0 12F95A50#00000000
(1438651196.141970) can0 12F81010#3800808000
(1438651196.146661) can0 12F85050#000326200008
(1438651196.147415) can0 12F97150#E0FF0D
(1438651196.148139) can0 12F97350#0000
(1438651196.148760) can0 12F97C50#18
(1438651196.149906) can0 0EF86350#0000000055551343
(1438651196.150537) can0 12F88090#00
(1438651196.154147) can0 12F82290#80
(1438651196.154849) can0 0EF81490#00
(1438651196.161045) can0 12F84010#40
(1438651196.166431) can0 12F96D50#04000000
(1438651196.170984) can0 1610FF10#
(1438651196.181041) can0 12F84110#80
(1438651196.182023) can0 12F84210#80
(1438651196.184495) can0 12F89090#00010004
(1438651196.188542) can0 1610FF54#
(1438651196.196989) can0 12F96050#00000000410A00
(1438651196.211048) can0 0EF81510#02
(1438651196.231059) can0 12F83410#20
(1438651196.232044) can0 12F84310#00
(1438651196.234533) can0 0EF82390#0002
(1438651196.236673) can0 12F97450#8000
(1438651196.241038) can0 12F87810#00
(1438651196.246605) can0 12F85050#000317200008
(1438651196.247308) can0 12F97150#E0FF0D
(1438651196.248434) can0 0EF86350#0000000055551541
(1438651196.261055) can0 12F83010#80
(1438651196.274280) can0 0EF88190#00
(1438651196.296676) can0 16F97D54#A22518199F923821
(1438651196.297666) can0 12F96050#00000000410A00
(1438651196.326695) can0 0EF91250#0000000000000008
(1438651196.331049) can0 0EF82010#00
(1438651196.336446) can0 12F97450#8040
(1438651196.346667) can0 12F85050#00030F200008
(1438651196.347622) can0 12F97150#E0FF0D
(1438651196.348633) can0 0EF86350#000000005555183E
(1438651196.349945) can0 0EF87372#DC35
(1438651196.366565) can0 12F96D50#04000000
(1438651196.371050) can0 12F82C10#20
(1438651196.372033) can0 12F83210#08
(1438651196.381426) can0 0AF81110#52C000000000
(1438651196.383167) can0 0AF87110#00FF00
(1438651196.397183) can0 12F85450#D536000000160000
(1438651196.398263) can0 12F96050#00000000410A00
(1438651196.411179) can0 0AF87010#1024
(1438651196.416938) can0 12F85150#1001000060
(1438651196.421164) can0 1610FF50#
(1438651196.426689) can0 12F86150#00001000000000FC
(1438651196.431029) can0 12F83110#08
(1438651196.436561) can0 12F97450#8000
(1438651196.437197) can0 12F85C50#00
(1438651196.438297) can0 16F86250#02483839464D3700
(1438651196.438939) can0 0AF97950#00
(1438651196.439803) can0 12F95A50#00000000
(1438651196.441309) can0 12F81010#3800808000
(1438651196.446543) can0 12F85050#000303200008
(1438651196.447291) can0 12F97150#E0FF0D
(1438651196.448018) can0 12F97350#0000
(1438651196.449130) can0 0EF86350#0000000055551A3C
(1438651196.450074) can0 12F88090#00
(1438651196.454563) can0 0EF81490#00
(1438651196.461068) can0 12F84010#40
(1438651196.481078) can0 12F84110#80
(1438651196.482037) can0 12F84210#80
(1438651196.484521) can0 12F89090#00010004
(1438651196.496948) can0 12F96050#00000000410A00
(1438651196.511065) can0 0EF81510#02
(1438651196.526878) can0 0EF91250#0000000000000008
(1438651196.531055) can0 12F83410#20
(1438651196.532031) can0 12F84310#00
(1438651196.534309) can0 0EF82390#0002
(1438651196.536675) can0 12F97450#8040
(1438651196.541040) can0 12F87810#00
(1438651196.546637) can0 12F85050#00030B200008
(1438651196.547706) can0 0EF86350#0000000055551D39
(1438651196.548513) can0 12F97150#E0FF0D
(1438651196.549448) can0 12F85250#7F0038A8
(1438651196.561068) can0 12F83010#80
(1438651196.566653) can0 12F96D50#04000000
(1438651196.574521) can0 0EF88190#00
(1438651196.597141) can0 12F96050#00000000410A00
(1438651196.631094) can0 0EF82010#00
(1438651196.636703) can0 12F97450#8040
(1438651196.637831) can0 12F95F50#8284860000000000
(1438651196.646472) can0 12F85050#000318200008
(1438651196.647212) can0 12F97150#E0FF0D
(1438651196.647848) can0 12F97C50#18
(1438651196.649013) can0 0EF86350#0000000055551F37
(1438651196.649949) can0 0EF87372#DC35
(1438651196.671066) can0 12F82C10#20
(1438651196.672023) can0 12F83210#08
(1438651196.681645) can0 0AF81110#52C000000000
(1438651196.683226) can0 0AF87110#00FF00
(1438651196.697016) can0 12F85450#D536000000160000
(1438651196.698058) can0 12F96050#00000000410A00
(1438651196.711099) can0 0AF87010#1024
(1438651196.716894) can0 12F85150#1001000060
(1438651196.726900) can0 0EF91250#0000000000000008
(1438651196.728045) can0 12F86150#00001000000000FC
(1438651196.731041) can0 12F83110#08
(1438651196.736542) can0 12F97450#8000
(1438651196.737184) can0 12F85C50#00
(1438651196.738320) can0 16F86250#0333333134300000
(1438651196.738935) can0 0AF97950#00
(1438651196.739802) can0 12F95A50#00000000
(1438651196.741321) can0 12F81010#3800808000
(1438651196.746682) can0 12F85050#000321200008
(1438651196.747439) can0 12F97150#E0FF0D
(1438651196.748555) can0 0EF86350#0000000055552234
(1438651196.749191) can0 12F88090#00
(1438651196.749944) can0 12F97350#0000
(1438651196.752025) can0 1610FF90#
(1438651196.754280) can0 0EF81490#00
(1438651196.761061) can0 12F84010#40
(1438651196.766586) can0 12F96D50#04000000
(1438651196.781064) can0 12F84110#80
(1438651196.782022) can0 12F84210#80
(1438651196.784456) can0 12F89090#00010004
(1438651196.796975) can0 12F96050#00000000410A00
(1438651196.811080) can0 0EF81510#02
(1438651196.831079) can0 12F83410#20
(1438651196.832052) can0 12F84310#00
(1438651196.834303) can0 0EF82390#0002
(1438651196.836594) can0 12F97450#8000
(1438651196.841050) can0 12F87810#00
(1438651196.846591) can0 12F85050#000324200008
(1438651196.847351) can0 12F97150#E0FF0D
(1438651196.847977) can0 12F97650#04
(1438651196.849097) can0 0EF86350#0000000055552432
(1438651196.861055) can0 12F83010#80
(1438651196.874229) can0 0EF88190#00
(1438651196.896983) can0 12F96050#00000000410A00
(1438651196.926920) can0 0EF91250#0000000000000008
(1438651196.931059) can0 0EF82010#00
(1438651196.936696) can0 12F97450#8000
(1438651196.946600) can0 12F85050#000327200008
(1438651196.947342) can0 12F97150#E0FF0D
(1438651196.948470) can0 0EF86350#000000005555272F
(1438651196.949472) can0 0EF87372#DC35
(1438651196.966666) can0 12F96D50#04000000
(1438651196.971060) can0 12F82C10#20
(1438651196.972042) can0 12F83210#08
(1438651196.981438) can0 0AF81110#52C000000000
(1438651196.983186) can0 0AF87110#00FF00
(1438651196.996938) can0 12F85450#D536000000160000
(1438651196.997976) can0 12F96050#00000000410A00
(1438651196.999063) can0 1610FF72#
(1438651197.011118) can0 0AF87010#1024
(1438651197.016852) can0 12F85150#1001000060
(1438651197.026710) can0 12F86150#00001000000000FC
(1438651197.031061) can0 12F83110#08
(1438651197.036739) can0 12F97450#8000
(1438651197.037374) can0 12F85C50#00
(1438651197.038497) can0 16F86250#0431144003050000
(1438651197.039125) can0 0AF97950#00
(1438651197.039973) can0 12F95A50#00000000
(1438651197.041336) can0 12F81010#3800808000
(1438651197.046373) can0 12F85050#000318200008
(1438651197.047132) can0 12F97150#E0FF0D
(1438651197.047841) can0 12F97350#0000
(1438651197.048968) can0 0EF86350#000000005555292D
(1438651197.049674) can0 12F88090#00
(1438651197.054242) can0 0EF81490#00
(1438651197.061069) can0 12F84010#40
(1438651197.081071) can0 12F84110#80
(1438651197.082010) can0 12F84210#80
(1438651197.084479) can0 12F89090#00010004
(1438651197.096887) can0 12F96050#00000000410A00
(1438651197.111074) can0 0EF81510#02
(1438651197.126750) can0 0EF91250#0000000000000008
(1438651197.131077) can0 12F83410#20
(1438651197.132056) can0 12F84310#00
(1438651197.134577) can0 0EF82390#0002
(1438651197.136640) can0 12F97450#8000
(1438651197.137702) can0 12F96750#B2270F890000
(1438651197.138761) can0 12F95F50#8284860000000000
(1438651197.141080) can0 12F87810#00
(1438651197.146517) can0 12F85050#00031B200008
(1438651197.147265) can0 12F97150#E0FF0D
(1438651197.147940) can0 12F97C50#18
(1438651197.149067) can0 0EF86350#0000000055552C2A
(1438651197.154200) can0 12F82290#80
(1438651197.161078) can0 12F83010#80
(1438651197.166375) can0 12F96D50#04000000
(1438651197.171058) can0 1610FF10#
(1438651197.174205) can0 0EF88190#00
(1438651197.189106) can0 1610FF54#
(1438651197.196864) can0 12F96050#00000000410A00
(1438651197.231083) can0 0EF82010#00
(1438651197.236504) can0 12F97450#8000
(1438651197.246710) can0 12F85050#000311200008
(1438651197.247587) can0 12F97150#E0FF0D
(1438651197.248642) can0 0EF86350#0000000055552E28
(1438651197.249138) can0 0EF87372#DC35
(1438651197.271099) can0 12F82C10#20
(1438651197.272025) can0 12F83210#08
(1438651197.281453) can0 0AF81110#52C000000000
(1438651197.283152) can0 0AF87110#00FF00
(1438651197.296762) can0 16F97D54#A22518199F9238A1
(1438651197.297861) can0 12F85450#D536000000160000
(1438651197.298950) can0 12F96050#00000000410A00
(1438651197.311131) can0 0AF87010#1024
(1438651197.316895) can0 12F85150#1001000060
(1438651197.326829) can0 0EF91250#0000000000000008
(1438651197.327966) can0 12F86150#00001000000000FC
(1438651197.331022) can0 12F83110#08
(1438651197.336489) can0 12F97450#8000
(1438651197.337116) can0 12F85C50#00
(1438651197.338326) can0 16F86250#0500000000000000
(1438651197.338898) can0 0AF97950#00
(1438651197.339782) can0 12F95A50#00000000
(1438651197.341357) can0 12F81010#3800808000
(1438651197.346514) can0 12F85050#000315200008
(1438651197.347273) can0 12F97150#E0FF0D
(1438651197.348396) can0 0EF86350#0000000055553125
(1438651197.349113) can0 12F97350#0000
(1438651197.349763) can0 12F88090#00
(1438651197.354241) can0 0EF81490#00
(1438651197.361098) can0 12F84010#40
(1438651197.366656) can0 12F96D50#04000000
(1438651197.381096) can0 12F84110#80
(1438651197.382022) can0 12F84210#80
(1438651197.384471) can0 12F89090#00010004
(1438651197.396966) can0 12F96050#00000000410A00
(1438651197.411366) can0 0EF81510#02
(1438651197.426379) can0 1610FF50#
(1438651197.431039) can0 12F83410#20
(1438651197.432029) can0 12F84310#00
(1438651197.434264) can0 0EF82390#0002
(1438651197.436586) can0 12F97450#8000
(1438651197.441039) can0 12F87810#00
(1438651197.446480) can0 12F85050#000319200008
(1438651197.447242) can0 12F97150#E0FF0D
(1438651197.448374) can0 0EF86350#0000000055553323
(1438651197.461081) can0 12F83010#80
(1438651197.474273) can0 0EF88190#00
(1438651197.497104) can0 12F96050#00000000410A00
(1438651197.526758) can0 0EF91250#0000000000000008
(1438651197.531044) can0 0EF82010#00
(1438651197.536594) can0 12F97450#8040
(1438651197.546635) can0 12F85050#00031A200008
(1438651197.547732) can0 0EF86350#0000000055553620
(1438651197.548497) can0 12F97150#E0FF0D
(1438651197.549155) can0 0EF87372#DC35
(1438651197.550033) can0 12F85250#7F0038A8
(1438651197.566488) can0 12F96D50#04000000
(1438651197.571041) can0 12F82C10#20
(1438651197.572012) can0 12F83210#08
(1438651197.581660) can0 0AF81110#52C000000000
(1438651197.583164) can0 0AF87110#00FF00
(1438651197.597135) can0 12F85450#D536000000160000
(1438651197.598148) can0 12F96050#00000000410A00
(1438651197.611159) can0 0AF87010#1024
(1438651197.616789) can0 12F85150#1001000060
(1438651197.626728) can0 12F86150#00001000000000FC
(1438651197.631044) can0 12F83110#08
(1438651197.636656) can0 12F97450#8000
(1438651197.637293) can0 12F85C50#00
(1438651197.638411) can0 12F95F50#8284860000000000
(1438651197.639640) can0 16F86250#0600000000000000
(1438651197.640229) can0 0AF97950#00
(1438651197.641051) can0 12F95A50#00000000
(1438651197.642017) can0 12F81010#3800808000
(1438651197.646639) can0 12F85050#00031F200008
(1438651197.647386) can0 12F97150#E0FF0D
(1438651197.648113) can0 12F97350#0000
(1438651197.648744) can0 12F97C50#18
(1438651197.649904) can0 0EF86350#000000005555381E
(1438651197.650531) can0 12F88090#00
(1438651197.654238) can0 0EF81490#00
(1438651197.661052) can0 12F84010#40
(1438651197.681103) can0 12F84110#80
(1438651197.682031) can0 12F84210#80
(1438651197.684413) can0 12F89090#00010004
(1438651197.696910) can0 12F96050#00000000410A00
(1438651197.711115) can0 0EF81510#02
(1438651197.726749) can0 0EF91250#0000000000000008
(1438651197.731048) can0 12F83410#20
(1438651197.732024) can0 12F84310#00
(1438651197.734251) can0 0EF82390#0002
(1438651197.736615) can0 12F97450#8000
(1438651197.741040) can0 12F87810#00
(1438651197.746868) can0 12F85050#000326200008
(1438651197.747740) can0 12F97150#E0FF0D
(1438651197.748495) can0 0EF86350#0000000055553B1B
(1438651197.752494) can0 1610FF90#
(1438651197.761108) can0 12F83010#80
(1438651197.766299) can0 12F96D50#04000000
(1438651197.774178) can0 0EF88190#00
(1438651197.797007) can0 12F96050#00000000410A00
(1438651197.831123) can0 0EF82010#00
(1438651197.836658) can0 12F97450#8000
(1438651197.846636) can0 12F85050#00031F200008
(1438651197.847284) can0 12F97150#E0FF0D
(1438651197.848194) can0 12F97650#04
(1438651197.849011) can0 0EF86350#0000000055553D19
(1438651197.849695) can0 0EF87372#DC35
(1438651197.871071) can0 12F82C10#20
(1438651197.872052) can0 12F83210#08
(1438651197.881439) can0 0AF81110#52C000000000
(1438651197.883176) can0 0AF87110#00FF00
(1438651197.897014) can0 12F85450#D536000000160000
(1438651197.898031) can0 12F96050#00000000410A00
(1438651197.911141) can0 0AF87010#1024
(1438651197.916696) can0 12F85150#1001000060
(1438651197.926690) can0 0EF91250#0000000000000008
(1438651197.927793) can0 12F86150#00001000000000FC
(1438651197.931067) can0 12F83110#08
(1438651197.936573) can0 12F97450#8000
(1438651197.937200) can0 12F85C50#00
(1438651197.938392) can0 16F86250#0700000000000000
(1438651197.939035) can0 0AF97950#00
(1438651197.940134) can0 12F95A50#00000000
(1438651197.941646) can0 12F81010#3800808000
(1438651197.946754) can0 12F85050#000321200008
(1438651197.947516) can0 12F97150#E0FF0D
(1438651197.948042) can0 12F97350#0000
(1438651197.949181) can0 0EF86350#0000000055554016
(1438651197.950041) can0 12F88090#00
(1438651197.954309) can0 0EF81490#00
(1438651197.961077) can0 12F84010#40
(1438651197.966446) can0 12F96D50#04000000
(1438651197.981077) can0 12F84110#80
(1438651197.982057) can0 12F84210#80
(1438651197.984439) can0 12F89090#00010004
(1438651197.997015) can0 12F96050#00000000410A00
(1438651197.998022) can0 1610FF72#
(1438651198.011082) can0 0EF81510#02
(1438651198.031079) can0 12F83410#20
(1438651198.032061) can0 12F84310#00
(1438651198.034267) can0 0EF82390#0002
(1438651198.036653) can0 12F97450#8000
(1438651198.041073) can0 12F87810#00
(1438651198.046575) can0 12F85050#000318200008
(1438651198.047334) can0 12F97150#E0FF0D
(1438651198.048459) can0 0EF86350#0000000055554214
(1438651198.061137) can0 12F83010#80
(1438651198.074196) can0 0EF88190#00
(1438651198.096887) can0 12F96050#00000000410A00
(1438651198.127017) can0 0EF91250#0000000000000008
(1438651198.131086) can0 0EF82010#00
(1438651198.136582) can0 12F97450#8000
(1438651198.137763) can0 12F95F50#8284860000000000
(1438651198.146536) can0 12F85050#000318200008
(1438651198.147286) can0 12F97150#E0FF0D
(1438651198.147914) can0 12F97C50#18
(1438651198.149037) can0 0EF86350#0000000055554511
(1438651198.149712) can0 0EF87372#DC35
(1438651198.154155) can0 12F82290#80
(1438651198.166288) can0 12F96D50#04000000
(1438651198.171100) can0 12F82C10#20
(1438651198.172080) can0 12F83210#08
(1438651198.173030) can0 1610FF10#
(1438651198.181700) can0 0AF81110#52C000000000
(1438651198.183218) can0 0AF87110#00FF00
(1438651198.189685) can0 1610FF54#
(1438651198.197064) can0 12F85450#D536000000160000
(1438651198.198151) can0 12F96050#00000000410A00
(1438651198.211158) can0 0AF87010#1024
(1438651198.216603) can0 12F85150#1001000060
(1438651198.226719) can0 12F86150#00001000000000FC
(1438651198.231072) can0 12F83110#08
(1438651198.236778) can0 12F97450#8040
(1438651198.237404) can0 12F85C50#00
(1438651198.238598) can0 16F86250#0800000000000000
(1438651198.239220) can0 0AF97950#00
(1438651198.240063) can0 12F95A50#00000000
(1438651198.241351) can0 12F81010#3800808000
(1438651198.246604) can0 12F85050#00031F200008
(1438651198.247401) can0 12F97150#E0FF0D
(1438651198.248078) can0 12F97350#0000
(1438651198.249213) can0 0EF86350#000000005555470F
(1438651198.249919) can0 12F88090#00
(1438651198.254227) can0 0EF81490#00
(1438651198.261093) can0 12F84010#40
(1438651198.281103) can0 12F84110#80
(1438651198.282085) can0 12F84210#80
(1438651198.284725) can0 12F89090#00010004
(1438651198.296726) can0 16F97D54#A22518199F923921
(1438651198.297784) can0 12F96050#00000000410A00
(1438651198.311114) can0 0EF81510#02
(1438651198.326800) can0 0EF91250#0000000000000008
(1438651198.331092) can0 12F83410#20
(1438651198.332051) can0 12F84310#00
(1438651198.334228) can0 0EF82390#0002
(1438651198.336473) can0 12F97450#8040
(1438651198.341084) can0 12F87810#00
(1438651198.346457) can0 12F85050#000327200008
(1438651198.347221) can0 12F97150#E0FF0D
(1438651198.348351) can0 0EF86350#0000000055554A0C
(1438651198.361104) can0 12F83010#80
(1438651198.366459) can0 12F96D50#04000000
(1438651198.374207) can0 0EF88190#00
(1438651198.397085) can0 12F96050#00000000410A00
(1438651198.431174) can0 0EF82010#00
(1438651198.431669) can0 1610FF50#
(1438651198.436624) can0 12F97450#8040
(1438651198.446614) can0 12F85050#00031C200008
(1438651198.447334) can0 12F97150#E0FF0D
(1438651198.448468) can0 0EF86350#0000000055554C0A
(1438651198.449193) can0 0EF87372#DC35
(1438651198.471115) can0 12F82C10#20
(1438651198.472064) can0 12F83210#08
(1438651198.481484) can0 0AF81110#52C000000000
(1438651198.483220) can0 0AF87110#00FF00
(1438651198.496868) can0 12F85450#D536000000160000
(1438651198.497931) can0 12F96050#00000000410A00
(1438651198.511178) can0 0AF87010#1024
(1438651198.516936) can0 12F85150#1001000060
(1438651198.526685) can0 0EF91250#0000000000000008
(1438651198.527818) can0 12F86150#00001000000000FC
(1438651198.531081) can0 12F83110#08
(1438651198.536570) can0 12F97450#8000
(1438651198.537205) can0 12F85C50#00
(1438651198.538339) can0 16F86250#0900000000000000
(1438651198.538973) can0 0AF97950#00
(1438651198.539857) can0 12F95A50#00000000
(1438651198.541360) can0 12F81010#3800808000
(1438651198.546569) can0 12F85050#00031A200008
(1438651198.547693) can0 0EF86350#0000000055554F07
(1438651198.548467) can0 12F97150#E0FF0D
(1438651198.549379) can0 12F85250#7F0038A8
(1438651198.549990) can0 12F88090#00
(1438651198.550679) can0 12F97350#0000
(1438651198.554235) can0 0EF81490#00
(1438651198.561104) can0 12F84010#40
(1438651198.566362) can0 12F96D50#04000000
(1438651198.581107) can0 12F84110#80
(1438651198.582064) can0 12F84210#80
(1438651198.584470) can0 12F89090#00010004
(1438651198.596993) can0 12F96050#00000000410A00
(1438651198.611114) can0 0EF81510#02
(1438651198.631120) can0 12F83410#20
(1438651198.632103) can0 12F84310#00
(1438651198.634345) can0 0EF82390#0002
(1438651198.636829) can0 12F97450#8000
(1438651198.637855) can0 12F95F50#8284860000000000
(1438651198.641086) can0 12F87810#00
(1438651198.646369) can0 12F85050#000317200008
(1438651198.647127) can0 12F97150#E0FF0D
(1438651198.647763) can0 12F97C50#18
(1438651198.648885) can0 0EF86350#0000000055555105
(1438651198.661111) can0 12F83010#80
(1438651198.674184) can0 0EF88190#00
(1438651198.697187) can0 12F96050#00000000410A00
(1438651198.726690) can0 0EF91250#0000000000000008
(1438651198.731106) can0 0EF82010#00
(1438651198.736494) can0 12F97450#8000
(1438651198.746765) can0 12F85050#000316200008
(1438651198.747248) can0 12F97150#E0FF0D
(1438651198.748512) can0 0EF86350#0000000055555402
(1438651198.749070) can0 0EF87372#DC35
(1438651198.752763) can0 1610FF90#
(1438651198.766356) can0 12F96D50#04000000
(1438651198.771104) can0 12F82C10#20
(1438651198.772087) can0 12F83210#08
(1438651198.781479) can0 0AF81110#52C000000000
(1438651198.783224) can0 0AF87110#00FF00
(1438651198.797014) can0 12F85450#D536000000160000
(1438651198.798090) can0 12F96050#00000000410A00
(1438651198.811145) can0 0AF87010#1024
(1438651198.816906) can0 12F85150#1001000060
(1438651198.826595) can0 12F86150#00001000000000FC
(1438651198.831093) can0 12F83110#08
(1438651198.836821) can0 12F97450#8000
(1438651198.837400) can0 12F85C50#00
(1438651198.838587) can0 16F86250#0A00000000808000
(1438651198.839199) can0 0AF97950#00
(1438651198.840014) can0 12F95A50#00000000
(1438651198.841368) can0 12F81010#3800808000
(1438651198.846469) can0 12F85050#00031D200008
(1438651198.847235) can0 12F97150#E0FF0D
(1438651198.847904) can0 12F97350#0000
(1438651198.848573) can0 12F97650#04
(1438651198.850092) can0 0EF86350#0000000055555600
(1438651198.850775) can0 12F88090#00
(1438651198.854278) can0 0EF81490#00
(1438651198.861121) can0 12F84010#40
(1438651198.881139) can0 12F84110#80
(1438651198.882096) can0 12F84210#80
(1438651198.884497) can0 12F89090#00010004
(1438651198.896977) can0 12F96050#00000000410A00
(1438651198.911126) can0 0EF81510#02
(1438651198.926756) can0 0EF91250#0000000000000008
(1438651198.931103) can0 12F83410#20
(1438651198.932082) can0 12F84310#00
(1438651198.934289) can0 0EF82390#0002
(1438651198.936630) can0 12F97450#8000
(1438651198.941099) can0 12F87810#00
(1438651198.946413) can0 12F85050#00031D200008
(1438651198.947209) can0 12F97150#E0FF0D
(1438651198.948332) can0 0EF86350#00000000555559FD
(1438651198.961130) can0 12F83010#80
(1438651198.966267) can0 12F96D50#04000000
(1438651198.974252) can0 0EF88190#00
(1438651198.997047) can0 12F96050#00000000410A00
(1438651198.997523) can0 1610FF72#
(1438651199.031124) can0 0EF82010#00
(1438651199.036614) can0 12F97450#8000
(1438651199.046411) can0 12F85050#00031A200008
(1438651199.047509) can0 0EF86350#0000000055555BFB
(1438651199.048163) can0 0EF87372#DC35
(1438651199.048926) can0 12F97150#E0FF0D
(1438651199.071132) can0 12F82C10#20
(1438651199.072045) can0 12F83210#08
(1438651199.081754) can0 0AF81110#52C000000000
(1438651199.083260) can0 0AF87110#00FF00
(1438651199.097043) can0 12F85450#D536000000160000
(1438651199.098097) can0 12F96050#00000000410A00
(1438651199.111182) can0 0AF87010#1024
(1438651199.116915) can0 12F85150#1001000060
(1438651199.126552) can0 0EF91250#0000000000000008
(1438651199.127733) can0 12F86150#00001000000000FC
(1438651199.131057) can0 12F83110#08
(1438651199.136600) can0 12F97450#8000
(1438651199.137236) can0 12F85C50#00
(1438651199.138372) can0 12F95F50#8284860000000000
(1438651199.139682) can0 16F86250#0B00000000000000
(1438651199.140400) can0 12F95A50#00000000
(1438651199.141029) can0 0AF97950#00
(1438651199.141989) can0 12F81010#3800808000
(1438651199.146291) can0 12F85050#00031C200008
(1438651199.147054) can0 12F97150#E0FF0D
(1438651199.147778) can0 12F97350#0000
(1438651199.148399) can0 12F97C50#18
(1438651199.149614) can0 0EF86350#0000000055555EF8
(1438651199.150179) can0 12F88090#00
(1438651199.154147) can0 12F82290#80
(1438651199.154852) can0 0EF81490#00
(1438651199.161117) can0 12F84010#40
(1438651199.166226) can0 12F96D50#04000000
(1438651199.171045) can0 1610FF10#
(1438651199.181116) can0 12F84110#80
(1438651199.182046) can0 12F84210#80
(1438651199.184419) can0 12F89090#00010004
(1438651199.190257) can0 1610FF54#
(1438651199.196853) can0 12F96050#00000000410A00
(1438651199.211145) can0 0EF81510#02
(1438651199.231127) can0 12F83410#20
(1438651199.232106) can0 12F84310#00
(1438651199.234277) can0 0EF82390#0002
(1438651199.236413) can0 12F97450#8000
(1438651199.241121) can0 12F87810#00
(1438651199.246408) can0 12F85050#000321200008
(1438651199.247151) can0 12F97150#E0FF0D
(1438651199.248281) can0 0EF86350#00000000555560F6
(1438651199.261137) can0 12F83010#80
(1438651199.274188) can0 0EF88190#00
(1438651199.296646) can0 16F97D54#A22518199F9239A1
(1438651199.297652) can0 12F96050#00000000410A00
(1438651199.326700) can0 0EF91250#0000000000000008
(1438651199.331121) can0 0EF82010#00
(1438651199.336542) can0 12F97450#8000
(1438651199.346318) can0 12F85050#00031D200008
(1438651199.347016) can0 0EF87372#DC35
(1438651199.347785) can0 12F97150#E0FF0D
(1438651199.348906) can0 0EF86350#00000000555563F3
(1438651199.366368) can0 12F96D50#04000000
(1438651199.371124) can0 12F82C10#20
(1438651199.372067) can0 12F83210#08
(1438651199.381496) can0 0AF81110#52C000000000
(1438651199.383243) can0 0AF87110#00FF00
(1438651199.396881) can0 12F85450#D536000000160000
(1438651199.397917) can0 12F96050#00000000410A00
(1438651199.411523) can0 0AF87010#1024
(1438651199.416621) can0 12F85150#1001000060
(1438651199.426822) can0 12F86150#00001000000000FC
(1438651199.431133) can0 12F83110#08
(1438651199.435635) can0 1610FF50#
(1438651199.436830) can0 12F97450#8000
(1438651199.437319) can0 12F85C50#00
(1438651199.438421) can0 16F86250#0C00000000000000
(1438651199.439046) can0 0AF97950#00
(1438651199.439893) can0 12F95A50#00000000
(1438651199.441411) can0 12F81010#3800808000
(1438651199.446501) can0 12F85050#00031A200008
(1438651199.447258) can0 12F97150#E0FF0D
(1438651199.447927) can0 12F97350#0000
(1438651199.449057) can0 0EF86350#00000000555565F1
(1438651199.449698) can0 12F88090#00
(1438651199.454199) can0 0EF81490#00
(1438651199.461131) can0 12F84010#40
(1438651199.481139) can0 12F84110#80
(1438651199.482071) can0 12F84210#80
(1438651199.484440) can0 12F89090#00010004
(1438651199.496953) can0 12F96050#00000000410A00
(1438651199.511142) can0 0EF81510#02
(1438651199.526582) can0 0EF91250#0000000000000008
(1438651199.531092) can0 12F83410#20
(1438651199.532070) can0 12F84310#00
(1438651199.534283) can0 0EF82390#0002
(1438651199.536765) can0 12F97450#8000
(1438651199.541145) can0 12F87810#00
(1438651199.546511) can0 12F85050#00031A200008
(1438651199.547583) can0 0EF86350#00000000555568EE
(1438651199.548343) can0 12F97150#E0FF0D
(1438651199.549195) can0 12F85250#7F0038A8
(1438651199.561134) can0 12F83010#80
(1438651199.566327) can0 12F96D50#04000000
(1438651199.574196) can0 0EF88190#00
(1438651199.596933) can0 12F96050#00000000410A00
(1438651199.631153) can0 0EF82010#00
(1438651199.636563) can0 12F97450#8040
(1438651199.637685) can0 12F95F50#8284860000000000
(1438651199.646721) can0 12F85050#000313200008
(1438651199.647219) can0 0EF87372#DC35
(1438651199.647903) can0 12F97150#E0FF0D
(1438651199.648838) can0 12F97C50#18
(1438651199.649900) can0 0EF86350#0000000055556AEC
(1438651199.671159) can0 12F82C10#20
(1438651199.672091) can0 12F83210#08
(1438651199.681524) can0 0AF81110#52C000000000
(1438651199.683218) can0 0AF87110#00FF00
(1438651199.696793) can0 12F85450#D536000000160000
(1438651199.697824) can0 12F96050#00000000410A00
(1438651199.711193) can0 0AF87010#1024
(1438651199.716585) can0 12F85150#1001000060
(1438651199.726471) can0 0EF91250#0000000000000008
(1438651199.727647) can0 12F86150#00001000000000FC
(1438651199.731092) can0 12F83110#08
(1438651199.736322) can0 12F97450#8000
(1438651199.736955) can0 12F85C50#00
(1438651199.738154) can0 16F86250#0D00000000000000
(1438651199.738792) can0 0AF97950#00
(1438651199.739705) can0 12F95A50#00000000
(1438651199.741418) can0 12F81010#3800808000
(1438651199.746335) can0 12F85050#00031C200008
(1438651199.747097) can0 12F97150#E0FF0D
(1438651199.747819) can0 12F97350#0000
(1438651199.748942) can0 0EF86350#0000000055556DE9
(1438651199.749596) can0 12F88090#00
(1438651199.753171) can0 1610FF90#
(1438651199.754191) can0 0EF81490#00
(1438651199.761168) can0 12F84010#40
(1438651199.766221) can0 12F96D50#04000000
(1438651199.781152) can0 12F84110#80
(1438651199.782086) can0 12F84210#80
(1438651199.784464) can0 12F89090#00010004
(1438651199.796852) can0 12F96050#00000000410A00
(1438651199.811107) can0 0EF81510#02
(1438651199.831158) can0 12F83410#20
(1438651199.832092) can0 12F84310#00
(1438651199.834228) can0 0EF82390#0002
(1438651199.836464) can0 12F97450#8040
(1438651199.841104) can0 12F87810#00
(1438651199.846349) can0 12F85050#00030F200008
(1438651199.847105) can0 12F97150#E0FF0D
(1438651199.847737) can0 12F97650#04
(1438651199.848865) can0 0EF86350#0000000055556FE7
(1438651199.861114) can0 12F83010#80
(1438651199.874184) can0 0EF88190#00
(1438651199.896843) can0 12F96050#00000000410A00
(1438651199.926626) can0 0EF91250#0000000000000008
(1438651199.931113) can0 0EF82010#00
(1438651199.936468) can0 12F97450#8000
(1438651199.946115) can0 0EF87372#DC35
(1438651199.947096) can0 12F85050#000317200008
(1438651199.947861) can0 12F97150#E0FF0D
(1438651199.948977) can0 0EF86350#00000000555572E4
(1438651199.966352) can0 12F96D50#04000000
(1438651199.971116) can0 12F82C10#20
(1438651199.972082) can0 12F83210#08
(1438651199.981804) can0 0AF81110#52C000000000
(1438651199.983247) can0 0AF87110#00FF00
(1438651199.995966) can0 1610FF72#
(1438651199.997056) can0 12F85450#D536000000160000
(1438651199.998101) can0 12F96050#00000000410A00
(1438651200.011214) can0 0AF87010#1024
(1438651200.016672) can0 12F85150#1001000060
(1438651200.026615) can0 12F86150#00001000000000FC
(1438651200.031121) can0 12F83110#08
(1438651200.036385) can0 12F97450#8000
(1438651200.037064) can0 12F85C50#00
(1438651200.038233) can0 16F86250#0E00000000000000
(1438651200.038868) can0 0AF97950#00
(1438651200.039729) can0 12F95A50#00000000
(1438651200.041430) can0 12F81010#3800808000
(1438651200.046474) can0 12F85050#000319200008
(1438651200.047221) can0 12F97150#E0FF0D
(1438651200.047950) can0 12F97350#0000
(1438651200.049070) can0 0EF86350#00000000555574E2
(1438651200.049751) can0 12F88090#00
(1438651200.054213) can0 0EF81490#00
(1438651200.061124) can0 12F84010#40
(1438651200.081130) can0 12F84110#80
(1438651200.082113) can0 12F84210#80
(1438651200.084378) can0 12F89090#00010004
(1438651200.096839) can0 12F96050#00000000410A00
(1438651200.111183) can0 0EF81510#02
(1438651200.126629) can0 0EF91250#0000000000000008
(1438651200.127690) can0 12F96150#415F0000000000
(1438651200.131128) can0 12F83410#20
(1438651200.132098) can0 12F84310#00
(1438651200.134221) can0 0EF82390#0002
(1438651200.136605) can0 12F97450#8000
(1438651200.137728) can0 12F95F50#8284860000000000
(1438651200.138869) can0 12F96B50#7FF8F10000000000
(1438651200.141116) can0 12F87810#00
(1438651200.146234) can0 12F85050#000319200008
(1438651200.146998) can0 12F97150#E0FF0D
(1438651200.147635) can0 12F97C50#18
(1438651200.148763) can0 0EF86350#00000000555577DF
(1438651200.154116) can0 12F82290#80
(1438651200.161133) can0 12F83010#80
(1438651200.166249) can0 12F96D50#04000000
(1438651200.171075) can0 1610FF10#
(1438651200.174120) can0 0EF88190#00
(1438651200.190822) can0 1610FF54#
(1438651200.196638) can0 12F96050#00000000410A00
(1438651200.231193) can0 0EF82010#00
(1438651200.236505) can0 12F97450#8000
(1438651200.245840) can0 0EF87372#DC35
(1438651200.246771) can0 12F85050#00030F200008
(1438651200.247571) can0 12F97150#E0FF0D
(1438651200.248692) can0 0EF86350#00000000555579DD
(1438651200.271195) can0 12F82C10#20
(1438651200.272123) can0 12F83210#08
(1438651200.281518) can0 0AF81110#52C000000000
(1438651200.283257) can0 0AF87110#00FF00
(1438651200.296377) can0 16F97D54#A22518199F923A21
(1438651200.297474) can0 12F85450#D536000000160000
(1438651200.298519) can0 12F96050#00000000410A00
(1438651200.311208) can0 0AF87010#1024
(1438651200.316642) can0 12F85150#1001000060
(1438651200.326836) can0 0EF91250#0000000000000008
(1438651200.327949) can0 12F86150#00001000000000FC
(1438651200.331118) can0 12F83110#08
(1438651200.336500) can0 12F97450#8000
(1438651200.337144) can0 12F85C50#00
(1438651200.338239) can0 16F86250#0F00000000000000
(1438651200.338973) can0 0AF97950#00
(1438651200.340013) can0 12F95A50#00000000
(1438651200.341500) can0 12F81010#3800808000
(1438651200.346461) can0 12F85050#000320200008
(1438651200.347211) can0 12F97150#E0FF0D
(1438651200.347894) can0 12F97350#0000
(1438651200.349021) can0 0EF86350#0000000055557CDA
(1438651200.349722) can0 12F88090#00
(1438651200.354223) can0 0EF81490#00
(1438651200.361144) can0 12F84010#40
(1438651200.366246) can0 12F96D50#04000000
(1438651200.381147) can0 12F84110#80
(1438651200.382121) can0 12F84210#80
(1438651200.384478) can0 12F89090#00010004
(1438651200.396901) can0 12F96050#00000000410A00
(1438651200.411504) can0 0EF81510#02
(1438651200.431168) can0 12F83410#20
(1438651200.432105) can0 12F84310#00
(1438651200.434245) can0 0EF82390#0002
(1438651200.436493) can0 12F97450#8000
(1438651200.439121) can0 1610FF50#
(1438651200.441130) can0 12F87810#00
(1438651200.446407) can0 12F85050#000325200008
(1438651200.447156) can0 12F97150#E0FF0D
(1438651200.448353) can0 0EF86350#0000000055557ED8
(1438651200.461150) can0 12F83010#80
(1438651200.474156) can0 0EF88190#00
(1438651200.496839) can0 12F96050#00000000410A00
(1438651200.526725) can0 0EF91250#0000000000000008
(1438651200.531150) can0 0EF82010#00
(1438651200.536427) can0 12F97450#8000
(1438651200.545511) can0 0EF87372#DC35
(1438651200.546509) can0 12F85050#00031D200008
(1438651200.547632) can0 0EF86350#00000000555581D5
(1438651200.548385) can0 12F97150#E0FF0D
(1438651200.549241) can0 12F85250#7F0038A8
(1438651200.566381) can0 12F96D50#04000000
(1438651200.571155) can0 12F82C10#20
(1438651200.572132) can0 12F83210#08
(1438651200.581528) can0 0AF81110#52C000000000
(1438651200.583279) can0 0AF87110#00FF00
(1438651200.596924) can0 12F85450#D536000000160000
(1438651200.597993) can0 12F96050#00000000410A00
(1438651200.611183) can0 0AF87010#1024
(1438651200.616732) can0 12F85150#1001000060
(1438651200.626639) can0 12F86150#00001000000000FC
(1438651200.631138) can0 12F83110#08
(1438651200.636401) can0 12F97450#8000
(1438651200.637045) can0 12F85C50#00
(1438651200.638167) can0 12F95F50#8284860000000000
(1438651200.639428) can0 16F86250#0000000010000000
(1438651200.639984) can0 0AF97950#00
(1438651200.640806) can0 12F95A50#00000000
(1438651200.641766) can0 12F81010#3800808000
(1438651200.646272) can0 12F85050#00031F200008
(1438651200.647020) can0 12F97150#E0FF0D
(1438651200.647748) can0 12F97350#0000
(1438651200.648399) can0 12F97C50#18
(1438651200.649621) can0 0EF86350#00000000555583D3
(1438651200.650170) can0 12F88090#00
(1438651200.654228) can0 0EF81490#00
(1438651200.661165) can0 12F84010#40
(1438651200.681171) can0 12F84110#80
(1438651200.682144) can0 12F84210#80
(1438651200.684545) can0 12F89090#00010004
(1438651200.696868) can0 12F96050#00000000410A00
(1438651200.711160) can0 0EF81510#02
(1438651200.726616) can0 0EF91250#0000000000000008
(1438651200.731158) can0 12F83410#20
(1438651200.732124) can0 12F84310#00
(1438651200.734189) can0 0EF82390#0002
(1438651200.736408) can0 12F97450#8000
(1438651200.741138) can0 12F87810#00
(1438651200.746373) can0 12F85150#0001000060
(1438651200.747490) can0 0EF86350#00000000555586D0
(1438651200.748254) can0 12F97150#E0FF0D
(1438651200.749257) can0 12F85050#00031F200008
(1438651200.753554) can0 1610FF90#
(1438651200.761174) can0 12F83010#80
(1438651200.766284) can0 12F96D50#04000000
(1438651200.771438) can0 12F81010#3800800000
(1438651200.774134) can0 0EF88190#00
(1438651200.796748) can0 12F96050#00000000410A00
(1438651200.806421) can0 12F85150#0401000060
(1438651200.831180) can0 0EF82010#00
(1438651200.836433) can0 12F97450#8040
(1438651200.845187) can0 0EF87372#DC35
(1438651200.846536) can0 12F85050#000315200008
(1438651200.847290) can0 12F97150#E0FF0D
(1438651200.847928) can0 12F97650#04
(1438651200.849046) can0 0EF86350#00000000555588CE
(1438651200.871179) can0 12F82C10#20
(1438651200.872141) can0 12F83210#08
(1438651200.881534) can0 0AF81110#52C000000000
(1438651200.883262) can0 0AF87110#00FF00
(1438651200.886305) can0 12F85150#0001000060
(1438651200.897023) can0 12F85450#D536000000160000
(1438651200.898037) can0 12F96050#00000000410A00
(1438651200.911205) can0 0AF87010#1024
(1438651200.926273) can0 12F85150#0401000060
(1438651200.927398) can0 12F86150#00001000000000FC
(1438651200.928550) can0 0EF91250#0000000000000008
(1438651200.931135) can0 12F83110#08
(1438651200.936419) can0 12F97450#8040
(1438651200.937048) can0 12F85C50#00
(1438651200.938147) can0 16F86250#01334847474B3500
(1438651200.938795) can0 0AF97950#00
(1438651200.939711) can0 12F95A50#00000000
(1438651200.946403) can0 12F85050#000320200008
(1438651200.947167) can0 12F97150#E0FF0D
(1438651200.947878) can0 12F97350#0000
(1438651200.948960) can0 0EF86350#0000000055558BCB
(1438651200.949671) can0 12F88090#00
(1438651200.954189) can0 0EF81490#00
(1438651200.961163) can0 12F84010#40
(1438651200.966213) can0 12F96D50#04000000
(1438651200.981157) can0 12F84110#80
(1438651200.982136) can0 12F84210#80
(1438651200.984405) can0 12F89090#00010004
(1438651200.994880) can0 1610FF72#
(1438651200.996807) can0 12F96050#00000000410A00
(1438651201.011179) can0 0EF81510#02
(1438651201.031194) can0 12F83410#20
(1438651201.032148) can0 12F84310#00
(1438651201.034203) can0 0EF82390#0002
(1438651201.036458) can0 12F97450#8040
(1438651201.041157) can0 12F87810#00
(1438651201.046397) can0 12F85050#000322200008
(1438651201.047156) can0 12F97150#E0FF0D
(1438651201.048283) can0 0EF86350#0000000055558DC9
(1438651201.061174) can0 12F83010#80
(1438651201.071460) can0 12F81010#3800800000
(1438651201.074138) can0 0EF88190#00
(1438651201.096687) can0 12F96050#00000000410A00
(1438651201.126576) can0 0EF91250#0000000000000008
(1438651201.131163) can0 0EF82010#00
(1438651201.136417) can0 12F97450#8000
(1438651201.137535) can0 12F95F50#8284860000000000
(1438651201.144851) can0 0EF87372#DC35
(1438651201.146400) can0 12F85050#00033F200008
(1438651201.147156) can0 12F97150#E0FF0D
(1438651201.147789) can0 12F97C50#18
(1438651201.148916) can0 0EF86350#00000000555590C6
(1438651201.154102) can0 12F82290#80
(1438651201.166222) can0 12F96D50#04000000
(1438651201.171159) can0 12F82C10#20
(1438651201.172104) can0 12F83210#08
(1438651201.173099) can0 1610FF10#
(1438651201.181542) can0 0AF81110#52C000000000
(1438651201.183290) can0 0AF87110#00FF00
(1438651201.191341) can0 1610FF54#
(1438651201.196713) can0 12F85450#D536000000160000
(1438651201.197828) can0 12F96050#00000000410A00
(1438651201.211226) can0 0AF87010#1024
(1438651201.226420) can0 12F85150#0401000060
(1438651201.227578) can0 12F86150#00001000000000FC
(1438651201.231171) can0 12F83110#08
(1438651201.236484) can0 12F97450#8000
(1438651201.237410) can0 12F95A50#00000000
(1438651201.238113) can0 12F85C50#00
(1438651201.238596) can0 0AF97950#00
(1438651201.240040) can0 16F86250#02483839464D3700
(1438651201.246538) can0 12F85050#00034E200008
(1438651201.247289) can0 12F97150#E0FF0D
(1438651201.247963) can0 12F97350#0000
(1438651201.249089) can0 0EF86350#00000000555592C4
(1438651201.249729) can0 12F88090#00
(1438651201.254212) can0 0EF81490#00
(1438651201.261166) can0 12F84010#40
(1438651201.281176) can0 12F84110#80
(1438651201.282109) can0 12F84210#80
(1438651201.284425) can0 12F89090#00010004
(1438651201.296340) can0 16F97D54#A22518199F923AA1
(1438651201.297335) can0 12F96050#00000000410A00
(1438651201.311179) can0 0EF81510#02
(1438651201.326680) can0 0EF91250#0000000000000008
(1438651201.331198) can0 12F83410#20
(1438651201.332108) can0 12F84310#00
(1438651201.334208) can0 0EF82390#0002
(1438651201.336309) can0 12F97450#8040
(1438651201.341182) can0 12F87810#00
(1438651201.346364) can0 12F85050#00033C200008
(1438651201.347104) can0 12F97150#E0FF0D
(1438651201.348245) can0 0EF86350#00000000555595C1
(1438651201.361180) can0 12F83010#80
(1438651201.366328) can0 12F96D50#04000000
(1438651201.371493) can0 12F81010#3800800000
(1438651201.374099) can0 0EF88190#00
(1438651201.396813) can0 12F96050#00000000410A00
(1438651201.431191) can0 0EF82010#00
(1438651201.436465) can0 12F97450#8000
(1438651201.443216) can0 1610FF50#
(1438651201.444502) can0 0EF87372#DC35
(1438651201.446482) can0 12F85050#000342200008
(1438651201.447241) can0 12F97150#E0FF0D
(1438651201.448371) can0 0EF86350#00000000555597BF
(1438651201.471187) can0 12F82C10#20
(1438651201.472179) can0 12F83210#08
(1438651201.481589) can0 0AF81110#52C000000000
(1438651201.483919) can0 0AF87110#00FF00
(1438651201.496848) can0 12F85450#D536000000160000
(1438651201.497854) can0 12F96050#00000000410A00
(1438651201.511231) can0 0AF87010#1024
(1438651201.526679) can0 0EF91250#0000000000000008
(1438651201.527823) can0 12F86150#00001000000000FC
(1438651201.528744) can0 12F85150#0401000060
(1438651201.531126) can0 12F83110#08
(1438651201.536468) can0 12F97450#8040
(1438651201.537077) can0 12F85C50#00
(1438651201.538211) can0 16F86250#0333333134300000
(1438651201.538820) can0 0AF97950#00
(1438651201.539721) can0 12F95A50#00000000
(1438651201.546434) can0 12F85050#00032C200008
(1438651201.547506) can0 0EF86350#0000000055559ABC
(1438651201.548307) can0 12F97150#E0FF0D
(1438651201.548985) can0 12F97350#0000
(1438651201.549877) can0 12F85250#7F0038A8
(1438651201.550504) can0 12F88090#00
(1438651201.554194) can0 0EF81490#00
(1438651201.561138) can0 12F84010#40
(1438651201.566263) can0 12F96D50#04000000
(1438651201.581136) can0 12F84110#80
(1438651201.582134) can0 12F84210#80
(1438651201.584366) can0 12F89090#00010004
(1438651201.596999) can0 12F96050#00000000410A00
(1438651201.611194) can0 0EF81510#02
(1438651201.631202) can0 12F83410#20
(1438651201.632136) can0 12F84310#00
(1438651201.634216) can0 0EF82390#0002
(1438651201.636368) can0 12F97450#8000
(1438651201.637560) can0 12F95F50#8284860000000000
(1438651201.641145) can0 12F87810#00
(1438651201.646328) can0 12F85050#00032B200008
(1438651201.647082) can0 12F97150#E0FF0D
(1438651201.647731) can0 12F97C50#18
(1438651201.648867) can0 0EF86350#0000000055559CBA
(1438651201.661187) can0 12F83010#80
(1438651201.671487) can0 12F81010#3800800000
(1438651201.674122) can0 0EF88190#00
(1438651201.697014) can0 12F96050#00000000410A00
(1438651201.726633) can0 0EF91250#0000000000000008
(1438651201.731146) can0 0EF82010#00
(1438651201.736280) can0 12F97450#8000
(1438651201.744267) can0 0EF87372#DC35
(1438651201.746366) can0 12F85050#00032D200008
(1438651201.747112) can0 12F97150#E0FF0D
(1438651201.748235) can0 0EF86350#0000000055559FB7
(1438651201.752127) can0 1610FF90#
(1438651201.766331) can0 12F96D50#04000000
(1438651201.771147) can0 12F82C10#20
(1438651201.772133) can0 12F83210#08
(1438651201.781522) can0 0AF81110#52C000000000
(1438651201.783271) can0 0AF87110#00FF00
(1438651201.796763) can0 12F85450#D536000000160000
(1438651201.797778) can0 12F96050#00000000410A00
(1438651201.811243) can0 0AF87010#1024
(1438651201.826372) can0 12F85150#0401000060
(1438651201.827518) can0 12F86150#00001000000000FC
(1438651201.831206) can0 12F83110#08
(1438651201.836490) can0 12F97450#8000
(1438651201.837126) can0 12F85C50#00
(1438651201.838262) can0 16F86250#0431144003050000
(1438651201.838846) can0 0AF97950#00
(1438651201.839752) can0 12F95A50#00000000
(1438651201.846369) can0 12F85050#00032C200008
(1438651201.847120) can0 12F97150#E0FF0D
(1438651201.847844) can0 12F97350#0000
(1438651201.848479) can0 12F97650#04
(1438651201.849642) can0 0EF86350#000000005555A1B5
(1438651201.850268) can0 12F88090#00
(1438651201.854153) can0 0EF81490#00
(1438651201.861150) can0 12F84010#40
(1438651201.881159) can0 12F84110#80
(1438651201.882140) can0 12F84210#80
(1438651201.884390) can0 12F89090#00010004
(1438651201.896779) can0 12F96050#00000000410A00
(1438651201.911161) can0 0EF81510#02
(1438651201.926500) can0 0EF91250#0000000000000008
(1438651201.931168) can0 12F83410#20
(1438651201.932163) can0 12F84310#00
(1438651201.934222) can0 0EF82390#0002
(1438651201.936514) can0 12F97450#8040
(1438651201.941171) can0 12F87810#00
(1438651201.946288) can0 12F85050#000327200008
(1438651201.947110) can0 12F97150#E0FF0D
(1438651201.948169) can0 0EF86350#000000005555A4B2
(1438651201.961171) can0 12F83010#80
(1438651201.966161) can0 12F96D50#04000000
(1438651201.971500) can0 12F81010#3800800000
(1438651201.974126) can0 0EF88190#00
(1438651201.993871) can0 1610FF72#
(1438651201.996734) can0 12F96050#00000000410A00
(1438651202.031176) can0 0EF82010#00
(1438651202.036410) can0 12F97450#8040
(1438651202.044110) can0 0EF87372#DC35
(1438651202.046989) can0 12F85050#000326200008
(1438651202.047417) can0 12F97150#E0FF0D
(1438651202.048267) can0 0EF86350#000000005555A6B0
(1438651202.071242) can0 12F82C10#20
(1438651202.072158) can0 12F83210#08
(1438651202.081545) can0 0AF81110#52C000000000
(1438651202.083281) can0 0AF87110#00FF00
(1438651202.096906) can0 12F85450#D536000000160000
(1438651202.097926) can0 12F96050#00000000410A00
(1438651202.111261) can0 0AF87010#1024
(1438651202.126561) can0 0EF91250#0000000000000008
(1438651202.127740) can0 12F86150#00001000000000FC
(1438651202.128667) can0 12F85150#0401000060
(1438651202.131164) can0 12F83110#08
(1438651202.136527) can0 12F97450#8000
(1438651202.137158) can0 12F85C50#00
(1438651202.138307) can0 12F95F50#8284860000000000
(1438651202.139763) can0 16F86250#0500000000000000
(1438651202.140437) can0 12F96750#B2270F890000
(1438651202.141065) can0 0AF97950#00
(1438651202.141931) can0 12F95A50#00000000
(1438651202.146290) can0 12F85050#000324200008
(1438651202.147044) can0 12F97150#E0FF0D
(1438651202.147771) can0 12F97350#0000
(1438651202.148394) can0 12F97C50#18
(1438651202.149641) can0 0EF86350#000000005555A9AD
(1438651202.150137) can0 12F88090#00
(1438651202.154115) can0 12F82290#80
(1438651202.154776) can0 0EF81490#00
(1438651202.161237) can0 12F84010#40
(1438651202.166124) can0 12F96D50#04000000
(1438651202.171128) can0 1610FF10#
(1438651202.181185) can0 12F84110#80
(1438651202.182164) can0 12F84210#80
(1438651202.184408) can0 12F89090#00010004
(1438651202.191553) can0 1610FF54#
(1438651202.196685) can0 12F96050#00000000410A00
(1438651202.211188) can0 0EF81510#02
(1438651202.231194) can0 12F83410#20
(1438651202.232166) can0 12F84310#00
(1438651202.234187) can0 0EF82390#0002
(1438651202.236260) can0 12F97450#8040
(1438651202.241182) can0 12F87810#00
(1438651202.246285) can0 12F85050#00031C200008
(1438651202.247031) can0 12F97150#E0FF0D
(1438651202.248154) can0 0EF86350#000000005555ABAB
(1438651202.261257) can0 12F83010#80
(1438651202.271517) can0 12F81010#3800800000
(1438651202.274137) can0 0EF88190#00
(1438651202.296867) can0 12F96050#00000000410A00
(1438651202.297888) can0 16F97D54#A22518199F923B21
(1438651202.326441) can0 0EF91250#0000000000000008
(1438651202.331191) can0 0EF82010#00
(1438651202.336401) can0 12F97450#8000
(1438651202.343579) can0 0EF87372#DC35
(1438651202.346391) can0 12F85050#000323200008
(1438651202.347155) can0 12F97150#E0FF0D
(1438651202.348279) can0 0EF86350#000000005555AEA8
(1438651202.366320) can0 12F96D50#04000000
(1438651202.371195) can0 12F82C10#20
(1438651202.372156) can0 12F83210#08
(1438651202.381579) can0 0AF81110#52C000000000
(1438651202.383329) can0 0AF87110#00FF00
(1438651202.396771) can0 12F85450#D536000000160000
(1438651202.397793) can0 12F96050#00000000410A00
(1438651202.411213) can0 0AF87010#1024
(1438651202.426328) can0 12F85150#0401000060
(1438651202.427451) can0 12F86150#00001000000000FC
(1438651202.431181) can0 12F83110#08
(1438651202.436438) can0 12F97450#8000
(1438651202.437077) can0 12F85C50#00
(1438651202.438289) can0 16F86250#0600000000000000
(1438651202.438899) can0 0AF97950#00
(1438651202.439773) can0 12F95A50#00000000
(1438651202.446327) can0 12F85050#000324200008
(1438651202.447089) can0 12F97150#E0FF0D
(1438651202.447802) can0 12F97350#0000
(1438651202.448412) can0 1610FF50#
(1438651202.449587) can0 0EF86350#000000005555B0A6
(1438651202.450152) can0 12F88090#00
(1438651202.454179) can0 0EF81490#00
(1438651202.461213) can0 12F84010#40
(1438651202.481199) can0 12F84110#80
(1438651202.482151) can0 12F84210#80
(1438651202.484403) can0 12F89090#00010004
(1438651202.497056) can0 12F96050#00000000410A00
(1438651202.511222) can0 0EF81510#02
(1438651202.526470) can0 0EF91250#0000000000000008
(1438651202.531202) can0 12F83410#20
(1438651202.532157) can0 12F84310#00
(1438651202.534212) can0 0EF82390#0002
(1438651202.536456) can0 12F97450#8000
(1438651202.541180) can0 12F87810#00
(1438651202.546184) can0 12F85050#000326200008
(1438651202.547296) can0 0EF86350#000000005555B3A3
(1438651202.548057) can0 12F97150#E0FF0D
(1438651202.548908) can0 12F85250#7F0038A8
(1438651202.561220) can0 12F83010#80
(1438651202.566082) can0 12F96D50#04000000
(1438651202.571476) can0 12F81010#3800800000
(1438651202.574081) can0 0EF88190#00
(1438651202.596782) can0 12F96050#00000000410A00
(1438651202.631271) can0 0EF82010#00
(1438651202.636309) can0 12F97450#8000
(1438651202.637452) can0 12F95F50#8284860000000000
(1438651202.643310) can0 0EF87372#DC35
(1438651202.646323) can0 12F85050#000324200008
(1438651202.647078) can0 12F97150#E0FF0D
(1438651202.647715) can0 12F97C50#18
(1438651202.648841) can0 0EF86350#000000005555B5A1
(1438651202.671224) can0 12F82C10#20
(1438651202.672171) can0 12F83210#08
(1438651202.681591) can0 0AF81110#52C000000000
(1438651202.683318) can0 0AF87110#00FF00
(1438651202.696814) can0 12F85450#D536000000160000
(1438651202.697831) can0 12F96050#00000000410A00
(1438651202.711237) can0 0AF87010#1024
(1438651202.726488) can0 0EF91250#0000000000000008
(1438651202.727704) can0 12F86150#00001000000000FC
(1438651202.728590) can0 12F85150#0401000060
(1438651202.731174) can0 12F83110#08
(1438651202.736338) can0 12F97450#8040
(1438651202.736969) can0 12F85C50#00
(1438651202.738156) can0 16F86250#0700000000000000
(1438651202.738784) can0 0AF97950#00
(1438651202.739723) can0 12F95A50#00000000
(1438651202.746297) can0 12F85050#000326200008
(1438651202.747051) can0 12F97150#E0FF0D
(1438651202.747728) can0 12F97350#0000
(1438651202.748849) can0 0EF86350#000000005555B89E
(1438651202.749596) can0 12F88090#00
(1438651202.752467) can0 1610FF90#
(1438651202.754178) can0 0EF81490#00
(1438651202.761220) can0 12F84010#40
(1438651202.766299) can0 12F96D50#04000000
(1438651202.781217) can0 12F84110#80
(1438651202.782179) can0 12F84210#80
(1438651202.784354) can0 12F89090#00010004
(1438651202.796686) can0 12F96050#00000000410A00
(1438651202.811210) can0 0EF81510#02
(1438651202.831236) can0 12F83410#20
(1438651202.832219) can0 12F84310#00
(1438651202.834238) can0 0EF82390#0002
(1438651202.836245) can0 12F97450#8000
(1438651202.841202) can0 12F87810#00
(1438651202.846435) can0 12F85050#00031F200008
(1438651202.847177) can0 12F97150#E0FF0D
(1438651202.847799) can0 12F97650#04
(1438651202.848925) can0 0EF86350#000000005555BA9C
(1438651202.861217) can0 12F83010#80
(1438651202.871546) can0 12F81010#3800800000
(1438651202.874102) can0 0EF88190#00
(1438651202.896841) can0 12F96050#00000000410A00
(1438651202.926506) can0 0EF91250#0000000000000008
(1438651202.931197) can0 0EF82010#00
(1438651202.936224) can0 12F97450#8000
(1438651202.943191) can0 0EF87372#DC35
(1438651202.946222) can0 12F85050#000328200008
(1438651202.947192) can0 12F97150#E0FF0D
(1438651202.948192) can0 0EF86350#000000005555BD99
(1438651202.966126) can0 12F96D50#04000000
(1438651202.971233) can0 12F82C10#20
(1438651202.972186) can0 12F83210#08
(1438651202.981589) can0 0AF81110#52C000000000
(1438651202.983321) can0 0AF87110#00FF00
(1438651202.992808) can0 1610FF72#
(1438651202.996822) can0 12F85450#D536000000160000
(1438651202.997872) can0 12F96050#00000000410A00
(1438651203.011254) can0 0AF87010#1024
(1438651203.026132) can0 12F85150#0401000060
(1438651203.027323) can0 12F86150#00001000000000FC
(1438651203.031191) can0 12F83110#08
(1438651203.036230) can0 12F97450#8000
(1438651203.037093) can0 12F95A50#00000000
(1438651203.037734) can0 12F85C50#00
(1438651203.038365) can0 0AF97950#00
(1438651203.039564) can0 16F86250#0800000000000000
(1438651203.046360) can0 12F85050#00031F200008
(1438651203.047123) can0 12F97150#E0FF0D
(1438651203.047851) can0 12F97350#0000
(1438651203.048979) can0 0EF86350#000000005555BF97
(1438651203.049635) can0 12F88090#00
(1438651203.054130) can0 0EF81490#00
(1438651203.061204) can0 12F84010#40
(1438651203.081237) can0 12F84110#80
(1438651203.082188) can0 12F84210#80
(1438651203.084366) can0 12F89090#00010004
(1438651203.096811) can0 12F96050#00000000410A00
(1438651203.111238) can0 0EF81510#02
(1438651203.126561) can0 0EF91250#0000000000000008
(1438651203.131208) can0 12F83410#20
(1438651203.132145) can0 12F84310#00
(1438651203.134189) can0 0EF82390#0002
(1438651203.136317) can0 12F97450#8040
(1438651203.137461) can0 12F95F50#8284860000000000
(1438651203.141205) can0 12F87810#00
(1438651203.146362) can0 12F85050#000324200008
(1438651203.147129) can0 12F97150#E0FF0D
(1438651203.147773) can0 12F97C50#18
(1438651203.148894) can0 0EF86350#000000005555C294
(1438651203.154114) can0 12F82290#80
(1438651203.161201) can0 12F83010#80
(1438651203.166102) can0 12F96D50#04000000
(1438651203.171520) can0 12F81010#3800800000
(1438651203.172274) can0 1610FF10#
(1438651203.174742) can0 0EF88190#00
(1438651203.192212) can0 1610FF54#
(1438651203.196701) can0 12F96050#00000000410A00
(1438651203.231219) can0 0EF82010#00
(1438651203.236383) can0 12F97450#8000
(1438651203.242644) can0 0EF87372#DC35
(1438651203.246358) can0 12F85050#00031C200008
(1438651203.247125) can0 12F97150#E0FF0D
(1438651203.248240) can0 0EF86350#000000005555C492
(1438651203.271220) can0 12F82C10#20
(1438651203.272146) can0 12F83210#08
(1438651203.281616) can0 0AF81110#52C000000000
(1438651203.283347) can0 0AF87110#00FF00
(1438651203.296507) can0 16F97D54#A22518199F923BA1
(1438651203.297599) can0 12F85450#D536000000160000
(1438651203.298653) can0 12F96050#00000000410A00
(1438651203.311277) can0 0AF87010#1024
(1438651203.326600) can0 0EF91250#0000000000000008
(1438651203.327742) can0 12F86150#00001000000000FC
(1438651203.328641) can0 12F85150#0401000060
(1438651203.331211) can0 12F83110#08
(1438651203.336457) can0 12F97450#8000
(1438651203.337098) can0 12F85C50#00
(1438651203.338277) can0 16F86250#0900000000000000
(1438651203.338889) can0 0AF97950#00
(1438651203.339779) can0 12F95A50#00000000
(1438651203.346103) can0 12F85050#00031D200008
(1438651203.346887) can0 12F97150#E0FF0D
(1438651203.347539) can0 12F97350#0000
(1438651203.348667) can0 0EF86350#000000005555C78F
(1438651203.349417) can0 12F88090#00
(1438651203.354218) can0 0EF81490#00
(1438651203.361221) can0 12F84010#40
(1438651203.366016) can0 12F96D50#04000000
(1438651203.381244) can0 12F84110#80
(1438651203.382153) can0 12F84210#80
(1438651203.384357) can0 12F89090#00010004
(1438651203.397163) can0 12F96050#00000000410A00
(1438651203.411238) can0 0EF81510#02
(1438651203.431237) can0 12F83410#20
(1438651203.432171) can0 12F84310#00
(1438651203.434233) can0 0EF82390#0002
(1438651203.436387) can0 12F97450#8000
(1438651203.441214) can0 12F87810#00
(1438651203.446386) can0 12F85050#000320200008
(1438651203.447129) can0 12F97150#E0FF0D
(1438651203.448256) can0 0EF86350#000000005555C98D
(1438651203.452605) can0 1610FF50#
(1438651203.461219) can0 12F83010#80
(1438651203.471531) can0 12F81010#3800800000
(1438651203.474148) can0 0EF88190#00
(1438651203.497136) can0 12F96050#00000000410A00
(1438651203.526513) can0 0EF91250#0000000000000008
(1438651203.531228) can0 0EF82010#00
(1438651203.536473) can0 12F97450#8000
(1438651203.542360) can0 0EF87372#DC35
(1438651203.546265) can0 12F85050#000326200008
(1438651203.547134) can0 12F85250#7F0038A8
(1438651203.548261) can0 0EF86350#000000005555CC8A
(1438651203.549013) can0 12F97150#E0FF0D
(1438651203.566244) can0 12F96D50#04000000
(1438651203.571183) can0 12F82C10#20
(1438651203.572169) can0 12F83210#08
(1438651203.581560) can0 0AF81110#52C000000000
(1438651203.583361) can0 0AF87110#00FF00
(1438651203.596874) can0 12F85450#D536000000160000
(1438651203.597908) can0 12F96050#00000000410A00
