(1438650731.889297) can0 0AF81110#180000000000
(1438650731.892268) can0 12F85450#1636000000160000
(1438650731.909738) can0 0EF87372#0447
(1438650731.912737) can0 12F96050#00000000410A00
(1438650731.918986) can0 0AF87010#0024
(1438650731.924721) can0 1610FF54#
(1438650731.942300) can0 0EF91250#0000000000000008
(1438650731.952127) can0 12F97450#8040
(1438650731.958911) can0 12F82C10#20
(1438650731.959917) can0 12F83210#08
(1438650731.962037) can0 12F85050#000323200008
(1438650731.962792) can0 12F97150#E0FF58
(1438650731.963913) can0 0EF86350#000000005555BE98
(1438650731.969036) can0 0AF87110#00FF00
(1438650731.981909) can0 12F96D50#04000000
(1438650732.012411) can0 12F96050#00000000410A00
(1438650732.042274) can0 12F86150#00001000000000FC
(1438650732.048888) can0 12F84010#40
(1438650732.051998) can0 12F97450#8040
(1438650732.052623) can0 12F85C50#00
(1438650732.053269) can0 12F88090#00
(1438650732.054413) can0 16F86250#0600000000000000
(1438650732.055051) can0 0AF97950#00
(1438650732.055923) can0 12F95A50#00000000
(1438650732.058167) can0 0EF81490#00
(1438650732.062015) can0 12F85050#00031C200008
(1438650732.062771) can0 12F97150#E0FF58
(1438650732.063438) can0 12F97350#0000
(1438650732.064616) can0 0EF86350#000000005555C096
(1438650732.082034) can0 12F85150#4001000060
(1438650732.088390) can0 12F89090#00010004
(1438650732.098917) can0 0EF81510#02
(1438650732.100301) can0 12F81010#2800800000
(1438650732.109118) can0 0EF82010#00
(1438650732.110154) can0 12F83010#80
(1438650732.111111) can0 12F83110#08
(1438650732.112318) can0 12F96050#00000000410A00
(1438650732.119064) can0 12F83410#20
(1438650732.120119) can0 12F84110#00
(1438650732.121059) can0 12F84210#00
(1438650732.122064) can0 12F84310#00
(1438650732.129056) can0 12F87810#00
(1438650732.142426) can0 0EF91250#0000000000000008
(1438650732.152057) can0 12F97450#8040
(1438650732.153020) can0 12F96750#B2270F890000
(1438650732.154162) can0 12F95F50#8284860000000000
(1438650732.158070) can0 12F82290#80
(1438650732.158861) can0 0EF82390#0102
(1438650732.159544) can0 1610FF10#
(1438650732.162066) can0 12F85050#000328200008
(1438650732.162864) can0 12F97150#E0FF58
(1438650732.163504) can0 12F97C50#18
(1438650732.164625) can0 0EF86350#000000005555C393
(1438650732.178135) can0 0EF88190#00
(1438650732.181938) can0 12F96D50#04000000
(1438650732.189280) can0 0AF81110#180000000000
(1438650732.192311) can0 12F85450#1636000000160000
(1438650732.209391) can0 0EF87372#0447
(1438650732.212313) can0 12F96050#00000000410A00
(1438650732.218990) can0 0AF87010#0024
(1438650732.227696) can0 1610FF50#
(1438650732.251829) can0 12F97450#8000
(1438650732.258917) can0 12F82C10#20
(1438650732.259929) can0 12F83210#08
(1438650732.261890) can0 12F85050#000326200008
(1438650732.262641) can0 12F97150#E0FF58
(1438650732.263771) can0 0EF86350#000000005555C591
(1438650732.269018) can0 0AF87110#00FF00
(1438650732.312453) can0 12F96050#00000000410A00
(1438650732.320704) can0 16F97D54#A22518199F914221
(1438650732.342294) can0 0EF91250#0000000000000008
(1438650732.343434) can0 12F86150#00001000000000FC
(1438650732.349076) can0 12F84010#40
(1438650732.352203) can0 12F97450#8040
(1438650732.353172) can0 12F95A50#00000000
(1438650732.353569) can0 12F85C50#00
(1438650732.354435) can0 0AF97950#00
(1438650732.354839) can0 12F88090#00
(1438650732.356210) can0 16F86250#0700000000000000
(1438650732.358191) can0 0EF81490#00
(1438650732.362028) can0 12F85050#000321200008
(1438650732.362790) can0 12F97150#E0FF58
(1438650732.363456) can0 12F97350#0000
(1438650732.364587) can0 0EF86350#000000005555C88E
(1438650732.381965) can0 12F96D50#04000000
(1438650732.382898) can0 12F85150#4001000060
(1438650732.388400) can0 12F89090#00010004
(1438650732.398929) can0 0EF81510#02
(1438650732.400191) can0 12F81010#2800800000
(1438650732.408906) can0 0EF82010#00
(1438650732.409925) can0 12F83010#80
(1438650732.410906) can0 12F83110#08
(1438650732.412310) can0 12F96050#00000000410A00
(1438650732.418904) can0 12F83410#20
(1438650732.420197) can0 12F84110#00
(1438650732.420924) can0 12F84210#00
(1438650732.421912) can0 12F84310#00
(1438650732.428909) can0 12F87810#00
(1438650732.452223) can0 12F97450#8000
(1438650732.458286) can0 0EF82390#0102
(1438650732.462207) can0 12F85050#00032B200008
(1438650732.463038) can0 12F97150#E0FF58
(1438650732.464222) can0 0EF86350#000000005555CB8B
(1438650732.478139) can0 0EF88190#00
(1438650732.488836) can0 1610FF72#
(1438650732.489834) can0 0AF81110#180000000000
(1438650732.492443) can0 12F85450#1636000000160000
(1438650732.508974) can0 0EF87372#0447
(1438650732.512471) can0 12F96050#00000000410A00
(1438650732.518966) can0 0AF87010#0024
(1438650732.542166) can0 0EF91250#0000000000000008
(1438650732.552160) can0 12F97450#8000
(1438650732.558917) can0 12F82C10#20
(1438650732.560208) can0 12F83210#08
(1438650732.562293) can0 12F85050#000320200008
(1438650732.563336) can0 0EF86350#000000005555CD89
(1438650732.564290) can0 12F97150#E0FF58
(1438650732.564843) can0 12F85250#7F0038A8
(1438650732.569228) can0 0AF87110#00FF00
(1438650732.581970) can0 12F96D50#04000000
(1438650732.612459) can0 12F96050#00000000410A00
(1438650732.641979) can0 12F86150#00001000000000FC
(1438650732.648950) can0 12F84010#40
(1438650732.651844) can0 12F97450#8000
(1438650732.652471) can0 12F85C50#00
(1438650732.653106) can0 12F88090#00
(1438650732.654292) can0 12F95F50#8284860000000000
(1438650732.655458) can0 16F86250#0800000000000000
(1438650732.656083) can0 0AF97950#00
(1438650732.656949) can0 12F95A50#00000000
(1438650732.658111) can0 0EF81490#00
(1438650732.661824) can0 12F85050#000321200008
(1438650732.662583) can0 12F97150#E0FF58
(1438650732.663281) can0 12F97350#0000
(1438650732.664432) can0 0EF86350#000000005555CF87
(1438650732.665081) can0 12F97C50#18
(1438650732.682109) can0 12F85150#4001000060
(1438650732.688410) can0 12F89090#00010004
(1438650732.698930) can0 0EF81510#02
(1438650732.700234) can0 12F81010#2800800000
(1438650732.708923) can0 0EF82010#00
(1438650732.709921) can0 12F83010#80
(1438650732.710868) can0 12F83110#08
(1438650732.712224) can0 12F96050#00000000410A00
(1438650732.718921) can0 12F83410#20
(1438650732.719934) can0 12F84110#00
(1438650732.720910) can0 12F84210#00
(1438650732.721930) can0 12F84310#00
(1438650732.728919) can0 12F87810#00
(1438650732.742240) can0 0EF91250#0000000000000008
(1438650732.751971) can0 12F97450#8000
(1438650732.757368) can0 1610FF90#
(1438650732.758181) can0 0EF82390#0102
(1438650732.762083) can0 12F85050#00031F200008
(1438650732.762824) can0 12F97150#E0FF58
(1438650732.763936) can0 0EF86350#000000005555D284
(1438650732.778115) can0 0EF88190#00
(1438650732.781837) can0 12F96D50#04000000
(1438650732.789242) can0 0AF81110#180000000000
(1438650732.792341) can0 12F85450#1636000000160000
(1438650732.808624) can0 0EF87372#0447
(1438650732.812369) can0 12F96050#00000000410A00
(1438650732.818982) can0 0AF87010#0024
(1438650732.851987) can0 12F97450#8000
(1438650732.858930) can0 12F82C10#20
(1438650732.859927) can0 12F83210#08
(1438650732.861879) can0 12F85050#000321200008
(1438650732.862683) can0 12F97150#E0FF58
(1438650732.863317) can0 12F97650#04
(1438650732.864443) can0 0EF86350#000000005555D482
(1438650732.869055) can0 0AF87110#00FF00
(1438650732.912376) can0 12F96050#00000000410A00
(1438650732.925178) can0 1610FF54#
(1438650732.942251) can0 0EF91250#0000000000000008
(1438650732.943378) can0 12F86150#00001000000000FC
(1438650732.948885) can0 12F84010#40
(1438650732.952063) can0 12F97450#8000
(1438650732.952612) can0 12F85C50#00
(1438650732.953250) can0 12F88090#00
(1438650732.954461) can0 16F86250#0900000000000000
(1438650732.955260) can0 12F95A50#00000000
(1438650732.955929) can0 0AF97950#00
(1438650732.958128) can0 0EF81490#00
(1438650732.962006) can0 12F85050#000323200008
(1438650732.962749) can0 12F97150#E0FF58
(1438650732.963477) can0 12F97350#0000
(1438650732.964601) can0 0EF86350#000000005555D77F
(1438650732.981994) can0 12F96D50#04000000
(1438650732.982866) can0 12F85150#4001000060
(1438650732.988373) can0 12F89090#00010004
(1438650732.998942) can0 0EF81510#02
(1438650733.000209) can0 12F81010#2800800000
(1438650733.008887) can0 0EF82010#00
(1438650733.010250) can0 12F83010#80
(1438650733.011212) can0 12F83110#08
(1438650733.012324) can0 12F96050#00000000410A00
(1438650733.019204) can0 12F83410#20
(1438650733.020228) can0 12F84110#00
(1438650733.021204) can0 12F84210#00
(1438650733.022213) can0 12F84310#00
(1438650733.029203) can0 12F87810#00
(1438650733.051836) can0 12F97450#8000
(1438650733.058212) can0 0EF82390#0102
(1438650733.062001) can0 12F85050#000328200008
(1438650733.062760) can0 12F97150#E0FF58
(1438650733.063878) can0 0EF86350#000000005555DA7C
(1438650733.078123) can0 0EF88190#00
(1438650733.089274) can0 0AF81110#180000000000
(1438650733.092362) can0 12F85450#1636000000160000
(1438650733.108357) can0 0EF87372#0447
(1438650733.112277) can0 12F96050#00000000410A00
(1438650733.118999) can0 0AF87010#0024
(1438650733.142264) can0 0EF91250#0000000000000008
(1438650733.152016) can0 12F97450#8040
(1438650733.153116) can0 12F95F50#8284860000000000
(1438650733.158112) can0 12F82290#80
(1438650733.158897) can0 12F82C10#20
(1438650733.159909) can0 12F83210#08
(1438650733.160868) can0 1610FF10#
(1438650733.162031) can0 12F85050#000323200008
(1438650733.162829) can0 12F97150#E0FF58
(1438650733.163469) can0 12F97C50#18
(1438650733.164584) can0 0EF86350#000000005555DC7A
(1438650733.169028) can0 0AF87110#00FF00
(1438650733.181738) can0 12F96D50#04000000
(1438650733.212400) can0 12F96050#00000000410A00
(1438650733.232887) can0 1610FF50#
(1438650733.242276) can0 12F86150#00001000000000FC
(1438650733.249151) can0 12F84010#40
(1438650733.251789) can0 12F97450#8040
(1438650733.252504) can0 12F85C50#00
(1438650733.253603) can0 16F86250#0A00000000808000
(1438650733.254349) can0 12F88090#00
(1438650733.254900) can0 0AF97950#00
(1438650733.255735) can0 12F95A50#00000000
(1438650733.258165) can0 0EF81490#00
(1438650733.261960) can0 12F85050#00032A200008
(1438650733.262638) can0 12F97150#E0FF58
(1438650733.263333) can0 12F97350#0000
(1438650733.264417) can0 0EF86350#000000005555DE78
(1438650733.281878) can0 12F85150#4001000060
(1438650733.288394) can0 12F89090#00010004
(1438650733.298919) can0 0EF81510#02
(1438650733.300235) can0 12F81010#2800800000
(1438650733.308909) can0 0EF82010#00
(1438650733.309905) can0 12F83010#80
(1438650733.310895) can0 12F83110#08
(1438650733.312349) can0 12F96050#00000000410A00
(1438650733.318907) can0 12F83410#20
(1438650733.319917) can0 12F84110#00
(1438650733.321031) can0 16F97D54#A22518199F9142A1
(1438650733.321664) can0 12F84210#00
(1438650733.322907) can0 12F84310#00
(1438650733.328908) can0 12F87810#00
(1438650733.342147) can0 0EF91250#0000000000000008
(1438650733.352040) can0 12F97450#8000
(1438650733.358366) can0 0EF82390#0102
(1438650733.362038) can0 12F85050#000327200008
(1438650733.363166) can0 12F97150#E0FF58
(1438650733.363722) can0 0EF86350#000000005555E175
(1438650733.378138) can0 0EF88190#00
(1438650733.381975) can0 12F96D50#04000000
(1438650733.389281) can0 0AF81110#180000000000
(1438650733.392393) can0 12F85450#1636000000160000
(1438650733.408009) can0 0EF87372#0447
(1438650733.412160) can0 12F96050#00000000410A00
(1438650733.418990) can0 0AF87010#0024
(1438650733.451991) can0 12F97450#8000
(1438650733.458893) can0 12F82C10#20
(1438650733.460252) can0 12F83210#08
(1438650733.462729) can0 12F85050#000320200008
(1438650733.463427) can0 12F97150#E0FF58
(1438650733.464284) can0 0EF86350#000000005555E472
(1438650733.469422) can0 0AF87110#00FF00
(1438650733.487793) can0 1610FF72#
(1438650733.512304) can0 12F96050#00000000410A00
(1438650733.542276) can0 0EF91250#0000000000000008
(1438650733.543401) can0 12F86150#00001000000000FC
(1438650733.548905) can0 12F84010#40
(1438650733.552057) can0 12F97450#8000
(1438650733.552677) can0 12F85C50#00
(1438650733.553307) can0 12F88090#00
(1438650733.554501) can0 16F86250#0B00000000000000
(1438650733.555109) can0 0AF97950#00
(1438650733.555941) can0 12F95A50#00000000
(1438650733.558164) can0 0EF81490#00
(1438650733.562045) can0 12F85050#000323200008
(1438650733.563154) can0 0EF86350#000000005555E670
(1438650733.563922) can0 12F97150#E0FF58
(1438650733.564934) can0 12F97350#0000
(1438650733.565411) can0 12F85250#7F0038A8
(1438650733.581918) can0 12F96D50#04000000
(1438650733.583064) can0 12F85150#4001000060
(1438650733.588382) can0 12F89090#00010004
(1438650733.598939) can0 0EF81510#02
(1438650733.600247) can0 12F81010#2800800000
(1438650733.608935) can0 0EF82010#00
(1438650733.609925) can0 12F83010#80
(1438650733.610924) can0 12F83110#08
(1438650733.612173) can0 12F96050#00000000410A00
(1438650733.618924) can0 12F83410#20
(1438650733.619925) can0 12F84110#00
(1438650733.620924) can0 12F84210#00
(1438650733.621922) can0 12F84310#00
(1438650733.628925) can0 12F87810#00
(1438650733.651802) can0 12F97450#8000
(1438650733.652910) can0 12F95F50#8284860000000000
(1438650733.658154) can0 0EF82390#0102
(1438650733.662015) can0 12F85050#000321200008
(1438650733.662780) can0 12F97150#E0FF58
(1438650733.663424) can0 12F97C50#18
(1438650733.664547) can0 0EF86350#000000005555E96D
(1438650733.678142) can0 0EF88190#00
(1438650733.689629) can0 0AF81110#180000000000
(1438650733.692392) can0 12F85450#1636000000160000
(1438650733.693454) can0 12F96250#812A0000000000
(1438650733.707701) can0 0EF87372#0447
(1438650733.712318) can0 12F96050#00000000410A00
(1438650733.719018) can0 0AF87010#0024
(1438650733.742024) can0 0EF91250#0000000000000008
(1438650733.751956) can0 12F97450#8000
(1438650733.755897) can0 1610FF90#
(1438650733.758917) can0 12F82C10#20
(1438650733.760305) can0 12F83210#08
(1438650733.762059) can0 12F85050#000321200008
(1438650733.762815) can0 12F97150#E0FF58
(1438650733.763936) can0 0EF86350#000000005555EB6B
(1438650733.769706) can0 0AF87110#00FF00
(1438650733.781839) can0 12F96D50#04000000
(1438650733.812434) can0 12F96050#00000000410A00
(1438650733.842270) can0 12F86150#00001000000000FC
(1438650733.848931) can0 12F84010#40
(1438650733.851907) can0 12F97450#8040
(1438650733.852531) can0 12F85C50#00
(1438650733.853178) can0 12F88090#00
(1438650733.854337) can0 16F86250#0C00000000000000
(1438650733.854969) can0 0AF97950#00
(1438650733.855826) can0 12F95A50#00000000
(1438650733.858155) can0 0EF81490#00
(1438650733.862030) can0 12F85050#00031C200008
(1438650733.862777) can0 12F97150#E0FF58
(1438650733.863446) can0 12F97350#0000
(1438650733.864088) can0 12F97650#04
(1438650733.865197) can0 0EF86350#000000005555EE68
(1438650733.882022) can0 12F85150#4001000060
(1438650733.888338) can0 12F89090#00010004
(1438650733.898958) can0 0EF81510#02
(1438650733.900209) can0 12F81010#2800800000
(1438650733.908935) can0 0EF82010#00
(1438650733.910313) can0 12F83010#80
(1438650733.911266) can0 12F83110#08
(1438650733.912440) can0 12F96050#00000000410A00
(1438650733.919212) can0 12F83410#20
(1438650733.920276) can0 12F84110#00
(1438650733.921089) can0 12F84210#00
(1438650733.922087) can0 12F84310#00
(1438650733.925690) can0 1610FF54#
(1438650733.929143) can0 12F87810#00
(1438650733.941969) can0 0EF91250#0000000000000008
(1438650733.952020) can0 12F97450#8040
(1438650733.958165) can0 0EF82390#0102
(1438650733.961965) can0 12F85050#000320200008
(1438650733.962711) can0 12F97150#E0FF58
(1438650733.963841) can0 0EF86350#000000005555F066
(1438650733.978144) can0 0EF88190#00
(1438650733.981722) can0 12F96D50#04000000
(1438650733.989424) can0 0AF81110#180000000000
(1438650733.992203) can0 12F85450#1636000000160000
(1438650734.007417) can0 0EF87372#0447
(1438650734.012311) can0 12F96050#00000000410A00
(1438650734.019033) can0 0AF87010#0024
(1438650734.051921) can0 12F97450#8000
(1438650734.058951) can0 12F82C10#20
(1438650734.059950) can0 12F83210#08
(1438650734.062039) can0 12F85050#000322200008
(1438650734.062798) can0 12F97150#E0FF58
(1438650734.063930) can0 0EF86350#000000005555F363
(1438650734.069078) can0 0AF87110#00FF00
(1438650734.112346) can0 12F96050#00000000410A00
(1438650734.142432) can0 0EF91250#0000000000000008
(1438650734.143451) can0 12F86150#00001000000000FC
(1438650734.148995) can0 12F84010#40
(1438650734.151860) can0 12F97450#8040
(1438650734.152591) can0 12F85C50#00
(1438650734.153354) can0 12F88090#00
(1438650734.154431) can0 12F95F50#8284860000000000
(1438650734.155462) can0 16F86250#0D00000000000000
(1438650734.156073) can0 0AF97950#00
(1438650734.156932) can0 12F95A50#00000000
(1438650734.158090) can0 12F82290#80
(1438650734.158790) can0 0EF81490#00
(1438650734.159467) can0 1610FF10#
(1438650734.161857) can0 12F85050#000324200008
(1438650734.162616) can0 12F97150#E0FF58
(1438650734.163354) can0 12F97350#0000
(1438650734.163989) can0 12F97C50#18
(1438650734.165093) can0 0EF86350#000000005555F561
(1438650734.181869) can0 12F96D50#04000000
(1438650734.182730) can0 12F85150#4001000060
(1438650734.188352) can0 12F89090#00010004
(1438650734.198969) can0 0EF81510#02
(1438650734.200236) can0 12F81010#2800800000
(1438650734.208975) can0 0EF82010#00
(1438650734.209961) can0 12F83010#80
(1438650734.210938) can0 12F83110#08
(1438650734.212186) can0 12F96050#00000000410A00
(1438650734.218960) can0 12F83410#20
(1438650734.219969) can0 12F84110#00
(1438650734.220959) can0 12F84210#00
(1438650734.221959) can0 12F84310#00
(1438650734.228959) can0 12F87810#00
(1438650734.237119) can0 1610FF50#
(1438650734.251823) can0 12F97450#8040
(1438650734.258378) can0 0EF82390#0102
(1438650734.262234) can0 12F85050#000328200008
(1438650734.262712) can0 12F97150#E0FF58
(1438650734.263853) can0 0EF86350#000000005555F75F
(1438650734.278122) can0 0EF88190#00
(1438650734.289447) can0 0AF81110#180000000000
(1438650734.292317) can0 12F85450#1636000000160000
(1438650734.307079) can0 0EF87372#0447
(1438650734.312239) can0 12F96050#00000000410A00
(1438650734.319000) can0 0AF87010#0024
(1438650734.320853) can0 16F97D54#A22518199F914321
(1438650734.341965) can0 0EF91250#0000000000000008
(1438650734.351687) can0 12F97450#8040
(1438650734.358948) can0 12F82C10#20
(1438650734.360239) can0 12F83210#08
(1438650734.361992) can0 12F85050#000325200008
(1438650734.362682) can0 12F97150#E0FF58
(1438650734.363831) can0 0EF86350#000000005555FA5C
(1438650734.369477) can0 0AF87110#00FF00
(1438650734.381763) can0 12F96D50#04000000
(1438650734.412201) can0 12F96050#00000000410A00
(1438650734.442322) can0 12F86150#00001000000000FC
(1438650734.448955) can0 12F84010#40
(1438650734.451978) can0 12F97450#8000
(1438650734.452608) can0 12F85C50#00
(1438650734.453241) can0 12F88090#00
(1438650734.454377) can0 16F86250#0E00000000000000
(1438650734.455005) can0 0AF97950#00
(1438650734.455873) can0 12F95A50#00000000
(1438650734.458106) can0 0EF81490#00
(1438650734.462108) can0 12F85050#00031B200008
(1438650734.462853) can0 12F97150#E0FF58
(1438650734.463520) can0 12F97350#0000
(1438650734.464694) can0 0EF86350#000000005555FD59
(1438650734.482400) can0 12F85150#4001000060
(1438650734.486762) can0 1610FF72#
(1438650734.488483) can0 12F89090#00010004
(1438650734.498979) can0 0EF81510#02
(1438650734.500261) can0 12F81010#2800800000
(1438650734.508964) can0 0EF82010#00
(1438650734.509969) can0 12F83010#80
(1438650734.510952) can0 12F83110#08
(1438650734.512346) can0 12F96050#00000000410A00
(1438650734.518963) can0 12F83410#20
(1438650734.519994) can0 12F84110#00
(1438650734.520963) can0 12F84210#00
(1438650734.521962) can0 12F84310#00
(1438650734.528964) can0 12F87810#00
(1438650734.542122) can0 0EF91250#0000000000000008
(1438650734.551847) can0 12F97450#8040
(1438650734.558153) can0 0EF82390#0102
(1438650734.562032) can0 12F85050#000327200008
(1438650734.563152) can0 0EF86350#000000005555FF57
(1438650734.563954) can0 12F97150#E0FF58
(1438650734.564766) can0 12F85250#7F0038A8
(1438650734.578094) can0 0EF88190#00
(1438650734.581871) can0 12F96D50#04000000
(1438650734.589628) can0 0AF81110#180000000000
(1438650734.592449) can0 12F85450#1636000000160000
(1438650734.606770) can0 0EF87372#0447
(1438650734.612236) can0 12F96050#00000000410A00
(1438650734.619022) can0 0AF87010#0024
(1438650734.651789) can0 12F97450#8040
(1438650734.652903) can0 12F95F50#8284860000000000
(1438650734.658955) can0 12F82C10#20
(1438650734.659968) can0 12F83210#08
(1438650734.662019) can0 12F85050#000328200008
(1438650734.662774) can0 12F97150#E0FF58
(1438650734.663411) can0 12F97C50#18
(1438650734.664589) can0 0EF86350#0000000055550254
(1438650734.669097) can0 0AF87110#00FF00
(1438650734.712503) can0 12F96050#00000000410A00
(1438650734.742026) can0 0EF91250#0000000000000008
(1438650734.743144) can0 12F86150#00001000000000FC
(1438650734.748971) can0 12F84010#40
(1438650734.751903) can0 12F97450#8040
(1438650734.752522) can0 12F85C50#00
(1438650734.753144) can0 12F88090#00
(1438650734.754342) can0 16F86250#0F00000000000000
(1438650734.754974) can0 0AF97950#00
(1438650734.755797) can0 12F95A50#00000000
(1438650734.756399) can0 1610FF90#
(1438650734.758125) can0 0EF81490#00
(1438650734.761919) can0 12F85050#000320200008
(1438650734.762659) can0 12F97150#E0FF58
(1438650734.763389) can0 12F97350#0000
(1438650734.764516) can0 0EF86350#0000000055550452
(1438650734.781784) can0 12F96D50#04000000
(1438650734.782657) can0 12F85150#4001000060
(1438650734.788362) can0 12F89090#00010004
(1438650734.798987) can0 0EF81510#02
(1438650734.800259) can0 12F81010#2800800000
(1438650734.808966) can0 0EF82010#00
(1438650734.810256) can0 12F83010#80
(1438650734.810921) can0 12F83110#08
(1438650734.812415) can0 12F96050#00000000410A00
(1438650734.819033) can0 12F83410#20
(1438650734.820037) can0 12F84110#00
(1438650734.821025) can0 12F84210#00
(1438650734.822035) can0 12F84310#00
(1438650734.829044) can0 12F87810#00
(1438650734.851982) can0 12F97450#8000
(1438650734.858162) can0 0EF82390#0102
(1438650734.861867) can0 12F85050#000326200008
(1438650734.862635) can0 12F97150#E0FF58
(1438650734.863259) can0 12F97650#04
(1438650734.864373) can0 0EF86350#0000000055550650
(1438650734.878107) can0 0EF88190#00
(1438650734.889417) can0 0AF81110#180000000000
(1438650734.892240) can0 12F85450#1636000000160000
(1438650734.906430) can0 0EF87372#0447
(1438650734.912171) can0 12F96050#00000000410A00
(1438650734.919042) can0 0AF87010#0024
(1438650734.926249) can0 1610FF54#
(1438650734.942270) can0 0EF91250#0000000000000008
(1438650734.951882) can0 12F97450#8000
(1438650734.958990) can0 12F82C10#20
(1438650734.959992) can0 12F83210#08
(1438650734.961987) can0 12F85050#000327200008
(1438650734.962738) can0 12F97150#E0FF58
(1438650734.963856) can0 0EF86350#000000005555094D
(1438650734.969115) can0 0AF87110#00FF00
(1438650734.981691) can0 12F96D50#04000000
(1438650735.012157) can0 12F96050#00000000410A00
(1438650735.042376) can0 12F86150#00001000000000FC
(1438650735.049037) can0 12F84010#40
(1438650735.052040) can0 12F97450#8040
(1438650735.052740) can0 12F85C50#00
(1438650735.053409) can0 12F88090#00
(1438650735.054527) can0 16F86250#0000000010000000
(1438650735.055059) can0 0AF97950#00
(1438650735.055923) can0 12F95A50#00000000
(1438650735.058139) can0 0EF81490#00
(1438650735.062025) can0 12F85050#000329200008
(1438650735.062783) can0 12F97150#E0FF58
(1438650735.063448) can0 12F97350#0000
(1438650735.064570) can0 0EF86350#0000000055550C4A
(1438650735.081887) can0 12F85150#4001000060
(1438650735.088324) can0 12F89090#00010004
(1438650735.098953) can0 0EF81510#02
(1438650735.101008) can0 12F81010#2800800000
(1438650735.108994) can0 0EF82010#00
(1438650735.109950) can0 12F83010#80
(1438650735.110940) can0 12F83110#08
(1438650735.112197) can0 12F96050#00000000410A00
(1438650735.118948) can0 12F83410#20
(1438650735.120003) can0 12F84110#00
(1438650735.120944) can0 12F84210#00
(1438650735.121946) can0 12F84310#00
(1438650735.128947) can0 12F87810#00
(1438650735.142181) can0 0EF91250#0000000000000008
(1438650735.143267) can0 12F96150#415F0000000000
(1438650735.151951) can0 12F97450#8000
(1438650735.153205) can0 12F96B50#7FF8F10000000000
(1438650735.154430) can0 12F95F50#8284860000000000
(1438650735.158334) can0 12F82290#80
(1438650735.158804) can0 0EF82390#0102
(1438650735.159573) can0 1610FF10#
(1438650735.162056) can0 12F85050#000353200008
(1438650735.162699) can0 12F97150#E0FF58
(1438650735.163457) can0 12F97C50#18
(1438650735.164549) can0 0EF86350#0000000055550E48
(1438650735.178169) can0 0EF88190#00
(1438650735.181758) can0 12F96D50#04000000
(1438650735.189422) can0 0AF81110#180000000000
(1438650735.192396) can0 12F85450#1636000000160000
(1438650735.206140) can0 0EF87372#0447
(1438650735.212274) can0 12F96050#00000000410A00
(1438650735.219053) can0 0AF87010#0024
(1438650735.241297) can0 1610FF50#
(1438650735.251900) can0 12F97450#8000
(1438650735.258950) can0 12F82C10#20
(1438650735.260215) can0 12F83210#08
(1438650735.262058) can0 12F85050#00032F200008
(1438650735.263411) can0 0EF86350#0000000055551145
(1438650735.263836) can0 12F97150#E0FF58
(1438650735.269536) can0 0AF87110#00FF00
(1438650735.312293) can0 12F96050#00000000410A00
(1438650735.320589) can0 16F97D54#A22518199F9143A1
(1438650735.342091) can0 0EF91250#0000000000000008
(1438650735.343225) can0 12F86150#00001000000000FC
(1438650735.348945) can0 12F84010#40
(1438650735.351687) can0 12F97450#8000
(1438650735.352326) can0 12F85C50#00
(1438650735.353427) can0 16F86250#01334847474B3500
(1438650735.354040) can0 0AF97950#00
(1438650735.354683) can0 12F88090#00
(1438650735.355540) can0 12F95A50#00000000
(1438650735.358148) can0 0EF81490#00
(1438650735.361800) can0 12F85050#00033E200008
(1438650735.362562) can0 12F97150#E0FF58
(1438650735.363267) can0 12F97350#0000
(1438650735.364398) can0 0EF86350#0000000055551343
(1438650735.381844) can0 12F96D50#04000000
(1438650735.382693) can0 12F85150#4001000060
(1438650735.388552) can0 12F89090#00010004
(1438650735.398971) can0 0EF81510#02
(1438650735.400289) can0 12F81010#2800800000
(1438650735.408977) can0 0EF82010#00
(1438650735.410447) can0 12F83010#80
(1438650735.410965) can0 12F83110#08
(1438650735.412163) can0 12F96050#00000000410A00
(1438650735.418974) can0 12F83410#20
(1438650735.420326) can0 12F84110#00
(1438650735.420933) can0 12F84210#00
(1438650735.421966) can0 12F84310#00
(1438650735.428961) can0 12F87810#00
(1438650735.451797) can0 12F97450#8040
(1438650735.458110) can0 0EF82390#0102
(1438650735.461918) can0 12F85050#000331200008
(1438650735.462663) can0 12F97150#E0FF58
(1438650735.463794) can0 0EF86350#0000000055551541
(1438650735.478090) can0 0EF88190#00
(1438650735.485663) can0 1610FF72#
(1438650735.489578) can0 0AF81110#180000000000
(1438650735.492541) can0 12F85450#1636000000160000
(1438650735.505829) can0 0EF87372#0447
(1438650735.512279) can0 12F96050#00000000410A00
(1438650735.519070) can0 0AF87010#0024
(1438650735.542095) can0 0EF91250#0000000000000008
(1438650735.551858) can0 12F97450#8000
(1438650735.558972) can0 12F82C10#20
(1438650735.559987) can0 12F83210#08
(1438650735.561824) can0 12F85050#00032A200008
(1438650735.562962) can0 0EF86350#000000005555183E
(1438650735.563718) can0 12F97150#E0FF58
(1438650735.564580) can0 12F85250#7F0038A8
(1438650735.569104) can0 0AF87110#00FF00
(1438650735.581854) can0 12F96D50#04000000
(1438650735.612925) can0 12F96050#00000000410A00
(1438650735.642120) can0 12F86150#00001000000000FC
(1438650735.648964) can0 12F84010#40
(1438650735.651935) can0 12F97450#8040
(1438650735.652565) can0 12F85C50#00
(1438650735.653194) can0 12F88090#00
(1438650735.654334) can0 12F95F50#8284860000000000
(1438650735.655452) can0 16F86250#02483839464D3700
(1438650735.656100) can0 0AF97950#00
(1438650735.656938) can0 12F95A50#00000000
(1438650735.658101) can0 0EF81490#00
(1438650735.661810) can0 12F85050#00032A200008
(1438650735.662560) can0 12F97150#E0FF58
(1438650735.663231) can0 12F97350#0000
(1438650735.663867) can0 12F97C50#18
(1438650735.664989) can0 0EF86350#0000000055551A3C
(1438650735.681942) can0 12F85150#4001000060
(1438650735.688352) can0 12F89090#00010004
(1438650735.698991) can0 0EF81510#02
(1438650735.700254) can0 12F81010#2800800000
(1438650735.708977) can0 0EF82010#00
(1438650735.710225) can0 12F83010#80
(1438650735.710997) can0 12F83110#08
(1438650735.712555) can0 12F96050#00000000410A00
(1438650735.719102) can0 12F83410#20
(1438650735.719985) can0 12F84110#00
(1438650735.721000) can0 12F84210#00
(1438650735.722109) can0 12F84310#00
(1438650735.729002) can0 12F87810#00
(1438650735.741992) can0 0EF91250#0000000000000008
(1438650735.751750) can0 12F97450#8040
(1438650735.756621) can0 1610FF90#
(1438650735.758113) can0 0EF82390#0102
(1438650735.761876) can0 12F85050#000325200008
(1438650735.762623) can0 12F97150#E0FF58
(1438650735.763742) can0 0EF86350#0000000055551D39
(1438650735.778091) can0 0EF88190#00
(1438650735.781604) can0 12F96D50#04000000
(1438650735.789468) can0 0AF81110#180000000000
(1438650735.792352) can0 12F85450#1636000000160000
(1438650735.805492) can0 0EF87372#0447
(1438650735.812375) can0 12F96050#00000000410A00
(1438650735.819096) can0 0AF87010#0024
(1438650735.851740) can0 12F97450#8000
(1438650735.858998) can0 12F82C10#20
(1438650735.859998) can0 12F83210#08
(1438650735.861770) can0 12F85050#00032A200008
(1438650735.862571) can0 12F97150#E0FF58
(1438650735.863208) can0 12F97650#04
(1438650735.864333) can0 0EF86350#0000000055551F37
(1438650735.869121) can0 0AF87110#00FF00
(1438650735.912131) can0 12F96050#00000000410A00
(1438650735.926850) can0 1610FF54#
(1438650735.942016) can0 0EF91250#0000000000000008
(1438650735.943277) can0 12F86150#00001000000000FC
(1438650735.949005) can0 12F84010#40
(1438650735.951773) can0 12F97450#8000
(1438650735.952588) can0 12F85C50#00
(1438650735.953615) can0 16F86250#0333333134300000
(1438650735.954145) can0 0AF97950#00
(1438650735.954754) can0 12F88090#00
(1438650735.955695) can0 12F95A50#00000000
(1438650735.958127) can0 0EF81490#00
(1438650735.961861) can0 12F85050#00031D200008
(1438650735.962621) can0 12F97150#E0FF58
(1438650735.963329) can0 12F97350#0000
(1438650735.964451) can0 0EF86350#0000000055552234
(1438650735.981645) can0 12F96D50#04000000
(1438650735.982577) can0 12F85150#4001000060
(1438650735.988343) can0 12F89090#00010004
(1438650735.999014) can0 0EF81510#02
(1438650736.000279) can0 12F81010#2800800000
(1438650736.009028) can0 0EF82010#00
(1438650736.010007) can0 12F83010#80
(1438650736.010990) can0 12F83110#08
(1438650736.012258) can0 12F96050#00000000410A00
(1438650736.019001) can0 12F83410#20
(1438650736.020013) can0 12F84110#00
(1438650736.020997) can0 12F84210#00
(1438650736.022379) can0 12F84310#00
(1438650736.029004) can0 12F87810#00
(1438650736.051721) can0 12F97450#8000
(1438650736.058510) can0 0EF82390#0102
(1438650736.061788) can0 12F85050#000323200008
(1438650736.062640) can0 12F97150#E0FF58
(1438650736.063711) can0 0EF86350#0000000055552432
(1438650736.078165) can0 0EF88190#00
(1438650736.089496) can0 0AF81110#180000000000
(1438650736.092257) can0 12F85450#1636000000160000
(1438650736.105207) can0 0EF87372#0447
(1438650736.112159) can0 12F96050#00000000410A00
(1438650736.119083) can0 0AF87010#0024
(1438650736.142162) can0 0EF91250#0000000000000008
(1438650736.151896) can0 12F97450#8000
(1438650736.153010) can0 12F95F50#8284860000000000
(1438650736.158034) can0 12F82290#80
(1438650736.159004) can0 12F82C10#20
(1438650736.160297) can0 12F83210#08
(1438650736.160992) can0 1610FF10#
(1438650736.161923) can0 12F85050#000324200008
(1438650736.162660) can0 12F97150#E0FF58
(1438650736.163541) can0 12F97C50#18
(1438650736.164643) can0 0EF86350#000000005555272F
(1438650736.169523) can0 0AF87110#00FF00
(1438650736.181748) can0 12F96D50#04000000
(1438650736.212226) can0 12F96050#00000000410A00
(1438650736.242169) can0 12F86150#00001000000000FC
(1438650736.245407) can0 1610FF50#
(1438650736.248989) can0 12F84010#40
(1438650736.251792) can0 12F97450#8000
(1438650736.252417) can0 12F85C50#00
(1438650736.253551) can0 16F86250#0431144003050000
(1438650736.254171) can0 0AF97950#00
(1438650736.254800) can0 12F88090#00
(1438650736.255665) can0 12F95A50#00000000
(1438650736.258136) can0 0EF81490#00
(1438650736.261758) can0 12F85050#000321200008
(1438650736.262505) can0 12F97150#E0FF58
(1438650736.263176) can0 12F97350#0000
(1438650736.264305) can0 0EF86350#000000005555292D
(1438650736.281851) can0 12F85150#4001000060
(1438650736.288357) can0 12F89090#00010004
(1438650736.299030) can0 0EF81510#02
(1438650736.300555) can0 12F81010#2800800000
(1438650736.309034) can0 0EF82010#00
(1438650736.310020) can0 12F83010#80
(1438650736.310995) can0 12F83110#08
(1438650736.312052) can0 12F96050#00000000410A00
(1438650736.319019) can0 12F83410#20
(1438650736.320028) can0 12F84110#00
(1438650736.321119) can0 16F97D54#A22518199F914421
(1438650736.321748) can0 12F84210#00
(1438650736.323014) can0 12F84310#00
(1438650736.329013) can0 12F87810#00
(1438650736.342018) can0 0EF91250#0000000000000008
(1438650736.351754) can0 12F97450#8040
(1438650736.358153) can0 0EF82390#0102
(1438650736.361911) can0 12F85050#00031D200008
(1438650736.362745) can0 12F97150#E0FF58
(1438650736.363788) can0 0EF86350#0000000055552C2A
(1438650736.378059) can0 0EF88190#00
(1438650736.381857) can0 12F96D50#04000000
(1438650736.389498) can0 0AF81110#180000000000
(1438650736.392296) can0 12F85450#1636000000160000
(1438650736.404858) can0 0EF87372#0447
(1438650736.412567) can0 12F96050#00000000410A00
(1438650736.419067) can0 0AF87010#0024
(1438650736.451808) can0 12F97450#8000
(1438650736.459006) can0 12F82C10#20
(1438650736.460022) can0 12F83210#08
(1438650736.461807) can0 12F85050#000324200008
(1438650736.462550) can0 12F97150#E0FF58
(1438650736.463674) can0 0EF86350#0000000055552E28
(1438650736.469155) can0 0AF87110#00FF00
(1438650736.484621) can0 1610FF72#
(1438650736.512075) can0 12F96050#00000000410A00
(1438650736.542378) can0 0EF91250#0000000000000008
(1438650736.543075) can0 12F86150#00001000000000FC
(1438650736.549010) can0 12F84010#40
(1438650736.551816) can0 12F97450#8000
(1438650736.552443) can0 12F85C50#00
(1438650736.553625) can0 16F86250#0500000000000000
(1438650736.554202) can0 0AF97950#00
(1438650736.554883) can0 12F88090#00
(1438650736.555752) can0 12F95A50#00000000
(1438650736.558140) can0 0EF81490#00
(1438650736.561883) can0 12F85050#00031F200008
(1438650736.562996) can0 0EF86350#0000000055553125
(1438650736.563762) can0 12F97150#E0FF58
(1438650736.564435) can0 12F97350#0000
(1438650736.565304) can0 12F85250#7F0038A8
(1438650736.581708) can0 12F96D50#04000000
(1438650736.582631) can0 12F85150#4001000060
(1438650736.588317) can0 12F89090#00010004
(1438650736.599040) can0 0EF81510#02
(1438650736.600319) can0 12F81010#2800800000
(1438650736.609024) can0 0EF82010#00
(1438650736.610023) can0 12F83010#80
(1438650736.611008) can0 12F83110#08
(1438650736.612179) can0 12F96050#00000000410A00
(1438650736.619020) can0 12F83410#20
(1438650736.620032) can0 12F84110#00
(1438650736.621021) can0 12F84210#00
(1438650736.622020) can0 12F84310#00
(1438650736.629023) can0 12F87810#00
(1438650736.651799) can0 12F97450#8000
(1438650736.652917) can0 12F95F50#8284860000000000
(1438650736.658155) can0 0EF82390#0102
(1438650736.661828) can0 12F85050#00031D200008
(1438650736.662571) can0 12F97150#E0FF58
(1438650736.663204) can0 12F97C50#18
(1438650736.664331) can0 0EF86350#0000000055553323
(1438650736.678091) can0 0EF88190#00
(1438650736.689508) can0 0AF81110#180000000000
(1438650736.692554) can0 12F85450#1636000000160000
(1438650736.704545) can0 0EF87372#0447
(1438650736.712195) can0 12F96050#00000000410A00
(1438650736.719083) can0 0AF87010#0024
(1438650736.742096) can0 0EF91250#0000000000000008
(1438650736.751816) can0 12F97450#8000
(1438650736.756655) can0 1610FF90#
(1438650736.759032) can0 12F82C10#20
(1438650736.759966) can0 12F83210#08
(1438650736.761955) can0 12F85050#000322200008
(1438650736.762693) can0 12F97150#E0FF58
(1438650736.763842) can0 0EF86350#0000000055553620
(1438650736.769161) can0 0AF87110#00FF00
(1438650736.781718) can0 12F96D50#04000000
(1438650736.812404) can0 12F96050#00000000410A00
(1438650736.841950) can0 12F86150#00001000000000FC
(1438650736.849045) can0 12F84010#40
(1438650736.851948) can0 12F97450#8040
(1438650736.852815) can0 12F95A50#00000000
(1438650736.853443) can0 12F85C50#00
(1438650736.854064) can0 0AF97950#00
(1438650736.854706) can0 12F88090#00
(1438650736.855900) can0 16F86250#0600000000000000
(1438650736.858091) can0 0EF81490#00
(1438650736.861841) can0 12F85050#000320200008
(1438650736.862686) can0 12F97150#E0FF58
(1438650736.863571) can0 12F97350#0000
(1438650736.864039) can0 12F97650#04
(1438650736.865069) can0 0EF86350#000000005555381E
(1438650736.881730) can0 12F85150#4001000060
(1438650736.888343) can0 12F89090#00010004
(1438650736.899043) can0 0EF81510#02
(1438650736.900319) can0 12F81010#2800800000
(1438650736.908984) can0 0EF82010#00
(1438650736.910036) can0 12F83010#80
(1438650736.910983) can0 12F83110#08
(1438650736.912298) can0 12F96050#00000000410A00
(1438650736.919034) can0 12F83410#20
(1438650736.919983) can0 12F84110#00
(1438650736.920980) can0 12F84210#00
(1438650736.921978) can0 12F84310#00
(1438650736.927325) can0 1610FF54#
(1438650736.929049) can0 12F87810#00
(1438650736.942078) can0 0EF91250#0000000000000008
(1438650736.951824) can0 12F97450#8000
(1438650736.958115) can0 0EF82390#0102
(1438650736.961927) can0 12F85050#000326200008
(1438650736.962675) can0 12F97150#E0FF58
(1438650736.963795) can0 0EF86350#0000000055553B1B
(1438650736.978098) can0 0EF88190#00
(1438650736.981683) can0 12F96D50#04000000
(1438650736.989788) can0 0AF81110#180000000000
(1438650736.992595) can0 12F85450#1636000000160000
(1438650737.004239) can0 0EF87372#0447
(1438650737.012183) can0 12F96050#00000000410A00
(1438650737.019109) can0 0AF87010#0024
(1438650737.051970) can0 12F97450#8000
(1438650737.059047) can0 12F82C10#20
(1438650737.059993) can0 12F83210#08
(1438650737.061724) can0 12F85050#000325200008
(1438650737.062477) can0 12F97150#E0FF58
(1438650737.063600) can0 0EF86350#0000000055553D19
(1438650737.069166) can0 0AF87110#00FF00
(1438650737.112470) can0 12F96050#00000000410A00
(1438650737.141980) can0 0EF91250#0000000000000008
(1438650737.143091) can0 12F86150#00001000000000FC
(1438650737.149056) can0 12F84010#40
(1438650737.151724) can0 12F97450#8040
(1438650737.152359) can0 12F85C50#00
(1438650737.153481) can0 12F95F50#8284860000000000
(1438650737.154121) can0 12F88090#00
(1438650737.155313) can0 16F86250#0700000000000000
(1438650737.156244) can0 12F96750#B2270F890000
(1438650737.156878) can0 0AF97950#00
(1438650737.157744) can0 12F95A50#00000000
(1438650737.158373) can0 12F82290#80
(1438650737.158980) can0 1610FF10#
(1438650737.159630) can0 0EF81490#00
(1438650737.161923) can0 12F85050#000324200008
(1438650737.162688) can0 12F97150#E0FF58
(1438650737.163363) can0 12F97350#0000
(1438650737.163998) can0 12F97C50#18
(1438650737.165124) can0 0EF86350#0000000055554016
(1438650737.181810) can0 12F96D50#04000000
(1438650737.182698) can0 12F85150#4001000060
(1438650737.188365) can0 12F89090#00010004
(1438650737.199012) can0 0EF81510#02
(1438650737.200322) can0 12F81010#2800800000
(1438650737.209000) can0 0EF82010#00
(1438650737.210258) can0 12F83010#80
(1438650737.210956) can0 12F83110#08
(1438650737.212508) can0 12F96050#00000000410A00
(1438650737.219062) can0 12F83410#20
(1438650737.219996) can0 12F84110#00
(1438650737.221007) can0 12F84210#00
(1438650737.222009) can0 12F84310#00
(1438650737.229014) can0 12F87810#00
(1438650737.251200) can0 1610FF50#
(1438650737.252439) can0 12F97450#8040
(1438650737.258238) can0 0EF82390#0102
(1438650737.261945) can0 12F85050#000320200008
(1438650737.262682) can0 12F97150#E0FF58
(1438650737.263811) can0 0EF86350#0000000055554214
(1438650737.278129) can0 0EF88190#00
(1438650737.289506) can0 0AF81110#180000000000
(1438650737.292232) can0 12F85450#1636000000160000
(1438650737.303884) can0 0EF87372#0447
(1438650737.312212) can0 12F96050#00000000410A00
(1438650737.319085) can0 0AF87010#0024
(1438650737.320768) can0 16F97D54#A22518199F9144A1
(1438650737.342019) can0 0EF91250#0000000000000008
(1438650737.351770) can0 12F97450#8000
(1438650737.359076) can0 12F82C10#20
(1438650737.360011) can0 12F83210#08
(1438650737.361877) can0 12F85050#000323200008
(1438650737.362629) can0 12F97150#E0FF58
(1438650737.363749) can0 0EF86350#0000000055554511
(1438650737.369141) can0 0AF87110#00FF00
(1438650737.381639) can0 12F96D50#04000000
(1438650737.412208) can0 12F96050#00000000410A00
(1438650737.442009) can0 12F86150#00001000000000FC
(1438650737.449010) can0 12F84010#40
(1438650737.451660) can0 12F97450#8000
(1438650737.452602) can0 12F85C50#00
(1438650737.453716) can0 16F86250#0800000000000000
(1438650737.454134) can0 0AF97950#00
(1438650737.454779) can0 12F88090#00
(1438650737.456262) can0 12F95A50#00000000
(1438650737.458131) can0 0EF81490#00
(1438650737.461660) can0 12F85050#000321200008
(1438650737.462729) can0 12F97150#E0FF58
(1438650737.463259) can0 12F97350#0000
(1438650737.464464) can0 0EF86350#000000005555470F
(1438650737.481744) can0 12F85150#4001000060
(1438650737.483517) can0 1610FF72#
(1438650737.488345) can0 12F89090#00010004
(1438650737.499027) can0 0EF81510#02
(1438650737.500350) can0 12F81010#2800800000
(1438650737.509028) can0 0EF82010#00
(1438650737.510022) can0 12F83010#80
(1438650737.511012) can0 12F83110#08
(1438650737.512105) can0 12F96050#00000000410A00
(1438650737.519020) can0 12F83410#20
(1438650737.520028) can0 12F84110#00
(1438650737.521013) can0 12F84210#00
(1438650737.522013) can0 12F84310#00
(1438650737.529020) can0 12F87810#00
(1438650737.542036) can0 0EF91250#0000000000000008
(1438650737.551766) can0 12F97450#8000
(1438650737.558610) can0 0EF82390#0102
(1438650737.561856) can0 12F85050#00031E200008
(1438650737.562959) can0 0EF86350#0000000055554A0C
(1438650737.563753) can0 12F97150#E0FF58
(1438650737.564750) can0 12F85250#7F0038A8
(1438650737.578102) can0 0EF88190#00
(1438650737.581751) can0 12F96D50#04000000
(1438650737.589649) can0 0AF81110#180000000000
(1438650737.592234) can0 12F85450#1636000000160000
(1438650737.603607) can0 0EF87372#0447
(1438650737.612218) can0 12F96050#00000000410A00
(1438650737.619127) can0 0AF87010#0024
(1438650737.651778) can0 12F97450#8000
(1438650737.652885) can0 12F95F50#8284860000000000
(1438650737.659015) can0 12F82C10#20
(1438650737.660022) can0 12F83210#08
(1438650737.661789) can0 12F85050#000312200008
(1438650737.662549) can0 12F97150#E0FF58
(1438650737.663224) can0 12F97C50#18
(1438650737.664361) can0 0EF86350#0000000055554C0A
(1438650737.669138) can0 0AF87110#00FF00
(1438650737.712125) can0 12F96050#00000000410A00
(1438650737.741993) can0 0EF91250#0000000000000008
(1438650737.743138) can0 12F86150#00001000000000FC
(1438650737.749099) can0 12F84010#40
(1438650737.751746) can0 12F97450#8000
(1438650737.752387) can0 12F85C50#00
(1438650737.753513) can0 16F86250#0900000000000000
(1438650737.754140) can0 0AF97950#00
(1438650737.754785) can0 12F88090#00
(1438650737.755646) can0 12F95A50#00000000
(1438650737.756872) can0 1610FF90#
(1438650737.758109) can0 0EF81490#00
(1438650737.761888) can0 12F85050#000321200008
(1438650737.762634) can0 12F97150#E0FF58
(1438650737.763624) can0 12F97350#0000
(1438650737.764477) can0 0EF86350#0000000055554F07
(1438650737.781740) can0 12F96D50#04000000
(1438650737.782625) can0 12F85150#4001000060
(1438650737.788306) can0 12F89090#00010004
(1438650737.799051) can0 0EF81510#02
(1438650737.800416) can0 12F81010#2800800000
(1438650737.809061) can0 0EF82010#00
(1438650737.810119) can0 12F83010#80
(1438650737.811065) can0 12F83110#08
(1438650737.812183) can0 12F96050#00000000410A00
(1438650737.819062) can0 12F83410#20
(1438650737.820042) can0 12F84110#00
(1438650737.821039) can0 12F84210#00
(1438650737.822038) can0 12F84310#00
(1438650737.829045) can0 12F87810#00
(1438650737.851695) can0 12F97450#8040
(1438650737.858158) can0 0EF82390#0102
(1438650737.861753) can0 12F85050#000323200008
(1438650737.862508) can0 12F97150#E0FF58
(1438650737.863150) can0 12F97650#04
(1438650737.864280) can0 0EF86350#0000000055555105
(1438650737.878060) can0 0EF88190#00
(1438650737.889533) can0 0AF81110#180000000000
(1438650737.892243) can0 12F85450#1636000000160000
(1438650737.903261) can0 0EF87372#0447
(1438650737.912293) can0 12F96050#00000000410A00
(1438650737.919144) can0 0AF87010#0024
(1438650737.927992) can0 1610FF54#
(1438650737.941993) can0 0EF91250#0000000000000008
(1438650737.951694) can0 12F97450#8000
(1438650737.959058) can0 12F82C10#20
(1438650737.960051) can0 12F83210#08
(1438650737.961889) can0 12F85050#000327200008
(1438650737.962656) can0 12F97150#E0FF58
(1438650737.963792) can0 0EF86350#0000000055555402
(1438650737.969202) can0 0AF87110#00FF00
(1438650737.981624) can0 12F96D50#04000000
(1438650738.012191) can0 12F96050#00000000410A00
(1438650738.042051) can0 12F86150#00001000000000FC
(1438650738.049067) can0 12F84010#40
(1438650738.051699) can0 12F97450#8000
(1438650738.052336) can0 12F85C50#00
(1438650738.053528) can0 16F86250#0A00000000808000
(1438650738.054072) can0 0AF97950#00
(1438650738.054772) can0 12F88090#00
(1438650738.055631) can0 12F95A50#00000000
(1438650738.058085) can0 0EF81490#00
(1438650738.061696) can0 12F85050#00032D200008
(1438650738.062443) can0 12F97150#E0FF58
(1438650738.063170) can0 12F97350#0000
(1438650738.064312) can0 0EF86350#0000000055555600
(1438650738.081805) can0 12F85150#4001000060
(1438650738.088327) can0 12F89090#00010004
(1438650738.099076) can0 0EF81510#02
(1438650738.100433) can0 12F81010#2800800000
(1438650738.109075) can0 0EF82010#00
(1438650738.110066) can0 12F83010#80
(1438650738.111046) can0 12F83110#08
(1438650738.112275) can0 12F96050#00000000410A00
(1438650738.119066) can0 12F83410#20
(1438650738.120066) can0 12F84110#00
(1438650738.121053) can0 12F84210#00
(1438650738.122061) can0 12F84310#00
(1438650738.129065) can0 12F87810#00
(1438650738.142073) can0 0EF91250#0000000000000008
(1438650738.151815) can0 12F97450#8000
(1438650738.152942) can0 12F95F50#8284860000000000
(1438650738.158066) can0 12F82290#80
(1438650738.158807) can0 0EF82390#0102
(1438650738.159828) can0 1610FF10#
(1438650738.161896) can0 12F85050#000324200008
(1438650738.162815) can0 12F97150#E0FF58
(1438650738.163341) can0 12F97C50#18
(1438650738.164666) can0 0EF86350#00000000555559FD
(1438650738.178093) can0 0EF88190#00
(1438650738.181590) can0 12F96D50#04000000
(1438650738.189538) can0 0AF81110#180000000000
(1438650738.192140) can0 12F85450#1636000000160000
(1438650738.202965) can0 0EF87372#0447
(1438650738.212034) can0 12F96050#00000000410A00
(1438650738.219145) can0 0AF87010#0024
(1438650738.251833) can0 12F97450#8000
(1438650738.255217) can0 1610FF50#
(1438650738.259039) can0 12F82C10#20
(1438650738.260317) can0 12F83210#08
(1438650738.261847) can0 12F85050#000321200008
(1438650738.262964) can0 0EF86350#0000000055555BFB
(1438650738.263794) can0 12F97150#E0FF58
(1438650738.269198) can0 0AF87110#00FF00
(1438650738.312301) can0 12F96050#00000000410A00
(1438650738.320437) can0 16F97D54#A22518199F914521
(1438650738.341944) can0 0EF91250#0000000000000008
(1438650738.343072) can0 12F86150#00001000000000FC
(1438650738.349049) can0 12F84010#40
(1438650738.351799) can0 12F97450#8000
(1438650738.352440) can0 12F85C50#00
(1438650738.353585) can0 16F86250#0B00000000000000
(1438650738.354222) can0 0AF97950#00
(1438650738.354852) can0 12F88090#00
(1438650738.355712) can0 12F95A50#00000000
(1438650738.358089) can0 0EF81490#00
(1438650738.361842) can0 12F85050#00031F200008
(1438650738.362577) can0 12F97150#E0FF58
(1438650738.363292) can0 12F97350#0000
(1438650738.364424) can0 0EF86350#0000000055555EF8
(1438650738.381836) can0 12F96D50#04000000
(1438650738.382789) can0 12F85150#4001000060
(1438650738.388351) can0 12F89090#00010004
(1438650738.399083) can0 0EF81510#02
(1438650738.400348) can0 12F81010#2800800000
(1438650738.409056) can0 0EF82010#00
(1438650738.410052) can0 12F83010#80
(1438650738.411045) can0 12F83110#08
(1438650738.412092) can0 12F96050#00000000410A00
(1438650738.419053) can0 12F83410#20
(1438650738.420188) can0 12F84110#00
(1438650738.421072) can0 12F84210#00
(1438650738.422082) can0 12F84310#00
(1438650738.429070) can0 12F87810#00
(1438650738.451735) can0 12F97450#8000
(1438650738.458113) can0 0EF82390#0102
(1438650738.461939) can0 12F85050#000322200008
(1438650738.462684) can0 12F97150#E0FF58
(1438650738.463833) can0 0EF86350#00000000555560F6
(1438650738.478065) can0 0EF88190#00
(1438650738.482737) can0 1610FF72#
(1438650738.489812) can0 0AF81110#180000000000
(1438650738.492249) can0 12F85450#1636000000160000
(1438650738.502676) can0 0EF87372#0447
(1438650738.512053) can0 12F96050#00000000410A00
(1438650738.519118) can0 0AF87010#0024
(1438650738.541943) can0 0EF91250#0000000000000008
(1438650738.551695) can0 12F97450#8000
(1438650738.559070) can0 12F82C10#20
(1438650738.560069) can0 12F83210#08
(1438650738.561803) can0 12F85050#00031C200008
(1438650738.562935) can0 0EF86350#00000000555563F3
(1438650738.563702) can0 12F97150#E0FF58
(1438650738.564551) can0 12F85250#7F0038A8
(1438650738.569206) can0 0AF87110#00FF00
(1438650738.581621) can0 12F96D50#04000000
(1438650738.612187) can0 12F96050#00000000410A00
(1438650738.642094) can0 12F86150#00001000000000FC
(1438650738.649064) can0 12F84010#40
(1438650738.651729) can0 12F97450#8000
(1438650738.652352) can0 12F85C50#00
(1438650738.653507) can0 12F95F50#8284860000000000
(1438650738.654178) can0 12F88090#00
(1438650738.655352) can0 16F86250#0C00000000000000
(1438650738.656207) can0 12F95A50#00000000
(1438650738.656838) can0 0AF97950#00
(1438650738.658096) can0 0EF81490#00
(1438650738.661753) can0 12F85050#00031C200008
(1438650738.662504) can0 12F97150#E0FF58
(1438650738.663237) can0 12F97350#0000
(1438650738.663879) can0 12F97C50#18
(1438650738.664991) can0 0EF86350#00000000555565F1
(1438650738.681736) can0 12F85150#4001000060
(1438650738.688365) can0 12F89090#00010004
(1438650738.699096) can0 0EF81510#02
(1438650738.700356) can0 12F81010#2800800000
(1438650738.709077) can0 0EF82010#00
(1438650738.710235) can0 12F83010#80
(1438650738.711008) can0 12F83110#08
(1438650738.712134) can0 12F96050#00000000410A00
(1438650738.719105) can0 12F83410#20
(1438650738.720109) can0 12F84110#00
(1438650738.721081) can0 12F84210#00
(1438650738.722081) can0 12F84310#00
(1438650738.729093) can0 12F87810#00
(1438650738.742014) can0 0EF91250#0000000000000008
(1438650738.751748) can0 12F97450#8000
(1438650738.757147) can0 1610FF90#
(1438650738.758104) can0 0EF82390#0102
(1438650738.761690) can0 12F85050#000323200008
(1438650738.762437) can0 12F97150#E0FF58
(1438650738.763521) can0 0EF86350#00000000555568EE
(1438650738.778068) can0 0EF88190#00
(1438650738.781575) can0 12F96D50#04000000
(1438650738.789603) can0 0AF81110#180000000000
(1438650738.792016) can0 12F85450#1636000000160000
(1438650738.802339) can0 0EF87372#0447
(1438650738.811964) can0 12F96050#00000000410A00
(1438650738.819120) can0 0AF87010#0024
(1438650738.851832) can0 12F97450#8000
(1438650738.859086) can0 12F82C10#20
(1438650738.860072) can0 12F83210#08
(1438650738.861999) can0 12F85050#000322200008
(1438650738.862760) can0 12F97150#E0FF58
(1438650738.863396) can0 12F97650#04
(1438650738.864514) can0 0EF86350#0000000055556BEB
(1438650738.869204) can0 0AF87110#00FF00
(1438650738.912224) can0 12F96050#00000000410A00
(1438650738.928601) can0 1610FF54#
(1438650738.942152) can0 0EF91250#0000000000000008
(1438650738.943264) can0 12F86150#00001000000000FC
(1438650738.949089) can0 12F84010#40
(1438650738.951762) can0 12F97450#8000
(1438650738.952275) can0 12F85C50#00
(1438650738.953707) can0 16F86250#0D00000000000000
(1438650738.954139) can0 0AF97950#00
(1438650738.954760) can0 12F88090#00
(1438650738.955772) can0 12F95A50#00000000
(1438650738.958131) can0 0EF81490#00
(1438650738.961776) can0 12F85050#000322200008
(1438650738.962724) can0 12F97150#E0FF58
(1438650738.963251) can0 12F97350#0000
(1438650738.964386) can0 0EF86350#0000000055556DE9
(1438650738.981831) can0 12F96D50#04000000
(1438650738.982727) can0 12F85150#4001000060
(1438650738.988294) can0 12F89090#00010004
(1438650738.999106) can0 0EF81510#02
(1438650739.000389) can0 12F81010#2800800000
(1438650739.009094) can0 0EF82010#00
(1438650739.010042) can0 12F83010#80
(1438650739.011037) can0 12F83110#08
(1438650739.012143) can0 12F96050#00000000410A00
(1438650739.019105) can0 12F83410#20
(1438650739.020104) can0 12F84110#00
(1438650739.021046) can0 12F84210#00
(1438650739.022094) can0 12F84310#00
(1438650739.029097) can0 12F87810#00
(1438650739.051646) can0 12F97450#8000
(1438650739.058113) can0 0EF82390#0102
(1438650739.061880) can0 12F85050#000320200008
(1438650739.062864) can0 12F97150#E0FF58
(1438650739.063898) can0 0EF86350#0000000055556FE7
(1438650739.078052) can0 0EF88190#00
(1438650739.089546) can0 0AF81110#180000000000
(1438650739.092237) can0 12F85450#1636000000160000
(1438650739.102042) can0 0EF87372#0447
(1438650739.112045) can0 12F96050#00000000410A00
(1438650739.119161) can0 0AF87010#0024
(1438650739.141781) can0 0EF91250#0000000000000008
(1438650739.151604) can0 12F97450#8000
(1438650739.152727) can0 12F95F50#8284860000000000
(1438650739.158021) can0 12F82290#80
(1438650739.159056) can0 12F82C10#20
(1438650739.160037) can0 12F83210#08
(1438650739.161012) can0 1610FF10#
(1438650739.162017) can0 12F85050#000327200008
(1438650739.162768) can0 12F97150#E0FF58
(1438650739.163392) can0 12F97C50#18
(1438650739.164514) can0 0EF86350#00000000555572E4
(1438650739.169172) can0 0AF87110#00FF00
(1438650739.181812) can0 12F96D50#04000000
(1438650739.212157) can0 12F96050#00000000410A00
(1438650739.242035) can0 12F86150#00001000000000FC
(1438650739.249051) can0 12F84010#40
(1438650739.251743) can0 12F97450#8000
(1438650739.252373) can0 12F85C50#00
(1438650739.253526) can0 16F86250#0E00000000000000
(1438650739.254163) can0 0AF97950#00
(1438650739.254807) can0 12F88090#00
(1438650739.255664) can0 12F95A50#00000000
(1438650739.258114) can0 0EF81490#00
(1438650739.260065) can0 1610FF50#
(1438650739.261776) can0 12F85050#00031C200008
(1438650739.262532) can0 12F97150#E0FF58
(1438650739.263255) can0 12F97350#0000
(1438650739.264392) can0 0EF86350#00000000555574E2
(1438650739.281895) can0 12F85150#4001000060
(1438650739.288815) can0 12F89090#00010004
(1438650739.299111) can0 0EF81510#02
(1438650739.300396) can0 12F81010#2800800000
(1438650739.309111) can0 0EF82010#00
(1438650739.310062) can0 12F83010#80
(1438650739.311052) can0 12F83110#08
(1438650739.312155) can0 12F96050#00000000410A00
(1438650739.319128) can0 12F83410#20
(1438650739.320071) can0 12F84110#00
(1438650739.321175) can0 16F97D54#A22518199F9145A1
(1438650739.321814) can0 12F84210#00
(1438650739.323060) can0 12F84310#00
(1438650739.329063) can0 12F87810#00
(1438650739.341907) can0 0EF91250#0000000000000008
(1438650739.351762) can0 12F97450#8000
(1438650739.358174) can0 0EF82390#0102
(1438650739.361685) can0 12F85050#000325200008
(1438650739.362428) can0 12F97150#E0FF58
(1438650739.363564) can0 0EF86350#00000000555577DF
(1438650739.378124) can0 0EF88190#00
(1438650739.381688) can0 12F96D50#04000000
(1438650739.389702) can0 0AF81110#180000000000
(1438650739.392068) can0 12F85450#1636000000160000
(1438650739.401892) can0 0EF87372#0447
(1438650739.412040) can0 12F96050#00000000410A00
(1438650739.419184) can0 0AF87010#0024
(1438650739.451648) can0 12F97450#8040
(1438650739.459060) can0 12F82C10#20
(1438650739.460074) can0 12F83210#08
(1438650739.461707) can0 12F85050#00031E200008
(1438650739.462521) can0 12F97150#E0FF58
(1438650739.463640) can0 0EF86350#00000000555579DD
(1438650739.469202) can0 0AF87110#00FF00
(1438650739.481448) can0 1610FF72#
(1438650739.512141) can0 12F96050#00000000410A00
(1438650739.541806) can0 0EF91250#0000000000000008
(1438650739.542924) can0 12F86150#00001000000000FC
(1438650739.549060) can0 12F84010#40
(1438650739.551819) can0 12F97450#8040
(1438650739.552461) can0 12F85C50#00
(1438650739.553084) can0 12F88090#00
(1438650739.554280) can0 16F86250#0F00000000000000
(1438650739.554929) can0 0AF97950#00
(1438650739.555778) can0 12F95A50#00000000
(1438650739.558076) can0 0EF81490#00
(1438650739.561576) can0 12F85050#000325200008
(1438650739.562689) can0 0EF86350#0000000055557CDA
(1438650739.563442) can0 12F97150#E0FF58
(1438650739.564170) can0 12F97350#0000
(1438650739.565016) can0 12F85250#7F0038A8
(1438650739.581563) can0 12F96D50#04000000
(1438650739.582426) can0 12F85150#4001000060
(1438650739.588306) can0 12F89090#00010004
(1438650739.599088) can0 0EF81510#02
(1438650739.600401) can0 12F81010#2800800000
(1438650739.609073) can0 0EF82010#00
(1438650739.610321) can0 12F83010#80
(1438650739.611070) can0 12F83110#08
(1438650739.612182) can0 12F96050#00000000410A00
(1438650739.619146) can0 12F83410#20
(1438650739.620071) can0 12F84110#00
(1438650739.621088) can0 12F84210#00
(1438650739.622095) can0 12F84310#00
(1438650739.629141) can0 12F87810#00
(1438650739.651771) can0 12F97450#8040
(1438650739.652846) can0 12F95F50#8284860000000000
(1438650739.658087) can0 0EF82390#0102
(1438650739.661711) can0 12F85050#000325200008
(1438650739.662460) can0 12F97150#E0FF58
(1438650739.663094) can0 12F97C50#18
(1438650739.664271) can0 0EF86350#0000000055557ED8
(1438650739.678070) can0 0EF88190#00
(1438650739.689565) can0 0AF81110#180000000000
(1438650739.692167) can0 12F85450#1636000000160000
(1438650739.701349) can0 0EF87372#0447
(1438650739.712084) can0 12F96050#00000000410A00
(1438650739.719168) can0 0AF87010#0024
(1438650739.741949) can0 0EF91250#0000000000000008
(1438650739.751791) can0 12F97450#8000
(1438650739.757419) can0 1610FF90#
(1438650739.759081) can0 12F82C10#20
(1438650739.760328) can0 12F83210#08
(1438650739.761726) can0 12F85050#000324200008
(1438650739.762465) can0 12F97150#E0FF58
(1438650739.763585) can0 0EF86350#00000000555581D5
(1438650739.769216) can0 0AF87110#00FF00
(1438650739.781610) can0 12F96D50#04000000
(1438650739.812038) can0 12F96050#00000000410A00
(1438650739.841930) can0 12F86150#00001000000000FC
(1438650739.849104) can0 12F84010#40
(1438650739.851796) can0 12F97450#8000
(1438650739.852225) can0 12F85C50#00
(1438650739.853465) can0 16F86250#0000000010000000
(1438650739.854102) can0 0AF97950#00
(1438650739.854740) can0 12F88090#00
(1438650739.855594) can0 12F95A50#00000000
(1438650739.858094) can0 0EF81490#00
(1438650739.861849) can0 12F85050#000322200008
(1438650739.862596) can0 12F97150#E0FF58
(1438650739.863306) can0 12F97350#0000
(1438650739.863948) can0 12F97650#04
(1438650739.865092) can0 0EF86350#00000000555583D3
(1438650739.881591) can0 12F85150#4001000060
(1438650739.888345) can0 12F89090#00010004
(1438650739.899106) can0 0EF81510#02
(1438650739.900360) can0 12F81010#2800800000
(1438650739.909092) can0 0EF82010#00
(1438650739.910102) can0 12F83010#80
(1438650739.911096) can0 12F83110#08
(1438650739.912177) can0 12F96050#00000000410A00
(1438650739.919112) can0 12F83410#20
(1438650739.920080) can0 12F84110#00
(1438650739.921084) can0 12F84210#00
(1438650739.922082) can0 12F84310#00
(1438650739.929090) can0 12F87810#00
(1438650739.929851) can0 1610FF54#
(1438650739.941842) can0 0EF91250#0000000000000008
(1438650739.951920) can0 12F97450#8000
(1438650739.958122) can0 0EF82390#0102
(1438650739.961856) can0 12F85050#000320200008
(1438650739.962375) can0 12F97150#E0FF58
(1438650739.963819) can0 0EF86350#00000000555586D0
(1438650739.978091) can0 0EF88190#00
(1438650739.981617) can0 12F96D50#04000000
(1438650739.989503) can0 0AF81110#180000000000
(1438650739.992229) can0 12F85450#1636000000160000
(1438650740.001068) can0 0EF87372#0447
(1438650740.012077) can0 12F96050#00000000410A00
(1438650740.021002) can0 0AF87010#0024
(1438650740.051800) can0 12F97450#8000
(1438650740.059096) can0 12F82C10#20
(1438650740.060238) can0 12F83210#08
(1438650740.061985) can0 12F85050#000327200008
(1438650740.062878) can0 12F97150#E0FF58
(1438650740.063951) can0 0EF86350#00000000555588CE
(1438650740.069263) can0 0AF87110#00FF00
(1438650740.112120) can0 12F96050#00000000410A00
(1438650740.142097) can0 0EF91250#0000000000000008
(1438650740.143115) can0 12F96150#415F0000000000
(1438650740.144264) can0 12F86150#00001000000000FC
(1438650740.149097) can0 12F84010#40
(1438650740.151822) can0 12F97450#8000
(1438650740.152461) can0 12F85C50#00
(1438650740.153095) can0 12F88090#00
(1438650740.154238) can0 12F95F50#8284860000000000
(1438650740.155348) can0 16F86250#01334847474B3500
(1438650740.156479) can0 12F96B50#7FF8F10000000000
(1438650740.157108) can0 0AF97950#00
(1438650740.157975) can0 12F95A50#00000000
(1438650740.158606) can0 12F82290#80
(1438650740.159218) can0 1610FF10#
(1438650740.159831) can0 0EF81490#00
(1438650740.161767) can0 12F85050#000328200008
(1438650740.162567) can0 12F97150#E0FF58
(1438650740.163241) can0 12F97350#0000
(1438650740.163883) can0 12F97C50#18
(1438650740.165002) can0 0EF86350#0000000055558BCB
(1438650740.181883) can0 12F96D50#04000000
(1438650740.182842) can0 12F85150#4001000060
(1438650740.188335) can0 12F89090#00010004
(1438650740.199128) can0 0EF81510#02
(1438650740.200392) can0 12F81010#2800800000
(1438650740.209127) can0 0EF82010#00
(1438650740.210120) can0 12F83010#80
(1438650740.211108) can0 12F83110#08
(1438650740.212201) can0 12F96050#00000000410A00
(1438650740.219120) can0 12F83410#20
(1438650740.220124) can0 12F84110#00
(1438650740.221115) can0 12F84210#00
(1438650740.222111) can0 12F84310#00
(1438650740.229122) can0 12F87810#00
(1438650740.251834) can0 12F97450#8000
(1438650740.258141) can0 0EF82390#0102
(1438650740.261610) can0 12F85050#000324200008
(1438650740.262343) can0 12F97150#E0FF58
(1438650740.263470) can0 0EF86350#0000000055558DC9
(1438650740.265249) can0 1610FF50#
(1438650740.278018) can0 0EF88190#00
(1438650740.290028) can0 0AF81110#180000000000
(1438650740.292143) can0 12F85450#1636000000160000
(1438650740.300758) can0 0EF87372#0447
(1438650740.311872) can0 12F96050#00000000410A00
(1438650740.319205) can0 0AF87010#0024
(1438650740.320406) can0 16F97D54#A22518199F914621
(1438650740.341968) can0 0EF91250#0000000000000008
(1438650740.351742) can0 12F97450#8000
(1438650740.359125) can0 12F82C10#20
(1438650740.360115) can0 12F83210#08
(1438650740.361850) can0 12F85050#00031B200008
(1438650740.362616) can0 12F97150#E0FF58
(1438650740.363745) can0 0EF86350#00000000555590C6
(1438650740.369252) can0 0AF87110#00FF00
(1438650740.381526) can0 12F96D50#04000000
(1438650740.412219) can0 12F96050#00000000410A00
(1438650740.441911) can0 12F86150#00001000000000FC
(1438650740.449109) can0 12F84010#40
(1438650740.451778) can0 12F97450#8000
(1438650740.452405) can0 12F85C50#00
(1438650740.453512) can0 16F86250#02483839464D3700
(1438650740.454145) can0 0AF97950#00
(1438650740.454787) can0 12F88090#00
(1438650740.455647) can0 12F95A50#00000000
(1438650740.458088) can0 0EF81490#00
(1438650740.461610) can0 12F85050#000322200008
(1438650740.462360) can0 12F97150#E0FF58
(1438650740.463047) can0 12F97350#0000
(1438650740.464164) can0 0EF86350#00000000555592C4
(1438650740.480408) can0 1610FF72#
(1438650740.481549) can0 12F85150#4001000060
(1438650740.488276) can0 12F89090#00010004
(1438650740.499114) can0 0EF81510#02
(1438650740.500506) can0 12F81010#2800800000
(1438650740.509157) can0 0EF82010#00
(1438650740.510114) can0 12F83010#80
(1438650740.511137) can0 12F83110#08
(1438650740.512261) can0 12F96050#00000000410A00
(1438650740.519148) can0 12F83410#20
(1438650740.520130) can0 12F84110#00
(1438650740.521115) can0 12F84210#00
(1438650740.522114) can0 12F84310#00
(1438650740.529117) can0 12F87810#00
(1438650740.541870) can0 0EF91250#0000000000000008
(1438650740.551719) can0 12F97450#8040
(1438650740.558118) can0 0EF82390#0102
(1438650740.561794) can0 12F85050#000321200008
(1438650740.562916) can0 0EF86350#00000000555595C1
(1438650740.563678) can0 12F97150#E0FF58
(1438650740.564533) can0 12F85250#7F0038A8
(1438650740.578045) can0 0EF88190#00
(1438650740.581657) can0 12F96D50#04000000
(1438650740.589798) can0 0AF81110#180000000000
(1438650740.592028) can0 12F85450#1636000000160000
(1438650740.600409) can0 0EF87372#0447
(1438650740.612112) can0 12F96050#00000000410A00
(1438650740.619228) can0 0AF87010#0024
(1438650740.651654) can0 12F97450#8000
(1438650740.652752) can0 12F95F50#8284860000000000
(1438650740.659123) can0 12F82C10#20
(1438650740.660126) can0 12F83210#08
(1438650740.661673) can0 12F85050#00031E200008
(1438650740.662790) can0 0EF86350#00000000555597BF
(1438650740.663549) can0 12F97150#E0FF58
(1438650740.664189) can0 12F97C50#18
(1438650740.669253) can0 0AF87110#00FF00
(1438650740.712242) can0 12F96050#00000000410A00
(1438650740.741819) can0 0EF91250#0000000000000008
(1438650740.742938) can0 12F86150#00001000000000FC
(1438650740.749115) can0 12F84010#40
(1438650740.751786) can0 12F97450#8000
(1438650740.752416) can0 12F85C50#00
(1438650740.753049) can0 12F88090#00
(1438650740.754160) can0 16F86250#0333333134300000
(1438650740.755030) can0 12F95A50#00000000
(1438650740.755656) can0 0AF97950#00
(1438650740.757792) can0 1610FF90#
(1438650740.758500) can0 0EF81490#00
(1438650740.761658) can0 12F85050#000320200008
(1438650740.762407) can0 12F97150#E0FF58
(1438650740.763072) can0 12F97350#0000
(1438650740.764196) can0 0EF86350#0000000055559ABC
(1438650740.781559) can0 12F96D50#04000000
(1438650740.782438) can0 12F85150#4001000060
(1438650740.788304) can0 12F89090#00010004
(1438650740.799138) can0 0EF81510#02
(1438650740.800434) can0 12F81010#2800800000
(1438650740.809140) can0 0EF82010#00
(1438650740.810138) can0 12F83010#80
(1438650740.811126) can0 12F83110#08
(1438650740.812432) can0 12F96050#00000000410A00
(1438650740.819134) can0 12F83410#20
(1438650740.820124) can0 12F84110#00
(1438650740.821119) can0 12F84210#00
(1438650740.822117) can0 12F84310#00
(1438650740.829121) can0 12F87810#00
(1438650740.852000) can0 12F97450#8000
(1438650740.858162) can0 0EF82390#0102
(1438650740.861683) can0 12F85050#000323200008
(1438650740.862558) can0 12F97150#E0FF58
(1438650740.863039) can0 12F97650#04
(1438650740.864178) can0 0EF86350#0000000055559CBA
(1438650740.878058) can0 0EF88190#00
(1438650740.889645) can0 0AF81110#180000000000
(1438650740.892067) can0 12F85450#1636000000160000
(1438650740.900069) can0 0EF87372#0447
(1438650740.912289) can0 12F96050#00000000410A00
(1438650740.919194) can0 0AF87010#0024
(1438650740.929822) can0 1610FF54#
(1438650740.941837) can0 0EF91250#0000000000000008
(1438650740.951691) can0 12F97450#8000
(1438650740.959091) can0 12F82C10#20
(1438650740.960295) can0 12F83210#08
(1438650740.962034) can0 12F85050#000323200008
(1438650740.962770) can0 12F97150#E0FF58
(1438650740.963955) can0 0EF86350#0000000055559FB7
(1438650740.969281) can0 0AF87110#00FF00
(1438650740.981539) can0 12F96D50#04000000
(1438650741.012178) can0 12F96050#00000000410A00
(1438650741.042035) can0 12F86150#00001000000000FC
(1438650741.049139) can0 12F84010#40
(1438650741.051708) can0 12F97450#8040
(1438650741.052339) can0 12F85C50#00
(1438650741.053469) can0 16F86250#0431144003050000
(1438650741.054096) can0 0AF97950#00
(1438650741.054777) can0 12F88090#00
(1438650741.055646) can0 12F95A50#00000000
(1438650741.058075) can0 0EF81490#00
(1438650741.061766) can0 12F85050#00031D200008
(1438650741.062523) can0 12F97150#E0FF58
(1438650741.063189) can0 12F97350#0000
(1438650741.064311) can0 0EF86350#000000005555A1B5
(1438650741.081914) can0 12F85150#4001000060
(1438650741.088323) can0 12F89090#00010004
(1438650741.099154) can0 0EF81510#02
(1438650741.100453) can0 12F81010#2800800000
(1438650741.109165) can0 0EF82010#00
(1438650741.110105) can0 12F83010#80
(1438650741.111099) can0 12F83110#08
(1438650741.112425) can0 12F96050#00000000410A00
(1438650741.119145) can0 12F83410#20
(1438650741.120149) can0 12F84110#00
(1438650741.121102) can0 12F84210#00
(1438650741.122147) can0 12F84310#00
(1438650741.129104) can0 12F87810#00
(1438650741.141926) can0 0EF91250#0000000000000008
(1438650741.151773) can0 12F97450#8000
(1438650741.152847) can0 12F95F50#8284860000000000
(1438650741.158027) can0 12F82290#80
(1438650741.158734) can0 0EF82390#0102
(1438650741.159465) can0 1610FF10#
(1438650741.161784) can0 12F85050#000321200008
(1438650741.162543) can0 12F97150#E0FF58
(1438650741.163181) can0 12F97C50#18
(1438650741.164296) can0 0EF86350#000000005555A4B2
(1438650741.178047) can0 0EF88190#00
(1438650741.181925) can0 12F96D50#04000000
(1438650741.189593) can0 0AF81110#180000000000
(1438650741.192204) can0 12F85450#1636000000160000
(1438650741.199819) can0 0EF87372#0447
(1438650741.212102) can0 12F96050#00000000410A00
(1438650741.219217) can0 0AF87010#0024
(1438650741.251802) can0 12F97450#8000
(1438650741.259160) can0 12F82C10#20
(1438650741.260101) can0 12F83210#08
(1438650741.261555) can0 12F85050#00031D200008
(1438650741.262325) can0 12F97150#E0FF58
(1438650741.263450) can0 0EF86350#000000005555A6B0
(1438650741.269234) can0 0AF87110#00FF00
(1438650741.270239) can0 1610FF50#
(1438650741.312060) can0 12F96050#00000000410A00
(1438650741.321730) can0 16F97D54#A22518199F9146A1
(1438650741.341959) can0 0EF91250#0000000000000008
(1438650741.343086) can0 12F86150#00001000000000FC
(1438650741.349166) can0 12F84010#40
(1438650741.351737) can0 12F97450#8000
(1438650741.352368) can0 12F85C50#00
(1438650741.353495) can0 16F86250#0500000000000000
(1438650741.354124) can0 0AF97950#00
(1438650741.354803) can0 12F88090#00
(1438650741.355666) can0 12F95A50#00000000
(1438650741.358095) can0 0EF81490#00
(1438650741.361735) can0 12F85050#00031C200008
(1438650741.362475) can0 12F97150#E0FF58
(1438650741.363190) can0 12F97350#0000
(1438650741.364313) can0 0EF86350#000000005555A9AD
(1438650741.381690) can0 12F96D50#04000000
(1438650741.382580) can0 12F85150#4001000060
(1438650741.388310) can0 12F89090#00010004
(1438650741.399128) can0 0EF81510#02
(1438650741.400442) can0 12F81010#2800800000
(1438650741.409114) can0 0EF82010#00
(1438650741.410316) can0 12F83010#80
(1438650741.411100) can0 12F83110#08
(1438650741.412218) can0 12F96050#00000000410A00
(1438650741.419171) can0 12F83410#20
(1438650741.420505) can0 12F84110#00
(1438650741.421225) can0 12F84210#00
(1438650741.422192) can0 12F84310#00
(1438650741.429181) can0 12F87810#00
(1438650741.451683) can0 12F97450#8000
(1438650741.458100) can0 0EF82390#0102
(1438650741.461753) can0 12F85050#00031E200008
(1438650741.462491) can0 12F97150#E0FF58
(1438650741.463607) can0 0EF86350#000000005555ABAB
(1438650741.478013) can0 0EF88190#00
(1438650741.479438) can0 1610FF72#
(1438650741.489513) can0 0AF81110#180000000000
(1438650741.492198) can0 12F85450#1636000000160000
(1438650741.499626) can0 0EF87372#0447
(1438650741.512090) can0 12F96050#00000000410A00
(1438650741.519202) can0 0AF87010#0024
(1438650741.541993) can0 0EF91250#0000000000000008
(1438650741.552080) can0 12F97450#8000
(1438650741.559130) can0 12F82C10#20
(1438650741.560122) can0 12F83210#08
(1438650741.561757) can0 12F85050#000319200008
(1438650741.562885) can0 0EF86350#000000005555AEA8
(1438650741.563698) can0 12F97150#E0FF58
(1438650741.564504) can0 12F85250#7F0038A8
(1438650741.569257) can0 0AF87110#00FF00
(1438650741.581509) can0 12F96D50#04000000
(1438650741.611979) can0 12F96050#00000000410A00
(1438650741.641954) can0 12F86150#00001000000000FC
(1438650741.649129) can0 12F84010#40
(1438650741.651747) can0 12F97450#8000
(1438650741.652378) can0 12F85C50#00
(1438650741.653018) can0 12F88090#00
(1438650741.654569) can0 12F95F50#8284860000000000
(1438650741.655363) can0 16F86250#0600000000000000
(1438650741.656010) can0 0AF97950#00
(1438650741.656857) can0 12F95A50#00000000
(1438650741.658079) can0 0EF81490#00
(1438650741.661604) can0 12F85050#000317200008
(1438650741.662359) can0 12F97150#E0FF58
(1438650741.663026) can0 12F97350#0000
(1438650741.663705) can0 12F97C50#18
(1438650741.664825) can0 0EF86350#000000005555B0A6
(1438650741.681630) can0 12F85150#4001000060
(1438650741.688277) can0 12F89090#00010004
(1438650741.699140) can0 0EF81510#02
(1438650741.700459) can0 12F81010#2800800000
(1438650741.709139) can0 0EF82010#00
(1438650741.710135) can0 12F83010#80
(1438650741.711131) can0 12F83110#08
(1438650741.712218) can0 12F96050#00000000410A00
(1438650741.719135) can0 12F83410#20
(1438650741.720138) can0 12F84110#00
(1438650741.721133) can0 12F84210#00
(1438650741.722130) can0 12F84310#00
(1438650741.729137) can0 12F87810#00
(1438650741.742079) can0 0EF91250#0000000000000008
(1438650741.751613) can0 12F97450#8000
(1438650741.756097) can0 1610FF90#
(1438650741.758479) can0 0EF82390#0102
(1438650741.761980) can0 12F85050#000317200008
(1438650741.762474) can0 12F97150#E0FF58
(1438650741.763525) can0 0EF86350#000000005555B3A3
(1438650741.778155) can0 0EF88190#00
(1438650741.781475) can0 12F96D50#04000000
(1438650741.789532) can0 0AF81110#180000000000
(1438650741.792124) can0 12F85450#1636000000160000
(1438650741.799145) can0 0EF87372#0447
(1438650741.812028) can0 12F96050#00000000410A00
(1438650741.819237) can0 0AF87010#0024
(1438650741.851535) can0 12F97450#8000
(1438650741.859513) can0 12F82C10#20
(1438650741.860154) can0 12F83210#08
(1438650741.861710) can0 12F85050#000314200008
(1438650741.862476) can0 12F97150#E0FF58
(1438650741.863106) can0 12F97650#04
(1438650741.864229) can0 0EF86350#000000005555B5A1
(1438650741.869257) can0 0AF87110#00FF00
(1438650741.912038) can0 12F96050#00000000410A00
(1438650741.930170) can0 1610FF54#
(1438650741.941857) can0 0EF91250#0000000000000008
(1438650741.942988) can0 12F86150#00001000000000FC
(1438650741.949140) can0 12F84010#40
(1438650741.951627) can0 12F97450#8000
(1438650741.952257) can0 12F85C50#00
(1438650741.953406) can0 16F86250#0700000000000000
(1438650741.954038) can0 0AF97950#00
(1438650741.954669) can0 12F88090#00
(1438650741.955524) can0 12F95A50#00000000
(1438650741.958137) can0 0EF81490#00
(1438650741.961844) can0 12F85050#000318200008
(1438650741.962363) can0 12F97150#E0FF58
(1438650741.963100) can0 12F97350#0000
(1438650741.964218) can0 0EF86350#000000005555B89E
(1438650741.981552) can0 12F96D50#04000000
(1438650741.982483) can0 12F85150#4001000060
(1438650741.988367) can0 12F89090#00010004
(1438650741.999164) can0 0EF81510#02
(1438650742.000480) can0 12F81010#2800800000
(1438650742.009167) can0 0EF82010#00
(1438650742.010163) can0 12F83010#80
(1438650742.011152) can0 12F83110#08
(1438650742.012242) can0 12F96050#00000000410A00
(1438650742.019160) can0 12F83410#20
(1438650742.020159) can0 12F84110#00
(1438650742.021156) can0 12F84210#00
(1438650742.022157) can0 12F84310#00
(1438650742.029181) can0 12F87810#00
(1438650742.051437) can0 12F97450#8000
(1438650742.058115) can0 0EF82390#0102
(1438650742.061561) can0 12F85050#000311200008
(1438650742.062362) can0 12F97150#E0FF58
(1438650742.063851) can0 0EF86350#000000005555BA9C
(1438650742.078051) can0 0EF88190#00
(1438650742.090061) can0 0AF81110#180000000000
(1438650742.092116) can0 12F85450#1636000000160000
(1438650742.099059) can0 0EF87372#0447
(1438650742.112171) can0 12F96050#00000000410A00
(1438650742.119255) can0 0AF87010#0024
(1438650742.141930) can0 0EF91250#0000000000000008
(1438650742.151672) can0 12F97450#8000
(1438650742.152635) can0 12F96750#B2270F890000
(1438650742.153776) can0 12F95F50#8284860000000000
(1438650742.158010) can0 12F82290#80
(1438650742.159153) can0 12F82C10#20
(1438650742.160167) can0 12F83210#08
(1438650742.161073) can0 1610FF10#
(1438650742.162071) can0 12F85050#00030B200008
(1438650742.162878) can0 12F97150#E0FF58
(1438650742.163508) can0 12F97C50#18
(1438650742.164632) can0 0EF86350#000000005555BD99
(1438650742.169441) can0 0AF87110#00FF00
(1438650742.181566) can0 12F96D50#04000000
(1438650742.212155) can0 12F96050#00000000410A00
(1438650742.241891) can0 12F86150#00001000000000FC
(1438650742.249150) can0 12F84010#40
(1438650742.251576) can0 12F97450#8000
(1438650742.252244) can0 12F85C50#00
(1438650742.253413) can0 16F86250#0800000000000000
(1438650742.254059) can0 0AF97950#00
(1438650742.254889) can0 12F88090#00
(1438650742.255564) can0 12F95A50#00000000
(1438650742.258060) can0 0EF81490#00
(1438650742.261697) can0 12F85050#000313200008
(1438650742.262434) can0 12F97150#E0FF58
(1438650742.263162) can0 12F97350#0000
(1438650742.264288) can0 0EF86350#000000005555BF97
(1438650742.274690) can0 1610FF50#
(1438650742.281658) can0 12F85150#4001000060
(1438650742.288306) can0 12F89090#00010004
(1438650742.299184) can0 0EF81510#02
(1438650742.300443) can0 12F81010#2800800000
(1438650742.309179) can0 0EF82010#00
(1438650742.310150) can0 12F83010#80
(1438650742.311144) can0 12F83110#08
(1438650742.312198) can0 12F96050#00000000410A00
(1438650742.319147) can0 12F83410#20
(1438650742.320289) can0 12F84110#00
(1438650742.321575) can0 16F97D54#A22518199F914721
(1438650742.322314) can0 12F84210#00
(1438650742.323164) can0 12F84310#00
(1438650742.329250) can0 12F87810#00
(1438650742.341808) can0 0EF91250#0000000000000008
(1438650742.351522) can0 12F97450#8040
(1438650742.358074) can0 0EF82390#0102
(1438650742.361713) can0 12F85050#000310200008
(1438650742.362503) can0 12F97150#E0FF58
(1438650742.363635) can0 0EF86350#000000005555C294
(1438650742.378065) can0 0EF88190#00
(1438650742.381584) can0 12F96D50#04000000
(1438650742.389578) can0 0AF81110#180000000000
(1438650742.392049) can0 12F85450#1636000000160000
(1438650742.398514) can0 0EF87372#0447
(1438650742.411953) can0 12F96050#00000000410A00
(1438650742.419206) can0 0AF87010#0024
(1438650742.451583) can0 12F97450#8000
(1438650742.459175) can0 12F82C10#20
(1438650742.460185) can0 12F83210#08
(1438650742.461514) can0 12F85050#000316200008
(1438650742.462283) can0 12F97150#E0FF58
(1438650742.463408) can0 0EF86350#000000005555C492
(1438650742.469403) can0 0AF87110#00FF00
(1438650742.478327) can0 1610FF72#
(1438650742.511930) can0 12F96050#00000000410A00
(1438650742.542090) can0 0EF91250#0000000000000008
(1438650742.543170) can0 12F86150#00001000000000FC
(1438650742.549187) can0 12F84010#40
(1438650742.551703) can0 12F97450#8000
(1438650742.552405) can0 12F85C50#00
(1438650742.553418) can0 16F86250#0900000000000000
(1438650742.554197) can0 0AF97950#00
(1438650742.554714) can0 12F88090#00
(1438650742.555561) can0 12F95A50#00000000
(1438650742.558201) can0 0EF81490#00
(1438650742.561834) can0 12F85050#00030C200008
(1438650742.562794) can0 0EF86350#000000005555C78F
(1438650742.564328) can0 12F97150#E0FF58
(1438650742.564678) can0 12F97350#0000
(1438650742.565273) can0 12F85250#7F0038A8
(1438650742.581663) can0 12F96D50#04000000
(1438650742.582464) can0 12F85150#4001000060
(1438650742.588305) can0 12F89090#00010004
(1438650742.599188) can0 0EF81510#02
(1438650742.600465) can0 12F81010#2800800000
(1438650742.609188) can0 0EF82010#00
(1438650742.610174) can0 12F83010#80
(1438650742.611172) can0 12F83110#08
(1438650742.612222) can0 12F96050#00000000410A00
(1438650742.619178) can0 12F83410#20
(1438650742.620187) can0 12F84110#00
(1438650742.621173) can0 12F84210#00
(1438650742.622173) can0 12F84310#00
(1438650742.629182) can0 12F87810#00
(1438650742.651573) can0 12F97450#8000
(1438650742.652677) can0 12F95F50#8284860000000000
(1438650742.658078) can0 0EF82390#0102
(1438650742.661614) can0 12F85050#00030F200008
(1438650742.662361) can0 12F97150#E0FF58
(1438650742.663178) can0 12F97C50#18
(1438650742.664214) can0 0EF86350#000000005555C98D
(1438650742.678045) can0 0EF88190#00
(1438650742.689658) can0 0AF81110#180000000000
(1438650742.691954) can0 12F85450#1636000000160000
(1438650742.698195) can0 0EF87372#0447
(1438650742.711926) can0 12F96050#00000000410A00
(1438650742.719233) can0 0AF87010#0024
(1438650742.741811) can0 0EF91250#0000000000000008
(1438650742.751537) can0 12F97450#8000
(1438650742.756719) can0 1610FF90#
(1438650742.759168) can0 12F82C10#20
(1438650742.760312) can0 12F83210#08
(1438650742.761741) can0 12F85050#000312200008
(1438650742.762489) can0 12F97150#E0FF58
(1438650742.763616) can0 0EF86350#000000005555CC8A
(1438650742.769414) can0 0AF87110#00FF00
(1438650742.781586) can0 12F96D50#04000000
(1438650742.811857) can0 12F96050#00000000410A00
(1438650742.841921) can0 12F86150#00001000000000FC
(1438650742.849176) can0 12F84010#40
(1438650742.851606) can0 12F97450#8000
(1438650742.852244) can0 12F85C50#00
(1438650742.853362) can0 16F86250#0A00000000808000
(1438650742.853993) can0 0AF97950#00
(1438650742.854632) can0 12F88090#00
(1438650742.855496) can0 12F95A50#00000000
(1438650742.858081) can0 0EF81490#00
(1438650742.861739) can0 12F85050#000316200008
(1438650742.862482) can0 12F97150#E0FF58
(1438650742.863195) can0 12F97350#0000
(1438650742.863834) can0 12F97650#04
(1438650742.864946) can0 0EF86350#000000005555CE88
(1438650742.881735) can0 12F85150#4001000060
(1438650742.888324) can0 12F89090#00010004
(1438650742.899216) can0 0EF81510#02
(1438650742.900483) can0 12F81010#2800800000
(1438650742.909201) can0 0EF82010#00
(1438650742.910196) can0 12F83010#80
(1438650742.911177) can0 12F83110#08
(1438650742.912232) can0 12F96050#00000000410A00
(1438650742.919197) can0 12F83410#20
(1438650742.920183) can0 12F84110#00
(1438650742.921184) can0 12F84210#00
(1438650742.922177) can0 12F84310#00
(1438650742.929179) can0 12F87810#00
(1438650742.930966) can0 1610FF54#
(1438650742.941877) can0 0EF91250#0000000000000008
(1438650742.951625) can0 12F97450#8000
(1438650742.958104) can0 0EF82390#0102
(1438650742.961870) can0 12F85050#00030F200008
(1438650742.962616) can0 12F97150#E0FF58
(1438650742.963738) can0 0EF86350#000000005555D185
(1438650742.978006) can0 0EF88190#00
(1438650742.981490) can0 12F96D50#04000000
(1438650742.989592) can0 0AF81110#180000000000
(1438650742.991970) can0 12F85450#1636000000160000
(1438650742.997853) can0 0EF87372#0447
(1438650743.012236) can0 12F96050#00000000410A00
(1438650743.019267) can0 0AF87010#0024
(1438650743.051613) can0 12F97450#8040
(1438650743.059203) can0 12F82C10#20
(1438650743.060192) can0 12F83210#08
(1438650743.061696) can0 12F85050#000313200008
(1438650743.062460) can0 12F97150#E0FF58
(1438650743.063587) can0 0EF86350#000000005555D383
(1438650743.069383) can0 0AF87110#00FF00
(1438650743.112243) can0 12F96050#00000000410A00
(1438650743.141904) can0 0EF91250#0000000000000008
(1438650743.143028) can0 12F86150#00001000000000FC
(1438650743.149153) can0 12F84010#40
(1438650743.151653) can0 12F97450#8040
(1438650743.152283) can0 12F85C50#00
(1438650743.153468) can0 12F95F50#8284860000000000
(1438650743.154110) can0 12F88090#00
(1438650743.155260) can0 16F86250#0B00000000000000
(1438650743.155888) can0 0AF97950#00
(1438650743.156748) can0 12F95A50#00000000
(1438650743.157989) can0 12F82290#80
(1438650743.158717) can0 0EF81490#00
(1438650743.159265) can0 1610FF10#
(1438650743.161738) can0 12F85050#00030E200008
(1438650743.162500) can0 12F97150#E0FF58
(1438650743.163209) can0 12F97350#0000
(1438650743.163845) can0 12F97C50#18
(1438650743.164970) can0 0EF86350#000000005555D680
(1438650743.181402) can0 12F96D50#04000000
(1438650743.182330) can0 12F85150#4001000060
(1438650743.188268) can0 12F89090#00010004
(1438650743.199249) can0 0EF81510#02
(1438650743.200473) can0 12F81010#2800800000
(1438650743.209153) can0 0EF82010#00
(1438650743.210149) can0 12F83010#80
(1438650743.211141) can0 12F83110#08
(1438650743.212243) can0 12F96050#00000000410A00
(1438650743.219156) can0 12F83410#20
(1438650743.220384) can0 12F84110#00
(1438650743.221250) can0 12F84210#00
(1438650743.222263) can0 12F84310#00
(1438650743.229235) can0 12F87810#00
(1438650743.251656) can0 12F97450#8000
(1438650743.258106) can0 0EF82390#0102
(1438650743.261721) can0 12F85050#000313200008
(1438650743.262456) can0 12F97150#E0FF58
(1438650743.263590) can0 0EF86350#000000005555D87E
(1438650743.278039) can0 0EF88190#00
(1438650743.279733) can0 1610FF50#
(1438650743.289584) can0 0AF81110#180000000000
(1438650743.292120) can0 12F85450#1636000000160000
(1438650743.297589) can0 0EF87372#0447
(1438650743.312045) can0 12F96050#00000000410A00
(1438650743.319279) can0 0AF87010#0024
(1438650743.320358) can0 16F97D54#A22518199F9147A1
(1438650743.341781) can0 0EF91250#0000000000000008
(1438650743.351546) can0 12F97450#8040
(1438650743.359228) can0 12F82C10#20
(1438650743.360395) can0 12F83210#08
(1438650743.361663) can0 12F85050#00030B200008
(1438650743.362396) can0 12F97150#E0FF58
(1438650743.363537) can0 0EF86350#000000005555DB7B
(1438650743.369416) can0 0AF87110#00FF00
(1438650743.381423) can0 12F96D50#04000000
(1438650743.411922) can0 12F96050#00000000410A00
(1438650743.441862) can0 12F86150#00001000000000FC
(1438650743.449159) can0 12F84010#40
(1438650743.451646) can0 12F97450#8000
(1438650743.452276) can0 12F85C50#00
(1438650743.453500) can0 16F86250#0C00000000000000
(1438650743.454097) can0 0AF97950#00
(1438650743.454744) can0 12F88090#00
(1438650743.455599) can0 12F95A50#00000000
(1438650743.458036) can0 0EF81490#00
(1438650743.461557) can0 12F85050#000312200008
(1438650743.462310) can0 12F97150#E0FF58
(1438650743.463274) can0 12F97350#0000
(1438650743.464269) can0 0EF86350#000000005555DD79
(1438650743.477249) can0 1610FF72#
(1438650743.481545) can0 12F85150#4001000060
(1438650743.488295) can0 12F89090#00010004
(1438650743.499251) can0 0EF81510#02
(1438650743.500502) can0 12F81010#2800800000
(1438650743.509184) can0 0EF82010#00
(1438650743.510178) can0 12F83010#80
(1438650743.511162) can0 12F83110#08
(1438650743.512277) can0 12F96050#00000000410A00
(1438650743.519179) can0 12F83410#20
(1438650743.520187) can0 12F84110#00
(1438650743.521171) can0 12F84210#00
(1438650743.522173) can0 12F84310#00
(1438650743.529178) can0 12F87810#00
(1438650743.541792) can0 0EF91250#0000000000000008
(1438650743.551534) can0 12F97450#8040
(1438650743.558122) can0 0EF82390#0102
(1438650743.561659) can0 12F85050#000321200008
(1438650743.562772) can0 0EF86350#000000005555E076
(1438650743.563526) can0 12F97150#E0FF58
(1438650743.564381) can0 12F85250#7F0038A8
(1438650743.578255) can0 0EF88190#00
(1438650743.581424) can0 12F96D50#04000000
(1438650743.589683) can0 0AF81110#180000000000
(1438650743.592238) can0 12F85450#1636000000160000
(1438650743.597258) can0 0EF87372#0447
(1438650743.612041) can0 12F96050#00000000410A00
(1438650743.619280) can0 0AF87010#0024
(1438650743.651616) can0 12F97450#8000
(1438650743.652691) can0 12F95F50#8284860000000000
(1438650743.659173) can0 12F82C10#20
(1438650743.660182) can0 12F83210#08
(1438650743.661698) can0 12F85050#000329200008
(1438650743.662501) can0 12F97150#E0FF58
(1438650743.663138) can0 12F97C50#18
(1438650743.664263) can0 0EF86350#000000005555E274
(1438650743.669404) can0 0AF87110#00FF00
(1438650743.712122) can0 12F96050#00000000410A00
(1438650743.741897) can0 0EF91250#0000000000000008
(1438650743.743032) can0 12F86150#00001000000000FC
(1438650743.749168) can0 12F84010#40
(1438650743.751677) can0 12F97450#8000
(1438650743.752305) can0 12F85C50#00
(1438650743.753501) can0 16F86250#0D00000000000000
(1438650743.754131) can0 0AF97950#00
(1438650743.754769) can0 12F88090#00
(1438650743.755637) can0 12F95A50#00000000
(1438650743.757051) can0 1610FF90#
(1438650743.758037) can0 0EF81490#00
(1438650743.761550) can0 12F85050#00032A200008
(1438650743.762295) can0 12F97150#E0FF58
(1438650743.763001) can0 12F97350#0000
(1438650743.764085) can0 0EF86350#000000005555E571
(1438650743.781329) can0 12F96D50#04000000
(1438650743.782254) can0 12F85150#4001000060
(1438650743.788289) can0 12F89090#00010004
(1438650743.799196) can0 0EF81510#02
(1438650743.800520) can0 12F81010#2800800000
(1438650743.809419) can0 0EF82010#00
(1438650743.810301) can0 12F83010#80
(1438650743.811301) can0 12F83110#08
(1438650743.812300) can0 12F96050#00000000410A00
(1438650743.819207) can0 12F83410#20
(1438650743.820198) can0 12F84110#00
(1438650743.821189) can0 12F84210#00
(1438650743.822190) can0 12F84310#00
(1438650743.829195) can0 12F87810#00
(1438650743.851551) can0 12F97450#8040
(1438650743.858077) can0 0EF82390#0102
(1438650743.861636) can0 12F85050#000327200008
(1438650743.862397) can0 12F97150#E0FF58
(1438650743.863515) can0 0EF86350#000000005555E76F
(1438650743.864148) can0 12F97650#04
(1438650743.878031) can0 0EF88190#00
(1438650743.889637) can0 0AF81110#180000000000
(1438650743.892059) can0 12F85450#1636000000160000
(1438650743.896934) can0 0EF87372#0447
(1438650743.912221) can0 12F96050#00000000410A00
(1438650743.919425) can0 0AF87010#0024
(1438650743.931459) can0 1610FF54#
(1438650743.941847) can0 0EF91250#0000000000000008
(1438650743.951642) can0 12F97450#8040
(1438650743.959210) can0 12F82C10#20
(1438650743.960210) can0 12F83210#08
(1438650743.961714) can0 12F85050#000327200008
(1438650743.962454) can0 12F97150#E0FF58
(1438650743.963576) can0 0EF86350#000000005555EA6C
(1438650743.969434) can0 0AF87110#00FF00
(1438650743.981478) can0 12F96D50#04000000
(1438650744.012043) can0 12F96050#00000000410A00
(1438650744.042046) can0 12F86150#00001000000000FC
(1438650744.049215) can0 12F84010#40
(1438650744.051486) can0 12F97450#8040
(1438650744.052156) can0 12F85C50#00
(1438650744.053331) can0 16F86250#0E00000000000000
(1438650744.053950) can0 0AF97950#00
(1438650744.054590) can0 12F88090#00
(1438650744.055447) can0 12F95A50#00000000
(1438650744.058072) can0 0EF81490#00
(1438650744.061610) can0 12F85050#000322200008
(1438650744.062364) can0 12F97150#E0FF58
(1438650744.063094) can0 12F97350#0000
(1438650744.064206) can0 0EF86350#000000005555EC6A
(1438650744.081612) can0 12F85150#4001000060
(1438650744.088291) can0 12F89090#00010004
(1438650744.099227) can0 0EF81510#02
(1438650744.100585) can0 12F81010#2800800000
(1438650744.109228) can0 0EF82010#00
(1438650744.110219) can0 12F83010#80
(1438650744.111211) can0 12F83110#08
(1438650744.112319) can0 12F96050#00000000410A00
(1438650744.119222) can0 12F83410#20
(1438650744.120217) can0 12F84110#00
(1438650744.121220) can0 12F84210#00
(1438650744.122215) can0 12F84310#00
(1438650744.129220) can0 12F87810#00
(1438650744.142243) can0 0EF91250#0000000000000008
(1438650744.151544) can0 12F97450#8000
(1438650744.152671) can0 12F95F50#8284860000000000
(1438650744.158037) can0 12F82290#80
(1438650744.158711) can0 0EF82390#0102
(1438650744.159416) can0 1610FF10#
(1438650744.161605) can0 12F85050#000330200008
(1438650744.162363) can0 12F97150#E0FF58
(1438650744.162998) can0 12F97C50#18
(1438650744.164122) can0 0EF86350#000000005555EF67
(1438650744.177991) can0 0EF88190#00
(1438650744.181428) can0 12F96D50#04000000
(1438650744.189614) can0 0AF81110#180000000000
(1438650744.191920) can0 12F85450#1636000000160000
(1438650744.196588) can0 0EF87372#0447
(1438650744.211996) can0 12F96050#00000000410A00
(1438650744.219426) can0 0AF87010#0024
(1438650744.251553) can0 12F97450#8000
(1438650744.259424) can0 12F82C10#20
(1438650744.260606) can0 12F83210#08
(1438650744.261610) can0 12F85050#000326200008
(1438650744.262369) can0 12F97150#E0FF58
(1438650744.263505) can0 0EF86350#000000005555F165
(1438650744.269564) can0 0AF87110#00FF00
(1438650744.284182) can0 1610FF50#
(1438650744.311946) can0 12F96050#00000000410A00
(1438650744.320689) can0 16F97D54#A22518199F914821
(1438650744.341822) can0 0EF91250#0000000000000008
(1438650744.342950) can0 12F86150#00001000000000FC
(1438650744.349223) can0 12F84010#40
(1438650744.351618) can0 12F97450#8040
(1438650744.352249) can0 12F85C50#00
(1438650744.353434) can0 16F86250#0F00000000000000
(1438650744.354072) can0 0AF97950#00
(1438650744.354716) can0 12F88090#00
(1438650744.355590) can0 12F95A50#00000000
(1438650744.358074) can0 0EF81490#00
(1438650744.361496) can0 12F85050#000321200008
(1438650744.362236) can0 12F97150#E0FF58
(1438650744.362966) can0 12F97350#0000
(1438650744.364096) can0 0EF86350#000000005555F462
(1438650744.381516) can0 12F96D50#04000000
(1438650744.382452) can0 12F85150#4001000060
(1438650744.388313) can0 12F89090#00010004
(1438650744.399241) can0 0EF81510#02
(1438650744.400498) can0 12F81010#2800800000
(1438650744.409223) can0 0EF82010#00
(1438650744.410567) can0 12F83010#80
(1438650744.411181) can0 12F83110#08
(1438650744.412265) can0 12F96050#00000000410A00
(1438650744.419209) can0 12F83410#20
(1438650744.420347) can0 12F84110#00
(1438650744.421267) can0 12F84210#00
(1438650744.422241) can0 12F84310#00
(1438650744.429231) can0 12F87810#00
(1438650744.451518) can0 12F97450#8000
(1438650744.458082) can0 0EF82390#0102
(1438650744.461634) can0 12F85050#00031D200008
(1438650744.462375) can0 12F97150#E0FF58
(1438650744.463502) can0 0EF86350#000000005555F660
(1438650744.476195) can0 1610FF72#
(1438650744.477985) can0 0EF88190#00
(1438650744.489642) can0 0AF81110#180000000000
(1438650744.492264) can0 12F85450#1636000000160000
(1438650744.496318) can0 0EF87372#0447
(1438650744.512016) can0 12F96050#00000000410A00
(1438650744.519276) can0 0AF87010#0024
(1438650744.541765) can0 0EF91250#0000000000000008
(1438650744.551518) can0 12F97450#8040
(1438650744.559240) can0 12F82C10#20
(1438650744.560220) can0 12F83210#08
(1438650744.561632) can0 12F85050#00031F200008
(1438650744.562755) can0 0EF86350#000000005555F95D
(1438650744.563509) can0 12F97150#E0FF58
(1438650744.564371) can0 12F85250#7F0038A8
(1438650744.569464) can0 0AF87110#00FF00
(1438650744.581470) can0 12F96D50#04000000
(1438650744.612119) can0 12F96050#00000000410A00
(1438650744.641907) can0 12F86150#00001000000000FC
(1438650744.649223) can0 12F84010#40
(1438650744.651504) can0 12F97450#8000
(1438650744.652133) can0 12F85C50#00
(1438650744.653287) can0 12F95F50#8284860000000000
(1438650744.653958) can0 12F88090#00
(1438650744.655118) can0 16F86250#0000000010000000
(1438650744.655747) can0 0AF97950#00
(1438650744.656613) can0 12F95A50#00000000
(1438650744.658028) can0 0EF81490#00
(1438650744.661664) can0 12F85050#000320200008
(1438650744.662454) can0 12F97150#E0FF58
(1438650744.663146) can0 12F97350#0000
(1438650744.663779) can0 12F97C50#18
(1438650744.664897) can0 0EF86350#000000005555FB5B
(1438650744.681533) can0 12F85150#4001000060
(1438650744.688274) can0 12F89090#00010004
(1438650744.699250) can0 0EF81510#02
(1438650744.700504) can0 12F81010#2800800000
(1438650744.709230) can0 0EF82010#00
(1438650744.710379) can0 12F83010#80
(1438650744.711383) can0 12F83110#08
(1438650744.712393) can0 12F96050#00000000410A00
(1438650744.719460) can0 12F83410#20
(1438650744.720386) can0 12F84110#00
(1438650744.721360) can0 12F84210#00
(1438650744.722358) can0 12F84310#00
(1438650744.729260) can0 12F87810#00
(1438650744.741657) can0 0EF91250#0000000000000008
(1438650744.751635) can0 12F97450#8000
(1438650744.757382) can0 1610FF90#
(1438650744.758110) can0 0EF82390#0102
(1438650744.761546) can0 12F85050#000321200008
(1438650744.762295) can0 12F97150#E0FF58
(1438650744.763425) can0 0EF86350#000000005555FE58
(1438650744.778026) can0 0EF88190#00
(1438650744.781487) can0 12F96D50#04000000
(1438650744.789616) can0 0AF81110#180000000000
(1438650744.791975) can0 12F85450#1636000000160000
(1438650744.795985) can0 0EF87372#0447
(1438650744.811901) can0 12F96050#00000000410A00
(1438650744.819269) can0 0AF87010#0024
(1438650744.851643) can0 12F97450#8000
(1438650744.859244) can0 12F82C10#20
(1438650744.860242) can0 12F83210#08
(1438650744.861677) can0 12F85050#00031F200008
(1438650744.862479) can0 12F97150#E0FF58
(1438650744.863601) can0 0EF86350#0000000055550056
(1438650744.864239) can0 12F97650#04
(1438650744.869475) can0 0AF87110#00FF00
(1438650744.911727) can0 12F96050#00000000410A00
(1438650744.931929) can0 1610FF54#
(1438650744.941550) can0 0EF91250#0000000000000008
(1438650744.942744) can0 12F86150#00001000000000FC
(1438650744.949478) can0 12F84010#40
(1438650744.951558) can0 12F97450#8000
(1438650744.952371) can0 12F85C50#00
(1438650744.953435) can0 16F86250#01334847474B3500
(1438650744.953907) can0 0AF97950#00
(1438650744.954555) can0 12F88090#00
(1438650744.955417) can0 12F95A50#00000000
(1438650744.958045) can0 0EF81490#00
(1438650744.961487) can0 12F85050#00031E200008
(1438650744.962250) can0 12F97150#E0FF58
(1438650744.962918) can0 12F97350#0000
(1438650744.964054) can0 0EF86350#0000000055550353
(1438650744.981435) can0 12F96D50#04000000
(1438650744.982315) can0 12F85150#4001000060
(1438650744.988284) can0 12F89090#00010004
(1438650744.999256) can0 0EF81510#02
(1438650745.000538) can0 12F81010#2800800000
(1438650745.009254) can0 0EF82010#00
(1438650745.010243) can0 12F83010#80
(1438650745.011240) can0 12F83110#08
(1438650745.012296) can0 12F96050#00000000410A00
(1438650745.019248) can0 12F83410#20
(1438650745.020254) can0 12F84110#00
(1438650745.021248) can0 12F84210#00
(1438650745.022243) can0 12F84310#00
(1438650745.029249) can0 12F87810#00
(1438650745.051676) can0 12F97450#8040
(1438650745.058306) can0 0EF82390#0102
(1438650745.061565) can0 12F85050#000322200008
(1438650745.062388) can0 12F97150#E0FF58
(1438650745.063449) can0 0EF86350#0000000055550551
(1438650745.078037) can0 0EF88190#00
(1438650745.089638) can0 0AF81110#180000000000
(1438650745.092014) can0 12F85450#1636000000160000
(1438650745.095657) can0 0EF87372#0447
(1438650745.111995) can0 12F96050#00000000410A00
(1438650745.119416) can0 0AF87010#0024
(1438650745.141684) can0 0EF91250#0000000000000008
(1438650745.142700) can0 12F96150#415F0000000000
(1438650745.151674) can0 12F97450#8040
(1438650745.152811) can0 12F96B50#7FF8F10000000000
(1438650745.153924) can0 12F95F50#8284860000000000
(1438650745.158000) can0 12F82290#80
(1438650745.159253) can0 12F82C10#20
(1438650745.160427) can0 12F83210#08
(1438650745.161428) can0 1610FF10#
(1438650745.162417) can0 12F85050#000322200008
(1438650745.163070) can0 12F97150#E0FF58
(1438650745.164325) can0 0EF86350#000000005555084E
(1438650745.164800) can0 12F97C50#18
(1438650745.169513) can0 0AF87110#00FF00
(1438650745.181502) can0 12F96D50#04000000
(1438650745.212143) can0 12F96050#00000000410A00
(1438650745.241706) can0 12F86150#00001000000000FC
(1438650745.249210) can0 12F84010#40
(1438650745.251708) can0 12F97450#8000
(1438650745.252388) can0 12F85C50#00
(1438650745.253505) can0 16F86250#02483839464D3700
(1438650745.254086) can0 0AF97950#00
(1438650745.254716) can0 12F88090#00
(1438650745.255577) can0 12F95A50#00000000
(1438650745.258069) can0 0EF81490#00
(1438650745.261589) can0 12F85050#000324200008
(1438650745.262333) can0 12F97150#E0FF58
(1438650745.263051) can0 12F97350#0000
(1438650745.264172) can0 0EF86350#0000000055550A4C
(1438650745.281533) can0 12F85150#4001000060
(1438650745.288308) can0 12F89090#00010004
(1438650745.289280) can0 1610FF50#
(1438650745.299221) can0 0EF81510#02
(1438650745.300552) can0 12F81010#2800800000
(1438650745.309262) can0 0EF82010#00
(1438650745.310219) can0 12F83010#80
(1438650745.311222) can0 12F83110#08
(1438650745.312319) can0 12F96050#00000000410A00
(1438650745.319220) can0 12F83410#20
(1438650745.320263) can0 12F84110#00
(1438650745.321322) can0 16F97D54#A22518199F9148A1
(1438650745.321962) can0 12F84210#00
(1438650745.323219) can0 12F84310#00
(1438650745.329224) can0 12F87810#00
(1438650745.341572) can0 0EF91250#0000000000000008
(1438650745.351539) can0 12F97450#8000
(1438650745.358084) can0 0EF82390#0102
(1438650745.361584) can0 12F85050#00031E200008
(1438650745.362330) can0 12F97150#E0FF58
(1438650745.363459) can0 0EF86350#0000000055550D49
(1438650745.378019) can0 0EF88190#00
(1438650745.381445) can0 12F96D50#04000000
(1438650745.389657) can0 0AF81110#180000000000
(1438650745.392296) can0 12F85450#1636000000160000
(1438650745.395415) can0 0EF87372#0447
(1438650745.411818) can0 12F96050#00000000410A00
(1438650745.419435) can0 0AF87010#0024
(1438650745.451567) can0 12F97450#8000
(1438650745.459216) can0 12F82C10#20
(1438650745.460223) can0 12F83210#08
(1438650745.461550) can0 12F85050#00031C200008
(1438650745.462327) can0 12F97150#E0FF58
(1438650745.463448) can0 0EF86350#0000000055550F47
(1438650745.469465) can0 0AF87110#00FF00
(1438650745.475095) can0 1610FF72#
(1438650745.511806) can0 12F96050#00000000410A00
(1438650745.541737) can0 0EF91250#0000000000000008
(1438650745.542843) can0 12F86150#00001000000000FC
(1438650745.549297) can0 12F84010#40
(1438650745.551492) can0 12F97450#8000
(1438650745.552159) can0 12F85C50#00
(1438650745.553233) can0 16F86250#0333333134300000
(1438650745.553863) can0 0AF97950#00
(1438650745.554539) can0 12F88090#00
(1438650745.555418) can0 12F95A50#00000000
(1438650745.558071) can0 0EF81490#00
(1438650745.561611) can0 12F85050#000322200008
(1438650745.562734) can0 0EF86350#0000000055551244
(1438650745.563489) can0 12F97150#E0FF58
(1438650745.564343) can0 12F85250#7F0038A8
(1438650745.565071) can0 12F97350#0000
(1438650745.581482) can0 12F96D50#04000000
(1438650745.582351) can0 12F85150#4001000060
