(1438651051.302182) can0 12F96050#00000000410A00
(1438651051.305060) can0 16F97D54#A22518199F91EBA1
(1438651051.307438) can0 0EF81510#02
(1438651051.317441) can0 0EF82010#00
(1438651051.318423) can0 12F83010#80
(1438651051.319942) can0 12F83110#08
(1438651051.327466) can0 12F83410#20
(1438651051.328451) can0 12F84110#00
(1438651051.329543) can0 12F84210#00
(1438651051.330433) can0 12F84310#00
(1438651051.331850) can0 0EF91250#0000000000000008
(1438651051.337433) can0 12F87810#00
(1438651051.341613) can0 12F97450#8000
(1438651051.342501) can0 12F85150#4001000060
(1438651051.351671) can0 12F85050#000323200008
(1438651051.352430) can0 12F97150#E0FF58
(1438651051.353544) can0 0EF86350#000000005555EF67
(1438651051.365708) can0 0EF82390#0102
(1438651051.367736) can0 12F81010#2800800000
(1438651051.371383) can0 12F96D50#04000000
(1438651051.372974) can0 0EF87372#0438
(1438651051.375611) can0 0EF88190#00
(1438651051.382001) can0 12F85450#1636000000160000
(1438651051.397821) can0 0AF81110#180000000000
(1438651051.402007) can0 12F96050#00000000410A00
(1438651051.427571) can0 0AF87010#0024
(1438651051.441577) can0 12F97450#8000
(1438651051.451577) can0 12F85050#000321200008
(1438651051.452312) can0 12F97150#E0FF58
(1438651051.453440) can0 0EF86350#000000005555F165
(1438651051.467498) can0 12F82C10#20
(1438651051.468446) can0 12F83210#08
(1438651051.477592) can0 0AF87110#00FF00
(1438651051.501865) can0 12F96050#00000000410A00
(1438651051.532082) can0 0EF91250#0000000000000008
(1438651051.533139) can0 12F86150#00001000000000FC
(1438651051.541743) can0 12F97450#8000
(1438651051.542375) can0 12F85C50#00
(1438651051.543518) can0 16F86250#0F00000000000000
(1438651051.544134) can0 0AF97950#00
(1438651051.544987) can0 12F95A50#00000000
(1438651051.550641) can0 12F88090#00
(1438651051.551733) can0 12F85050#000325200008
(1438651051.552872) can0 0EF86350#000000005555F462
(1438651051.553631) can0 12F97150#E0FF58
(1438651051.554489) can0 12F85250#7F0038A8
(1438651051.555197) can0 12F97350#0000
(1438651051.555856) can0 0EF81490#00
(1438651051.557462) can0 12F84010#40
(1438651051.571479) can0 12F96D50#04000000
(1438651051.585888) can0 12F89090#00010004
(1438651051.601895) can0 12F96050#00000000410A00
(1438651051.607462) can0 0EF81510#02
(1438651051.617463) can0 0EF82010#00
(1438651051.618445) can0 12F83010#80
(1438651051.619509) can0 12F83110#08
(1438651051.627466) can0 12F83410#20
(1438651051.628444) can0 12F84110#00
(1438651051.629703) can0 12F84210#00
(1438651051.630402) can0 12F84310#00
(1438651051.637465) can0 12F87810#00
(1438651051.641738) can0 12F97450#8000
(1438651051.643002) can0 12F95F50#8284860000000000
(1438651051.643956) can0 12F85150#4001000060
(1438651051.651639) can0 12F85050#00031E200008
(1438651051.652380) can0 12F97150#E0FF58
(1438651051.653005) can0 12F97C50#18
(1438651051.654135) can0 0EF86350#000000005555F660
(1438651051.665710) can0 0EF82390#0102
(1438651051.667762) can0 12F81010#2800800000
(1438651051.672650) can0 0EF87372#0438
(1438651051.675639) can0 0EF88190#00
(1438651051.682023) can0 12F85450#1636000000160000
(1438651051.697838) can0 0AF81110#180000000000
(1438651051.701908) can0 12F96050#00000000410A00
(1438651051.727578) can0 0AF87010#0024
(1438651051.731789) can0 0EF91250#0000000000000008
(1438651051.741527) can0 12F97450#8040
(1438651051.747126) can0 1610FF50#
(1438651051.751523) can0 12F85050#000325200008
(1438651051.752271) can0 12F97150#E0FF58
(1438651051.753398) can0 0EF86350#000000005555F95D
(1438651051.754205) can0 1610FF90#
(1438651051.767476) can0 12F82C10#20
(1438651051.768411) can0 12F83210#08
(1438651051.771479) can0 12F96D50#04000000
(1438651051.777589) can0 0AF87110#00FF00
(1438651051.801998) can0 12F96050#00000000410A00
(1438651051.831721) can0 12F86150#00001000000000FC
(1438651051.841413) can0 12F97450#8000
(1438651051.842040) can0 12F85C50#00
(1438651051.843222) can0 16F86250#0000000010000000
(1438651051.843842) can0 0AF97950#00
(1438651051.844656) can0 12F95A50#00000000
(1438651051.850642) can0 12F88090#00
(1438651051.851640) can0 12F85050#00031F200008
(1438651051.852393) can0 12F97150#E0FF58
(1438651051.853110) can0 12F97350#0000
(1438651051.853781) can0 12F97650#04
(1438651051.854888) can0 0EF86350#000000005555FB5B
(1438651051.855728) can0 0EF81490#00
(1438651051.857418) can0 12F84010#40
(1438651051.885910) can0 12F89090#00010004
(1438651051.901877) can0 12F96050#00000000410A00
(1438651051.907418) can0 0EF81510#02
(1438651051.917471) can0 0EF82010#00
(1438651051.918422) can0 12F83010#80
(1438651051.919523) can0 12F83110#08
(1438651051.927971) can0 12F83410#20
(1438651051.928414) can0 12F84110#00
(1438651051.929770) can0 12F84210#00
(1438651051.930400) can0 12F84310#00
(1438651051.931853) can0 0EF91250#0000000000000008
(1438651051.937416) can0 12F87810#00
(1438651051.941543) can0 12F97450#8000
(1438651051.942422) can0 12F85150#4001000060
(1438651051.951802) can0 12F85050#000326200008
(1438651051.952549) can0 12F97150#E0FF58
(1438651051.953682) can0 0EF86350#000000005555FE58
(1438651051.965789) can0 0EF82390#0102
(1438651051.967759) can0 12F81010#2800800000
(1438651051.971623) can0 12F96D50#04000000
(1438651051.972420) can0 0EF87372#0438
(1438651051.975625) can0 0EF88190#00
(1438651051.982173) can0 12F85450#1636000000160000
(1438651051.997855) can0 0AF81110#180000000000
(1438651052.001927) can0 12F96050#00000000410A00
(1438651052.027555) can0 0AF87010#0024
(1438651052.041552) can0 12F97450#8000
(1438651052.051567) can0 12F85050#000325200008
(1438651052.052357) can0 12F97150#E0FF58
(1438651052.053493) can0 0EF86350#0000000055550056
(1438651052.067436) can0 12F82C10#20
(1438651052.068421) can0 12F83210#08
(1438651052.077611) can0 0AF87110#00FF00
(1438651052.102039) can0 12F96050#00000000410A00
(1438651052.107995) can0 1610FF54#
(1438651052.131988) can0 0EF91250#0000000000000008
(1438651052.133115) can0 12F86150#00001000000000FC
(1438651052.141539) can0 12F97450#8000
(1438651052.142171) can0 12F85C50#00
(1438651052.143292) can0 12F95F50#8284860000000000
(1438651052.144420) can0 16F86250#01334847474B3500
(1438651052.145374) can0 12F96750#B2270F890000
(1438651052.146009) can0 0AF97950#00
(1438651052.146875) can0 12F95A50#00000000
(1438651052.150624) can0 12F88090#00
(1438651052.151791) can0 12F85050#000321200008
(1438651052.152551) can0 12F97150#E0FF58
(1438651052.153261) can0 12F97350#0000
(1438651052.153899) can0 12F97C50#18
(1438651052.155035) can0 0EF86350#0000000055550353
(1438651052.155671) can0 12F82290#80
(1438651052.156256) can0 1610FF72#
(1438651052.156886) can0 0EF81490#00
(1438651052.157512) can0 12F84010#40
(1438651052.167421) can0 1610FF10#
(1438651052.171573) can0 12F96D50#04000000
(1438651052.185893) can0 12F89090#00010004
(1438651052.202188) can0 12F96050#00000000410A00
(1438651052.207494) can0 0EF81510#02
(1438651052.217453) can0 0EF82010#00
(1438651052.218429) can0 12F83010#80
(1438651052.219544) can0 12F83110#08
(1438651052.227447) can0 12F83410#20
(1438651052.228431) can0 12F84110#00
(1438651052.229522) can0 12F84210#00
(1438651052.230432) can0 12F84310#00
(1438651052.237517) can0 12F87810#00
(1438651052.241531) can0 12F97450#8040
(1438651052.242320) can0 12F85150#4001000060
(1438651052.251546) can0 12F85050#000325200008
(1438651052.252301) can0 12F97150#E0FF58
(1438651052.253434) can0 0EF86350#0000000055550551
(1438651052.265697) can0 0EF82390#0102
(1438651052.267754) can0 12F81010#2800800000
(1438651052.272023) can0 0EF87372#0437
(1438651052.275568) can0 0EF88190#00
(1438651052.282078) can0 12F85450#1636000000160000
(1438651052.297826) can0 0AF81110#180000000000
(1438651052.301809) can0 12F96050#00000000410A00
(1438651052.305191) can0 16F97D54#A22518199F91EC21
(1438651052.327568) can0 0AF87010#0024
(1438651052.331702) can0 0EF91250#0000000000000008
(1438651052.341556) can0 12F97450#8000
(1438651052.351582) can0 12F85050#000323200008
(1438651052.352322) can0 12F97150#E0FF58
(1438651052.353444) can0 0EF86350#000000005555084E
(1438651052.367456) can0 12F82C10#20
(1438651052.368440) can0 12F83210#08
(1438651052.371334) can0 12F96D50#04000000
(1438651052.377573) can0 0AF87110#00FF00
(1438651052.401894) can0 12F96050#00000000410A00
(1438651052.432062) can0 12F86150#00001000000000FC
(1438651052.441522) can0 12F97450#8000
(1438651052.442400) can0 12F85C50#00
(1438651052.443204) can0 16F86250#02483839464D3700
(1438651052.443836) can0 0AF97950#00
(1438651052.444677) can0 12F95A50#00000000
(1438651052.450649) can0 12F88090#00
(1438651052.451578) can0 12F85050#00031C200008
(1438651052.452343) can0 12F97150#E0FF58
(1438651052.453059) can0 12F97350#0000
(1438651052.454183) can0 0EF86350#0000000055550A4C
(1438651052.455643) can0 0EF81490#00
(1438651052.457438) can0 12F84010#40
(1438651052.485934) can0 12F89090#00010004
(1438651052.501917) can0 12F96050#00000000410A00
(1438651052.507463) can0 0EF81510#02
(1438651052.517468) can0 0EF82010#00
(1438651052.518456) can0 12F83010#80
(1438651052.519556) can0 12F83110#08
(1438651052.527445) can0 12F83410#20
(1438651052.528436) can0 12F84110#00
(1438651052.529858) can0 12F84210#00
(1438651052.530588) can0 12F84310#00
(1438651052.532031) can0 0EF91250#0000000000000008
(1438651052.537457) can0 12F87810#00
(1438651052.541595) can0 12F97450#8040
(1438651052.542733) can0 12F85150#4001000060
(1438651052.551587) can0 12F85050#000321200008
(1438651052.552670) can0 0EF86350#0000000055550D49
(1438651052.553450) can0 12F97150#E0FF58
(1438651052.554288) can0 12F85250#7F0038A8
(1438651052.565725) can0 0EF82390#0102
(1438651052.567734) can0 12F81010#2800800000
(1438651052.571426) can0 12F96D50#04000000
(1438651052.572093) can0 0EF87372#0437
(1438651052.575598) can0 0EF88190#00
(1438651052.582048) can0 12F85450#1636000000160000
(1438651052.597843) can0 0AF81110#180000000000
(1438651052.601915) can0 12F96050#00000000410A00
(1438651052.627554) can0 0AF87010#0024
(1438651052.641414) can0 12F97450#8000
(1438651052.642547) can0 12F95F50#8284860000000000
(1438651052.651468) can0 12F85050#000319200008
(1438651052.652306) can0 12F97150#E0FF58
(1438651052.653072) can0 12F97C50#18
(1438651052.654219) can0 0EF86350#0000000055550F47
(1438651052.667489) can0 12F82C10#20
(1438651052.668468) can0 12F83210#08
(1438651052.677619) can0 0AF87110#00FF00
(1438651052.701988) can0 12F96050#00000000410A00
(1438651052.731875) can0 0EF91250#0000000000000008
(1438651052.732966) can0 12F86150#00001000000000FC
(1438651052.741615) can0 12F97450#8040
(1438651052.742233) can0 12F85C50#00
(1438651052.743360) can0 16F86250#0333333134300000
(1438651052.743980) can0 0AF97950#00
(1438651052.744848) can0 12F95A50#00000000
(1438651052.750620) can0 12F88090#00
(1438651052.751703) can0 12F85050#00031F200008
(1438651052.752459) can0 12F97150#E0FF58
(1438651052.753180) can0 12F97350#0000
(1438651052.753729) can0 1610FF50#
(1438651052.754839) can0 0EF86350#0000000055551244
(1438651052.755444) can0 1610FF90#
(1438651052.756092) can0 0EF81490#00
(1438651052.757459) can0 12F84010#40
(1438651052.771588) can0 12F96D50#04000000
(1438651052.785876) can0 12F89090#00010004
(1438651052.801943) can0 12F96050#00000000410A00
(1438651052.807482) can0 0EF81510#02
(1438651052.817483) can0 0EF82010#00
(1438651052.818470) can0 12F83010#80
(1438651052.819555) can0 12F83110#08
(1438651052.827483) can0 12F83410#20
(1438651052.828475) can0 12F84110#00
(1438651052.829569) can0 12F84210#00
(1438651052.830473) can0 12F84310#00
(1438651052.837477) can0 12F87810#00
(1438651052.841499) can0 12F97450#8040
(1438651052.842437) can0 12F85150#4001000060
(1438651052.851681) can0 12F85050#000321200008
(1438651052.852379) can0 12F97150#E0FF58
(1438651052.853007) can0 12F97650#04
(1438651052.854124) can0 0EF86350#0000000055551442
(1438651052.865694) can0 0EF82390#0102
(1438651052.867728) can0 12F81010#2800800000
(1438651052.871442) can0 0EF87372#0438
(1438651052.875613) can0 0EF88190#00
(1438651052.882238) can0 12F85450#1636000000160000
(1438651052.897867) can0 0AF81110#180000000000
(1438651052.901885) can0 12F96050#00000000410A00
(1438651052.927573) can0 0AF87010#0024
(1438651052.931825) can0 0EF91250#0000000000000008
(1438651052.941571) can0 12F97450#8000
(1438651052.952000) can0 12F85050#000320200008
(1438651052.952480) can0 12F97150#E0FF58
(1438651052.953600) can0 0EF86350#000000005555173F
(1438651052.967495) can0 12F82C10#20
(1438651052.968459) can0 12F83210#08
(1438651052.971387) can0 12F96D50#04000000
(1438651052.977600) can0 0AF87110#00FF00
(1438651053.001879) can0 12F96050#00000000410A00
(1438651053.031728) can0 12F86150#00001000000000FC
(1438651053.041528) can0 12F97450#8000
(1438651053.042362) can0 12F95A50#00000000
(1438651053.042999) can0 12F85C50#00
(1438651053.043627) can0 0AF97950#00
(1438651053.044778) can0 16F86250#0431144003050000
(1438651053.050624) can0 12F88090#00
(1438651053.051623) can0 12F85050#000320200008
(1438651053.052379) can0 12F97150#E0FF58
(1438651053.053090) can0 12F97350#0000
(1438651053.054320) can0 0EF86350#000000005555193D
(1438651053.055638) can0 0EF81490#00
(1438651053.057486) can0 12F84010#40
(1438651053.085884) can0 12F89090#00010004
(1438651053.102097) can0 12F96050#00000000410A00
(1438651053.107503) can0 0EF81510#02
(1438651053.108599) can0 1610FF54#
(1438651053.117505) can0 0EF82010#00
(1438651053.118491) can0 12F83010#80
(1438651053.119573) can0 12F83110#08
(1438651053.127490) can0 12F83410#20
(1438651053.128482) can0 12F84110#00
(1438651053.129535) can0 12F84210#00
(1438651053.130472) can0 12F84310#00
(1438651053.131717) can0 0EF91250#0000000000000008
(1438651053.137470) can0 12F87810#00
(1438651053.141618) can0 12F97450#8000
(1438651053.142744) can0 12F95F50#8284860000000000
(1438651053.143649) can0 12F85150#4001000060
(1438651053.150909) can0 1610FF72#
(1438651053.151886) can0 12F85050#000321200008
(1438651053.152647) can0 12F97150#E0FF58
(1438651053.153283) can0 12F97C50#18
(1438651053.154405) can0 0EF86350#0000000055551C3A
(1438651053.155581) can0 12F82290#80
(1438651053.165727) can0 0EF82390#0102
(1438651053.167773) can0 12F81010#2800800000
(1438651053.168402) can0 1610FF10#
(1438651053.171038) can0 0EF87372#0438
(1438651053.171898) can0 12F96D50#04000000
(1438651053.175602) can0 0EF88190#00
(1438651053.181776) can0 12F85450#1636000000160000
(1438651053.197855) can0 0AF81110#180000000000
(1438651053.201865) can0 12F96050#00000000410A00
(1438651053.227584) can0 0AF87010#0024
(1438651053.241604) can0 12F97450#8000
(1438651053.251663) can0 12F85050#00031D200008
(1438651053.252403) can0 12F97150#E0FF58
(1438651053.253522) can0 0EF86350#0000000055551E38
(1438651053.267526) can0 12F82C10#20
(1438651053.268462) can0 12F83210#08
(1438651053.277637) can0 0AF87110#00FF00
(1438651053.302013) can0 12F96050#00000000410A00
(1438651053.305360) can0 16F97D54#A22518199F91ECA1
(1438651053.331651) can0 0EF91250#0000000000000008
(1438651053.332778) can0 12F86150#00001000000000FC
(1438651053.341516) can0 12F97450#8000
(1438651053.342132) can0 12F85C50#00
(1438651053.343284) can0 16F86250#0500000000000000
(1438651053.343902) can0 0AF97950#00
(1438651053.344768) can0 12F95A50#00000000
(1438651053.350635) can0 12F88090#00
(1438651053.351615) can0 12F85050#00031E200008
(1438651053.352385) can0 12F97150#E0FF58
(1438651053.353053) can0 12F97350#0000
(1438651053.354226) can0 0EF86350#0000000055552135
(1438651053.355645) can0 0EF81490#00
(1438651053.357494) can0 12F84010#40
(1438651053.371617) can0 12F96D50#04000000
(1438651053.385869) can0 12F89090#00010004
(1438651053.401912) can0 12F96050#00000000410A00
(1438651053.407489) can0 0EF81510#02
(1438651053.417498) can0 0EF82010#00
(1438651053.418436) can0 12F83010#80
(1438651053.419779) can0 12F83110#08
(1438651053.427495) can0 12F83410#20
(1438651053.428482) can0 12F84110#00
(1438651053.429782) can0 12F84210#00
(1438651053.430687) can0 12F84310#00
(1438651053.437515) can0 12F87810#00
(1438651053.441502) can0 12F97450#8000
(1438651053.442426) can0 12F85150#4001000060
(1438651053.451616) can0 12F85050#00031A200008
(1438651053.452353) can0 12F97150#E0FF58
(1438651053.453434) can0 0EF86350#0000000055552333
(1438651053.465731) can0 0EF82390#0102
(1438651053.467796) can0 12F81010#2800800000
(1438651053.470774) can0 0EF87372#0438
(1438651053.475561) can0 0EF88190#00
(1438651053.481933) can0 12F85450#1636000000160000
(1438651053.497875) can0 0AF81110#180000000000
(1438651053.501902) can0 12F96050#00000000410A00
(1438651053.527624) can0 0AF87010#0024
(1438651053.531784) can0 0EF91250#0000000000000008
(1438651053.541555) can0 12F97450#8040
(1438651053.551693) can0 12F85050#000316200008
(1438651053.552816) can0 0EF86350#0000000055552630
(1438651053.553540) can0 12F97150#E0FF58
(1438651053.554509) can0 12F85250#7F0038A8
(1438651053.567538) can0 12F82C10#20
(1438651053.568492) can0 12F83210#08
(1438651053.571414) can0 12F96D50#04000000
(1438651053.577634) can0 0AF87110#00FF00
(1438651053.601806) can0 12F96050#00000000410A00
(1438651053.631758) can0 12F86150#00001000000000FC
(1438651053.641551) can0 12F97450#8000
(1438651053.642167) can0 12F85C50#00
(1438651053.643285) can0 12F95F50#8284860000000000
(1438651053.644500) can0 16F86250#0600000000000000
(1438651053.645074) can0 0AF97950#00
(1438651053.645939) can0 12F95A50#00000000
(1438651053.650815) can0 12F88090#00
(1438651053.651576) can0 12F85050#00031E200008
(1438651053.652382) can0 12F97150#E0FF58
(1438651053.653053) can0 12F97350#0000
(1438651053.653691) can0 12F97C50#18
(1438651053.654817) can0 0EF86350#000000005555282E
(1438651053.655691) can0 0EF81490#00
(1438651053.657449) can0 12F84010#40
(1438651053.685910) can0 12F89090#00010004
(1438651053.701830) can0 12F96050#00000000410A00
(1438651053.707518) can0 0EF81510#02
(1438651053.717511) can0 0EF82010#00
(1438651053.718457) can0 12F83010#80
(1438651053.719552) can0 12F83110#08
(1438651053.727508) can0 12F83410#20
(1438651053.728507) can0 12F84110#00
(1438651053.729565) can0 12F84210#00
(1438651053.730450) can0 12F84310#00
(1438651053.731776) can0 0EF91250#0000000000000008
(1438651053.737451) can0 12F87810#00
(1438651053.741542) can0 12F97450#8000
(1438651053.742421) can0 12F85150#4001000060
(1438651053.751446) can0 12F85050#000320200008
(1438651053.752199) can0 12F97150#E0FF58
(1438651053.753327) can0 0EF86350#0000000055552B2B
(1438651053.753935) can0 1610FF90#
(1438651053.755819) can0 1610FF50#
(1438651053.765672) can0 0EF82390#0102
(1438651053.767778) can0 12F81010#2800800000
(1438651053.770653) can0 0EF87372#0438
(1438651053.771405) can0 12F96D50#04000000
(1438651053.775583) can0 0EF88190#00
(1438651053.782270) can0 12F85450#1636000000160000
(1438651053.797891) can0 0AF81110#180000000000
(1438651053.801781) can0 12F96050#00000000410A00
(1438651053.827587) can0 0AF87010#0024
(1438651053.841513) can0 12F97450#8040
(1438651053.851534) can0 12F85050#00031C200008
(1438651053.852282) can0 12F97150#E0FF58
(1438651053.852914) can0 12F97650#04
(1438651053.854032) can0 0EF86350#0000000055552D29
(1438651053.867521) can0 12F82C10#20
(1438651053.868463) can0 12F83210#08
(1438651053.877664) can0 0AF87110#00FF00
(1438651053.902090) can0 12F96050#00000000410A00
(1438651053.931721) can0 0EF91250#0000000000000008
(1438651053.932832) can0 12F86150#00001000000000FC
(1438651053.941558) can0 12F97450#8040
(1438651053.942192) can0 12F85C50#00
(1438651053.943331) can0 16F86250#0700000000000000
(1438651053.943955) can0 0AF97950#00
(1438651053.944818) can0 12F95A50#00000000
(1438651053.950592) can0 12F88090#00
(1438651053.951579) can0 12F85050#000321200008
(1438651053.952345) can0 12F97150#E0FF58
(1438651053.953081) can0 12F97350#0000
(1438651053.954203) can0 0EF86350#0000000055553026
(1438651053.955648) can0 0EF81490#00
(1438651053.957480) can0 12F84010#40
(1438651053.971358) can0 12F96D50#04000000
(1438651053.985908) can0 12F89090#00010004
(1438651054.002306) can0 12F96050#00000000410A00
(1438651054.007530) can0 0EF81510#02
(1438651054.017820) can0 0EF82010#00
(1438651054.018483) can0 12F83010#80
(1438651054.019573) can0 12F83110#08
(1438651054.027486) can0 12F83410#20
(1438651054.028481) can0 12F84110#00
(1438651054.029575) can0 12F84210#00
(1438651054.030479) can0 12F84310#00
(1438651054.037476) can0 12F87810#00
(1438651054.041584) can0 12F97450#8040
(1438651054.042448) can0 12F85150#4001000060
(1438651054.051483) can0 12F85050#00031F200008
(1438651054.052605) can0 0EF86350#0000000055553224
(1438651054.053412) can0 12F97150#E0FF58
(1438651054.065680) can0 0EF82390#0102
(1438651054.067808) can0 12F81010#2800800000
(1438651054.070107) can0 0EF87372#0438
(1438651054.075598) can0 0EF88190#00
(1438651054.081918) can0 12F85450#1636000000160000
(1438651054.097862) can0 0AF81110#180000000000
(1438651054.101829) can0 12F96050#00000000410A00
(1438651054.109048) can0 1610FF54#
(1438651054.127606) can0 0AF87010#0024
(1438651054.131744) can0 0EF91250#0000000000000008
(1438651054.141365) can0 12F97450#8000
(1438651054.142494) can0 12F95F50#8284860000000000
(1438651054.149872) can0 1610FF72#
(1438651054.151454) can0 12F85050#000321200008
(1438651054.152222) can0 12F97150#E0FF58
(1438651054.152862) can0 12F97C50#18
(1438651054.153985) can0 0EF86350#0000000055553521
(1438651054.155560) can0 12F82290#80
(1438651054.167496) can0 12F82C10#20
(1438651054.168485) can0 12F83210#08
(1438651054.169566) can0 1610FF10#
(1438651054.171305) can0 12F96D50#04000000
(1438651054.177611) can0 0AF87110#00FF00
(1438651054.202351) can0 12F96050#00000000410A00
(1438651054.231837) can0 12F86150#00001000000000FC
(1438651054.241608) can0 12F97450#8000
(1438651054.242320) can0 12F85C50#00
(1438651054.243252) can0 12F95A50#00000000
(1438651054.244337) can0 16F86250#0800000000000000
(1438651054.244860) can0 0AF97950#00
(1438651054.250630) can0 12F88090#00
(1438651054.251619) can0 12F85050#000322200008
(1438651054.252430) can0 12F97150#E0FF58
(1438651054.253111) can0 12F97350#0000
(1438651054.254233) can0 0EF86350#000000005555371F
(1438651054.255608) can0 0EF81490#00
(1438651054.257482) can0 12F84010#40
(1438651054.285878) can0 12F89090#00010004
(1438651054.302009) can0 12F96050#00000000410A00
(1438651054.304747) can0 16F97D54#A22518199F91ED21
(1438651054.307489) can0 0EF81510#02
(1438651054.317501) can0 0EF82010#00
(1438651054.318487) can0 12F83010#80
(1438651054.319503) can0 12F83110#08
(1438651054.327496) can0 12F83410#20
(1438651054.328502) can0 12F84110#00
(1438651054.329506) can0 12F84210#00
(1438651054.330472) can0 12F84310#00
(1438651054.331722) can0 0EF91250#0000000000000008
(1438651054.337480) can0 12F87810#00
(1438651054.341610) can0 12F97450#8040
(1438651054.342507) can0 12F85150#4001000060
(1438651054.351561) can0 12F85050#000327200008
(1438651054.352480) can0 12F97150#E0FF58
(1438651054.353481) can0 0EF86350#0000000055553A1C
(1438651054.365710) can0 0EF82390#0102
(1438651054.367820) can0 12F81010#2800800000
(1438651054.369809) can0 0EF87372#0438
(1438651054.371332) can0 12F96D50#04000000
(1438651054.375580) can0 0EF88190#00
(1438651054.381956) can0 12F85450#1636000000160000
(1438651054.397958) can0 0AF81110#180000000000
(1438651054.402019) can0 12F96050#00000000410A00
(1438651054.427614) can0 0AF87010#0024
(1438651054.441519) can0 12F97450#8000
(1438651054.451586) can0 12F85050#00031D200008
(1438651054.452481) can0 12F97150#E0FF58
(1438651054.453470) can0 0EF86350#0000000055553C1A
(1438651054.467522) can0 12F82C10#20
(1438651054.468504) can0 12F83210#08
(1438651054.477642) can0 0AF87110#00FF00
(1438651054.502134) can0 12F96050#00000000410A00
(1438651054.531697) can0 0EF91250#0000000000000008
(1438651054.532777) can0 12F86150#00001000000000FC
(1438651054.541474) can0 12F97450#8000
(1438651054.542096) can0 12F85C50#00
(1438651054.543273) can0 16F86250#0900000000000000
(1438651054.543888) can0 0AF97950#00
(1438651054.544743) can0 12F95A50#00000000
(1438651054.550594) can0 12F88090#00
(1438651054.551584) can0 12F85050#000320200008
(1438651054.552718) can0 0EF86350#0000000055553F17
(1438651054.553483) can0 12F97150#E0FF58
(1438651054.554152) can0 12F97350#0000
(1438651054.555008) can0 12F85250#7F0038A8
(1438651054.555660) can0 0EF81490#00
(1438651054.557500) can0 12F84010#40
(1438651054.571477) can0 12F96D50#04000000
(1438651054.585879) can0 12F89090#00010004
(1438651054.601899) can0 12F96050#00000000410A00
(1438651054.607525) can0 0EF81510#02
(1438651054.617527) can0 0EF82010#00
(1438651054.618526) can0 12F83010#80
(1438651054.619526) can0 12F83110#08
(1438651054.627522) can0 12F83410#20
(1438651054.628522) can0 12F84110#00
(1438651054.629533) can0 12F84210#00
(1438651054.630516) can0 12F84310#00
(1438651054.637520) can0 12F87810#00
(1438651054.641480) can0 12F97450#8000
(1438651054.642604) can0 12F95F50#8284860000000000
(1438651054.643505) can0 12F85150#4001000060
(1438651054.651515) can0 12F85050#000322200008
(1438651054.652246) can0 12F97150#E0FF58
(1438651054.653042) can0 12F97C50#18
(1438651054.654026) can0 0EF86350#0000000055554115
(1438651054.665663) can0 0EF82390#0102
(1438651054.667789) can0 12F81010#2800800000
(1438651054.669538) can0 0EF87372#0438
(1438651054.675587) can0 0EF88190#00
(1438651054.682350) can0 12F85450#1636000000160000
(1438651054.697903) can0 0AF81110#180000000000
(1438651054.701887) can0 12F96050#00000000410A00
(1438651054.727613) can0 0AF87010#0024
(1438651054.731726) can0 0EF91250#0000000000000008
(1438651054.741470) can0 12F97450#8000
(1438651054.751615) can0 12F85050#00031E200008
(1438651054.752373) can0 12F97150#E0FF58
(1438651054.753502) can0 0EF86350#0000000055554412
(1438651054.754490) can0 1610FF90#
(1438651054.760679) can0 1610FF50#
(1438651054.767533) can0 12F82C10#20
(1438651054.768516) can0 12F83210#08
(1438651054.771394) can0 12F96D50#04000000
(1438651054.777654) can0 0AF87110#00FF00
(1438651054.801935) can0 12F96050#00000000410A00
(1438651054.831679) can0 12F86150#00001000000000FC
(1438651054.841389) can0 12F97450#8040
(1438651054.841997) can0 12F85C50#00
(1438651054.843146) can0 16F86250#0A00000000808000
(1438651054.843771) can0 0AF97950#00
(1438651054.844638) can0 12F95A50#00000000
(1438651054.850612) can0 12F88090#00
(1438651054.851555) can0 12F85050#000322200008
(1438651054.852357) can0 12F97150#E0FF58
(1438651054.853040) can0 12F97350#0000
(1438651054.853676) can0 12F97650#04
(1438651054.854786) can0 0EF86350#0000000055554610
(1438651054.855678) can0 0EF81490#00
(1438651054.857529) can0 12F84010#40
(1438651054.885866) can0 12F89090#00010004
(1438651054.901944) can0 12F96050#00000000410A00
(1438651054.907555) can0 0EF81510#02
(1438651054.917557) can0 0EF82010#00
(1438651054.918529) can0 12F83010#80
(1438651054.919537) can0 12F83110#08
(1438651054.927504) can0 12F83410#20
(1438651054.928519) can0 12F84110#00
(1438651054.929809) can0 12F84210#00
(1438651054.930564) can0 12F84310#00
(1438651054.931655) can0 0EF91250#0000000000000008
(1438651054.937507) can0 12F87810#00
(1438651054.941291) can0 12F97450#8000
(1438651054.942191) can0 12F85150#4001000060
(1438651054.951527) can0 12F85050#00031C200008
(1438651054.952278) can0 12F97150#E0FF58
(1438651054.953402) can0 0EF86350#000000005555490D
(1438651054.965672) can0 0EF82390#0102
(1438651054.967797) can0 12F81010#2800800000
(1438651054.969156) can0 0EF87372#0438
(1438651054.971313) can0 12F96D50#04000000
(1438651054.975569) can0 0EF88190#00
(1438651054.981884) can0 12F85450#1636000000160000
(1438651054.997913) can0 0AF81110#180000000000
(1438651055.001884) can0 12F96050#00000000410A00
(1438651055.027641) can0 0AF87010#0024
(1438651055.041407) can0 12F97450#8000
(1438651055.051549) can0 12F85050#00031C200008
(1438651055.052303) can0 12F97150#E0FF58
(1438651055.053414) can0 0EF86350#0000000055554B0B
(1438651055.067543) can0 12F82C10#20
(1438651055.068517) can0 12F83210#08
(1438651055.077668) can0 0AF87110#00FF00
(1438651055.102307) can0 12F96050#00000000410A00
(1438651055.109762) can0 1610FF54#
(1438651055.131653) can0 0EF91250#0000000000000008
(1438651055.132695) can0 12F96150#415F0000000000
(1438651055.133836) can0 12F86150#00001000000000FC
(1438651055.141457) can0 12F97450#8040
(1438651055.142056) can0 12F85C50#00
(1438651055.143416) can0 12F95F50#8284860000000000
(1438651055.144425) can0 16F86250#0B00000000000000
(1438651055.145569) can0 12F96B50#7FF8F10000000000
(1438651055.146194) can0 0AF97950#00
(1438651055.147045) can0 12F95A50#00000000
(1438651055.148799) can0 1610FF72#
(1438651055.150555) can0 12F88090#00
(1438651055.151546) can0 12F85050#000323200008
(1438651055.152310) can0 12F97150#E0FF58
(1438651055.153040) can0 12F97350#0000
(1438651055.153674) can0 12F97C50#18
(1438651055.154806) can0 0EF86350#0000000055554E08
(1438651055.155633) can0 12F82290#80
(1438651055.156388) can0 0EF81490#00
(1438651055.157524) can0 12F84010#40
(1438651055.167516) can0 1610FF10#
(1438651055.171462) can0 12F96D50#04000000
(1438651055.185826) can0 12F89090#00010004
(1438651055.201761) can0 12F96050#00000000410A00
(1438651055.207567) can0 0EF81510#02
(1438651055.217551) can0 0EF82010#00
(1438651055.218556) can0 12F83010#80
(1438651055.219545) can0 12F83110#08
(1438651055.227544) can0 12F83410#20
(1438651055.228548) can0 12F84110#00
(1438651055.229552) can0 12F84210#00
(1438651055.230526) can0 12F84310#00
(1438651055.237526) can0 12F87810#00
(1438651055.241526) can0 12F97450#8040
(1438651055.242461) can0 12F85150#4001000060
(1438651055.251589) can0 12F85050#00031A200008
(1438651055.252569) can0 12F97150#E0FF58
(1438651055.253562) can0 0EF86350#0000000055555006
(1438651055.265685) can0 0EF82390#0102
(1438651055.267817) can0 12F81010#2800800000
(1438651055.268843) can0 0EF87372#0438
(1438651055.275640) can0 0EF88190#00
(1438651055.281708) can0 12F85450#1636000000160000
(1438651055.297912) can0 0AF81110#180000000000
(1438651055.301902) can0 12F96050#00000000410A00
(1438651055.304800) can0 16F97D54#A22518199F91EDA1
(1438651055.317564) can0 12F83110#18
(1438651055.327596) can0 0AF87010#0024
(1438651055.331707) can0 0EF91250#0000000000000008
(1438651055.341454) can0 12F97450#8040
(1438651055.351647) can0 12F85050#000320200008
(1438651055.352578) can0 12F97150#E0FF58
(1438651055.353578) can0 0EF86350#0000000055555303
(1438651055.367571) can0 12F82C10#20
(1438651055.368531) can0 12F83210#08
(1438651055.371320) can0 12F96D50#04000000
(1438651055.377668) can0 0AF87110#00FF00
(1438651055.401795) can0 12F96050#00000000410A00
(1438651055.431664) can0 12F86150#00001000000000FC
(1438651055.441481) can0 12F97450#8000
(1438651055.442094) can0 12F85C50#00
(1438651055.443284) can0 16F86250#0C00000000000000
(1438651055.443921) can0 0AF97950#00
(1438651055.444796) can0 12F95A50#00000000
(1438651055.450587) can0 12F88090#00
(1438651055.451572) can0 12F85050#00031F200008
(1438651055.452338) can0 12F97150#E0FF58
(1438651055.453050) can0 12F97350#0000
(1438651055.454178) can0 0EF86350#0000000055555501
(1438651055.455604) can0 0EF81490#00
(1438651055.457490) can0 12F84010#40
(1438651055.485904) can0 12F89090#00010004
(1438651055.501859) can0 12F96050#00000000410A00
(1438651055.507556) can0 0EF81510#02
(1438651055.517579) can0 0EF82010#00
(1438651055.518552) can0 12F83010#80
(1438651055.527557) can0 12F83410#20
(1438651055.528556) can0 12F84110#00
(1438651055.529557) can0 12F84210#00
(1438651055.530534) can0 12F84310#00
(1438651055.531704) can0 0EF91250#0000000000000008
(1438651055.537537) can0 12F87810#00
(1438651055.541486) can0 12F97450#8000
(1438651055.542432) can0 12F85150#4001000060
(1438651055.551559) can0 12F85050#00031C200008
(1438651055.552683) can0 0EF86350#00000000555558FE
(1438651055.553446) can0 12F97150#E0FF58
(1438651055.554296) can0 12F85250#7F0038A8
(1438651055.565673) can0 0EF82390#0102
(1438651055.567841) can0 12F81010#2800800000
(1438651055.568546) can0 0EF87372#0438
(1438651055.571372) can0 12F96D50#04000000
(1438651055.575560) can0 0EF88190#00
(1438651055.581959) can0 12F85450#1636000000160000
(1438651055.597929) can0 0AF81110#180000000000
(1438651055.601719) can0 12F96050#00000000410A00
(1438651055.617591) can0 12F83110#18
(1438651055.627621) can0 0AF87010#0024
(1438651055.641506) can0 12F97450#8000
(1438651055.642624) can0 12F95F50#8284860000000000
(1438651055.651379) can0 12F85050#000324200008
(1438651055.652175) can0 12F97150#E0FF58
(1438651055.652803) can0 12F97C50#18
(1438651055.653940) can0 0EF86350#0000000055555AFC
(1438651055.657490) can0 12F83110#08
(1438651055.667567) can0 12F82C10#20
(1438651055.668504) can0 12F83210#08
(1438651055.677698) can0 0AF87110#00FF00
(1438651055.701689) can0 12F96050#00000000410A00
(1438651055.731692) can0 0EF91250#0000000000000008
(1438651055.732744) can0 12F86150#00001000000000FC
(1438651055.741378) can0 12F97450#8040
(1438651055.742004) can0 12F85C50#00
(1438651055.743201) can0 16F86250#0D00000000000000
(1438651055.743826) can0 0AF97950#00
(1438651055.744696) can0 12F95A50#00000000
(1438651055.750594) can0 12F88090#00
(1438651055.751587) can0 12F85050#00031F200008
(1438651055.752349) can0 12F97150#E0FF58
(1438651055.753063) can0 12F97350#0000
(1438651055.754194) can0 0EF86350#0000000055555DF9
(1438651055.754806) can0 1610FF90#
(1438651055.755591) can0 0EF81490#00
(1438651055.757512) can0 12F84010#40
(1438651055.765741) can0 1610FF50#
(1438651055.771328) can0 12F96D50#04000000
(1438651055.785845) can0 12F89090#00010004
(1438651055.801815) can0 12F96050#00000000410A00
(1438651055.807606) can0 0EF81510#02
(1438651055.817572) can0 0EF82010#00
(1438651055.818894) can0 12F83010#80
(1438651055.827563) can0 12F83410#20
(1438651055.828570) can0 12F84110#00
(1438651055.829575) can0 12F84210#00
(1438651055.830520) can0 12F84310#00
(1438651055.837521) can0 12F87810#00
(1438651055.841366) can0 12F97450#8040
(1438651055.842235) can0 12F85150#4001000060
(1438651055.851569) can0 12F85050#00031F200008
(1438651055.852320) can0 12F97150#E0FF58
(1438651055.852960) can0 12F97650#04
(1438651055.854082) can0 0EF86350#0000000055555FF7
(1438651055.865635) can0 0EF82390#0102
(1438651055.867844) can0 12F81010#2800800000
(1438651055.868511) can0 0EF87372#0438
(1438651055.875577) can0 0EF88190#00
(1438651055.881886) can0 12F85450#1636000000160000
(1438651055.897902) can0 0AF81110#180000000000
(1438651055.901694) can0 12F96050#00000000410A00
(1438651055.927650) can0 0AF87010#0024
(1438651055.931657) can0 0EF91250#0000000000000008
(1438651055.941446) can0 12F97450#8000
(1438651055.951581) can0 12F85050#00031F200008
(1438651055.952329) can0 12F97150#E0FF58
(1438651055.953448) can0 0EF86350#00000000555562F4
(1438651055.957513) can0 12F83110#08
(1438651055.967535) can0 12F82C10#20
(1438651055.968520) can0 12F83210#08
(1438651055.971348) can0 12F96D50#04000000
(1438651055.977655) can0 0AF87110#00FF00
(1438651056.001864) can0 12F96050#00000000410A00
(1438651056.031727) can0 12F86150#00001000000000FC
(1438651056.041493) can0 12F97450#8040
(1438651056.042007) can0 12F85C50#00
(1438651056.043357) can0 16F86250#0E00000000000000
(1438651056.043781) can0 0AF97950#00
(1438651056.044836) can0 12F95A50#00000000
(1438651056.050644) can0 12F88090#00
(1438651056.051602) can0 12F85050#000322200008
(1438651056.052372) can0 12F97150#E0FF58
(1438651056.053081) can0 12F97350#0000
(1438651056.054207) can0 0EF86350#00000000555564F2
(1438651056.055628) can0 0EF81490#00
(1438651056.057531) can0 12F84010#40
(1438651056.085855) can0 12F89090#00010004
(1438651056.101789) can0 12F96050#00000000410A00
(1438651056.107532) can0 0EF81510#02
(1438651056.110282) can0 1610FF54#
(1438651056.117529) can0 0EF82010#00
(1438651056.118523) can0 12F83010#80
(1438651056.127592) can0 12F83410#20
(1438651056.128536) can0 12F84110#00
(1438651056.129547) can0 12F84210#00
(1438651056.130519) can0 12F84310#00
(1438651056.131893) can0 0EF91250#0000000000000008
(1438651056.137516) can0 12F87810#00
(1438651056.141613) can0 12F97450#8040
(1438651056.142667) can0 12F95F50#8284860000000000
(1438651056.143613) can0 12F85150#4001000060
(1438651056.147790) can0 1610FF72#
(1438651056.151543) can0 12F85050#000320200008
(1438651056.152353) can0 12F97150#E0FF58
(1438651056.152865) can0 12F97C50#18
(1438651056.153886) can0 0EF86350#00000000555567EF
(1438651056.155538) can0 12F82290#80
(1438651056.165664) can0 0EF82390#0102
(1438651056.167859) can0 12F81010#2800800000
(1438651056.168527) can0 0EF87372#0438
(1438651056.169155) can0 1610FF10#
(1438651056.171398) can0 12F96D50#04000000
(1438651056.175532) can0 0EF88190#00
(1438651056.181925) can0 12F85450#1636000000160000
(1438651056.197917) can0 0AF81110#180000000000
(1438651056.201752) can0 12F96050#00000000410A00
(1438651056.227659) can0 0AF87010#0024
(1438651056.241522) can0 12F97450#8040
(1438651056.251674) can0 12F85050#000320200008
(1438651056.252650) can0 12F97150#E0FF58
(1438651056.253658) can0 0EF86350#00000000555569ED
(1438651056.257624) can0 12F83110#08
(1438651056.267544) can0 12F82C10#20
(1438651056.268513) can0 12F83210#08
(1438651056.277686) can0 0AF87110#00FF00
(1438651056.301804) can0 12F96050#00000000410A00
(1438651056.304540) can0 16F97D54#A22518199F91EE21
(1438651056.331638) can0 0EF91250#0000000000000008
(1438651056.332754) can0 12F86150#00001000000000FC
(1438651056.341437) can0 12F97450#8040
(1438651056.342057) can0 12F85C50#00
(1438651056.343274) can0 16F86250#0F00000000000000
(1438651056.344773) can0 0AF97950#00
(1438651056.345138) can0 12F95A50#00000000
(1438651056.351301) can0 12F88090#00
(1438651056.351788) can0 12F85050#000322200008
(1438651056.352311) can0 12F97150#E0FF58
(1438651056.353025) can0 12F97350#0000
(1438651056.354158) can0 0EF86350#0000000055556CEA
(1438651056.355609) can0 0EF81490#00
(1438651056.357526) can0 12F84010#40
(1438651056.371632) can0 12F96D50#04000000
(1438651056.385861) can0 12F89090#00010004
(1438651056.401799) can0 12F96050#00000000410A00
(1438651056.407538) can0 0EF81510#02
(1438651056.417557) can0 0EF82010#00
(1438651056.418531) can0 12F83010#80
(1438651056.427569) can0 12F83410#20
(1438651056.428562) can0 12F84110#00
(1438651056.429571) can0 12F84210#00
(1438651056.430549) can0 12F84310#00
(1438651056.437573) can0 12F87810#00
(1438651056.441382) can0 12F97450#8040
(1438651056.442263) can0 12F85150#4001000060
(1438651056.451615) can0 12F85050#000326200008
(1438651056.452370) can0 12F97150#E0FF58
(1438651056.453548) can0 0EF86350#0000000055556EE8
(1438651056.465702) can0 0EF82390#0102
(1438651056.467562) can0 0EF87372#0438
(1438651056.468516) can0 12F81010#2800800000
(1438651056.475628) can0 0EF88190#00
(1438651056.481870) can0 12F85450#1636000000160000
(1438651056.497940) can0 0AF81110#180000000000
(1438651056.501877) can0 12F96050#00000000410A00
(1438651056.527674) can0 0AF87010#0024
(1438651056.531684) can0 0EF91250#0000000000000008
(1438651056.541454) can0 12F97450#8040
(1438651056.551645) can0 12F85050#00031F200008
(1438651056.552711) can0 0EF86350#00000000555571E5
(1438651056.553516) can0 12F97150#E0FF58
(1438651056.554328) can0 12F85250#7F0038A8
(1438651056.557567) can0 12F83110#08
(1438651056.567572) can0 12F82C10#20
(1438651056.568557) can0 12F83210#08
(1438651056.571384) can0 12F96D50#04000000
(1438651056.577688) can0 0AF87110#00FF00
(1438651056.601766) can0 12F96050#00000000410A00
(1438651056.631690) can0 12F86150#00001000000000FC
(1438651056.641514) can0 12F97450#8040
(1438651056.642050) can0 12F85C50#00
(1438651056.643209) can0 12F95F50#8284860000000000
(1438651056.644404) can0 16F86250#0000000010000000
(1438651056.645029) can0 0AF97950#00
(1438651056.645896) can0 12F95A50#00000000
(1438651056.650592) can0 12F88090#00
(1438651056.651582) can0 12F85050#000318200008
(1438651056.652383) can0 12F97150#E0FF58
(1438651056.653057) can0 12F97350#0000
(1438651056.653691) can0 12F97C50#18
(1438651056.654883) can0 0EF86350#00000000555573E3
(1438651056.655691) can0 0EF81490#00
(1438651056.657555) can0 12F84010#40
(1438651056.685893) can0 12F89090#00010004
(1438651056.701802) can0 12F96050#00000000410A00
(1438651056.707675) can0 0EF81510#02
(1438651056.717595) can0 0EF82010#00
(1438651056.718578) can0 12F83010#80
(1438651056.727586) can0 12F83410#20
(1438651056.728576) can0 12F84110#00
(1438651056.729590) can0 12F84210#00
(1438651056.730559) can0 12F84310#00
(1438651056.731720) can0 0EF91250#0000000000000008
(1438651056.737560) can0 12F87810#00
(1438651056.741401) can0 12F97450#8040
(1438651056.742288) can0 12F85150#4001000060
(1438651056.751430) can0 12F85050#00031B200008
(1438651056.752181) can0 12F97150#E0FF58
(1438651056.753309) can0 0EF86350#00000000555576E0
(1438651056.754900) can0 1610FF90#
(1438651056.765668) can0 0EF82390#0102
(1438651056.767280) can0 0EF87372#0438
(1438651056.768204) can0 12F81010#2800800000
(1438651056.769949) can0 1610FF50#
(1438651056.771342) can0 12F96D50#04000000
(1438651056.775564) can0 0EF88190#00
(1438651056.781830) can0 12F85450#1636000000160000
(1438651056.797962) can0 0AF81110#180000000000
(1438651056.801828) can0 12F96050#00000000410A00
(1438651056.827671) can0 0AF87010#0024
(1438651056.841349) can0 12F97450#8000
(1438651056.851409) can0 12F85050#00031B200008
(1438651056.852100) can0 12F97150#E0FF58
(1438651056.852727) can0 12F97650#04
(1438651056.853843) can0 0EF86350#00000000555578DE
(1438651056.857564) can0 12F83110#08
(1438651056.867590) can0 12F82C10#20
(1438651056.868566) can0 12F83210#08
(1438651056.877718) can0 0AF87110#00FF00
(1438651056.901712) can0 12F96050#00000000410A00
(1438651056.931597) can0 0EF91250#0000000000000008
(1438651056.932726) can0 12F86150#00001000000000FC
(1438651056.941588) can0 12F97450#8000
(1438651056.942104) can0 12F85C50#00
(1438651056.943461) can0 16F86250#01334847474B3500
(1438651056.943870) can0 0AF97950#00
(1438651056.944912) can0 12F95A50#00000000
(1438651056.950620) can0 12F88090#00
(1438651056.951711) can0 12F85050#00031E200008
(1438651056.952538) can0 12F97150#E0FF58
(1438651056.953084) can0 12F97350#0000
(1438651056.954419) can0 0EF86350#0000000055557BDB
(1438651056.955602) can0 0EF81490#00
(1438651056.957594) can0 12F84010#40
(1438651056.971182) can0 12F96D50#04000000
(1438651056.985837) can0 12F89090#00010004
(1438651057.001581) can0 12F96050#00000000410A00
(1438651057.007588) can0 0EF81510#02
(1438651057.017589) can0 0EF82010#00
(1438651057.018580) can0 12F83010#80
(1438651057.027718) can0 12F83410#20
(1438651057.028598) can0 12F84110#00
(1438651057.029604) can0 12F84210#00
(1438651057.030588) can0 12F84310#00
(1438651057.037592) can0 12F87810#00
(1438651057.041332) can0 12F97450#8000
(1438651057.042212) can0 12F85150#4001000060
(1438651057.051715) can0 12F85050#00031A200008
(1438651057.052371) can0 12F97150#E0FF58
(1438651057.053612) can0 0EF86350#0000000055557DD9
(1438651057.065619) can0 0EF82390#0102
(1438651057.066972) can0 0EF87372#0438
(1438651057.067871) can0 12F81010#2800800000
(1438651057.075569) can0 0EF88190#00
(1438651057.081820) can0 12F85450#1636000000160000
(1438651057.097963) can0 0AF81110#180000000000
(1438651057.101756) can0 12F96050#00000000410A00
(1438651057.110730) can0 1610FF54#
(1438651057.127680) can0 0AF87010#0024
(1438651057.131738) can0 0EF91250#0000000000000008
(1438651057.141362) can0 12F97450#8040
(1438651057.142325) can0 12F96750#B2270F890000
(1438651057.143463) can0 12F95F50#8284860000000000
(1438651057.146717) can0 1610FF72#
(1438651057.151373) can0 12F85050#00031B200008
(1438651057.152100) can0 12F97150#E0FF58
(1438651057.152730) can0 12F97C50#18
(1438651057.153857) can0 0EF86350#00000000555580D6
(1438651057.155551) can0 12F82290#80
(1438651057.157561) can0 12F83110#08
(1438651057.167703) can0 12F82C10#20
(1438651057.168710) can0 12F83210#08
(1438651057.169763) can0 1610FF10#
(1438651057.171578) can0 12F96D50#04000000
(1438651057.177732) can0 0AF87110#00FF00
(1438651057.197614) can0 0EF82010#40
(1438651057.198560) can0 12F83110#28
(1438651057.201749) can0 12F96050#00000000410A00
(1438651057.231515) can0 12F86150#00001000000000FC
(1438651057.241507) can0 12F97450#8000
(1438651057.242127) can0 12F85C50#00
(1438651057.243206) can0 16F86250#02483839464D3700
(1438651057.243849) can0 0AF97950#00
(1438651057.244707) can0 12F95A50#00000000
(1438651057.250586) can0 12F88090#00
(1438651057.251582) can0 12F85050#000321200008
(1438651057.252862) can0 12F97150#E0FF58
(1438651057.253759) can0 12F97350#0000
(1438651057.254688) can0 0EF86350#00000000555582D4
(1438651057.255996) can0 0EF81490#00
(1438651057.257633) can0 12F84010#40
(1438651057.277730) can0 12F84110#80
(1438651057.278739) can0 12F84210#80
(1438651057.285851) can0 12F89090#00010004
(1438651057.301829) can0 12F96050#00000000410A00
(1438651057.304587) can0 16F97D54#A22518199F91EEA1
(1438651057.307596) can0 0EF81510#02
(1438651057.317605) can0 12F83010#80
(1438651057.327605) can0 12F83410#20
(1438651057.328589) can0 12F84310#00
(1438651057.331620) can0 0EF91250#0000000000000008
(1438651057.337574) can0 12F87810#00
(1438651057.341268) can0 12F97450#8040
(1438651057.342213) can0 12F85150#4001000060
(1438651057.351481) can0 12F85050#000320200008
(1438651057.352238) can0 12F97150#E0FF58
(1438651057.353365) can0 0EF86350#00000000555585D1
(1438651057.365705) can0 0EF82390#0102
(1438651057.366632) can0 0EF87372#0438
(1438651057.367877) can0 12F81010#2800800000
(1438651057.371091) can0 12F96D50#04000000
(1438651057.375532) can0 0EF88190#00
(1438651057.381892) can0 12F85450#1636000000160000
(1438651057.397972) can0 0AF81110#180000000000
(1438651057.401720) can0 12F96050#00000000410A00
(1438651057.427703) can0 0AF87010#0024
(1438651057.441259) can0 12F97450#8040
(1438651057.451456) can0 12F85050#00031C200008
(1438651057.452216) can0 12F97150#E0FF58
(1438651057.453350) can0 0EF86350#00000000555587CF
(1438651057.467631) can0 12F82C10#20
(1438651057.468585) can0 12F83210#08
(1438651057.477731) can0 0AF87110#00FF00
(1438651057.497607) can0 0EF82010#40
(1438651057.498532) can0 12F83110#28
(1438651057.501780) can0 12F96050#00000000410A00
(1438651057.517646) can0 12F83110#08
(1438651057.531750) can0 0EF91250#0000000000000008
(1438651057.532859) can0 12F86150#00001000000000FC
(1438651057.541469) can0 12F97450#8040
(1438651057.542098) can0 12F85C50#00
(1438651057.543169) can0 16F86250#0333333134300000
(1438651057.543796) can0 0AF97950#00
(1438651057.544672) can0 12F95A50#00000000
(1438651057.550631) can0 12F88090#00
(1438651057.551629) can0 12F85050#000320200008
(1438651057.552750) can0 0EF86350#0000000055558ACC
(1438651057.553518) can0 12F97150#E0FF58
(1438651057.554218) can0 12F97350#0000
(1438651057.555033) can0 12F85250#7F0038A8
(1438651057.555724) can0 0EF81490#00
(1438651057.557595) can0 12F84010#40
(1438651057.571275) can0 12F96D50#04000000
(1438651057.577604) can0 12F84110#80
(1438651057.578592) can0 12F84210#80
(1438651057.585839) can0 12F89090#00010004
(1438651057.601889) can0 12F96050#00000000410A00
(1438651057.607607) can0 0EF81510#02
(1438651057.617614) can0 12F83010#80
(1438651057.627655) can0 12F83410#20
(1438651057.628739) can0 12F84310#00
(1438651057.637649) can0 12F87810#00
(1438651057.641555) can0 12F97450#8040
(1438651057.642555) can0 12F95F50#8284860000000000
(1438651057.643493) can0 12F85150#4001000060
(1438651057.651400) can0 12F85050#000326200008
(1438651057.652153) can0 12F97150#E0FF58
(1438651057.652792) can0 12F97C50#18
(1438651057.653916) can0 0EF86350#0000000055558CCA
(1438651057.665671) can0 0EF82390#0102
(1438651057.666347) can0 0EF87372#0438
(1438651057.667910) can0 12F81010#2800800000
(1438651057.675612) can0 0EF88190#00
(1438651057.681797) can0 12F85450#1636000000160000
(1438651057.697993) can0 0AF81110#180000000000
(1438651057.701867) can0 12F96050#00000000410A00
(1438651057.727682) can0 0AF87010#0024
(1438651057.731545) can0 0EF91250#0000000000000008
(1438651057.741677) can0 12F97450#8000
(1438651057.751619) can0 12F85050#000316200008
(1438651057.752265) can0 12F97150#E0FF58
(1438651057.753551) can0 0EF86350#0000000055558FC7
(1438651057.755265) can0 1610FF90#
(1438651057.767630) can0 12F82C10#20
(1438651057.768564) can0 12F83210#08
(1438651057.771127) can0 12F96D50#04000000
(1438651057.775156) can0 1610FF50#
(1438651057.777691) can0 0AF87110#00FF00
(1438651057.797621) can0 0EF82010#00
(1438651057.801544) can0 12F96050#00000000410A00
(1438651057.817611) can0 12F83110#08
(1438651057.831519) can0 12F86150#00001000000000FC
(1438651057.841501) can0 12F97450#8040
(1438651057.842127) can0 12F85C50#00
(1438651057.843243) can0 16F86250#0431144003050000
(1438651057.843873) can0 0AF97950#00
(1438651057.844738) can0 12F95A50#00000000
(1438651057.850779) can0 12F88090#00
(1438651057.851786) can0 12F85050#00031D200008
(1438651057.852439) can0 12F97150#E0FF58
(1438651057.853010) can0 12F97350#0000
(1438651057.853761) can0 12F97650#04
(1438651057.854812) can0 0EF86350#00000000555591C5
(1438651057.855789) can0 0EF81490#00
(1438651057.857763) can0 12F84010#40
(1438651057.877669) can0 12F84110#80
(1438651057.878570) can0 12F84210#80
(1438651057.885809) can0 12F89090#00010004
(1438651057.901670) can0 12F96050#00000000410A00
(1438651057.907562) can0 0EF81510#02
(1438651057.917622) can0 12F83010#80
(1438651057.927621) can0 12F83410#20
(1438651057.928559) can0 12F84310#00
(1438651057.931629) can0 0EF91250#0000000000000008
(1438651057.937572) can0 12F87810#00
(1438651057.941306) can0 12F97450#8040
(1438651057.942188) can0 12F85150#4001000060
(1438651057.951500) can0 12F85050#00031E200008
(1438651057.952247) can0 12F97150#E0FF58
(1438651057.953373) can0 0EF86350#00000000555594C2
(1438651057.965790) can0 0EF82390#0102
(1438651057.966696) can0 0EF87372#0438
(1438651057.967931) can0 12F81010#2800800000
(1438651057.971296) can0 12F96D50#04000000
(1438651057.975821) can0 0EF88190#00
(1438651057.981918) can0 12F85450#1636000000160000
(1438651057.997958) can0 0AF81110#180000000000
(1438651058.001636) can0 12F96050#00000000410A00
(1438651058.027698) can0 0AF87010#0024
(1438651058.041335) can0 12F97450#8040
(1438651058.051387) can0 12F85050#00031C200008
(1438651058.052141) can0 12F97150#E0FF58
(1438651058.053262) can0 0EF86350#00000000555596C0
(1438651058.067630) can0 12F82C10#20
(1438651058.068559) can0 12F83210#08
(1438651058.077815) can0 0AF87110#00FF00
(1438651058.097691) can0 0EF82010#00
(1438651058.101796) can0 12F96050#00000000410A00
(1438651058.111312) can0 1610FF54#
(1438651058.117573) can0 12F83110#08
(1438651058.131773) can0 0EF91250#0000000000000008
(1438651058.132895) can0 12F86150#00001000000000FC
(1438651058.141533) can0 12F97450#8040
(1438651058.142158) can0 12F85C50#00
(1438651058.143300) can0 12F95F50#8284860000000000
(1438651058.144456) can0 16F86250#0500000000000000
(1438651058.145078) can0 0AF97950#00
(1438651058.145931) can0 12F95A50#00000000
(1438651058.146546) can0 1610FF72#
(1438651058.150560) can0 12F88090#00
(1438651058.151536) can0 12F85050#00031B200008
(1438651058.152306) can0 12F97150#E0FF58
(1438651058.153021) can0 12F97350#0000
(1438651058.153652) can0 12F97C50#18
(1438651058.154777) can0 0EF86350#00000000555599BD
(1438651058.155579) can0 12F82290#80
(1438651058.156291) can0 0EF81490#00
(1438651058.157588) can0 12F84010#40
(1438651058.167584) can0 1610FF10#
(1438651058.171264) can0 12F96D50#04000000
(1438651058.177651) can0 12F84110#80
(1438651058.178582) can0 12F84210#80
(1438651058.185836) can0 12F89090#00010004
(1438651058.201809) can0 12F96050#00000000410A00
(1438651058.207795) can0 0EF81510#02
(1438651058.217603) can0 12F83010#80
(1438651058.227601) can0 12F83410#20
(1438651058.228592) can0 12F84310#00
(1438651058.237597) can0 12F87810#00
(1438651058.241597) can0 12F97450#8000
(1438651058.242326) can0 12F85150#4001000060
(1438651058.251411) can0 12F85050#000314200008
(1438651058.252163) can0 12F97150#E0FF58
(1438651058.253278) can0 0EF86350#0000000055559BBB
(1438651058.265707) can0 0EF82390#0102
(1438651058.266344) can0 0EF87372#0438
(1438651058.267912) can0 12F81010#2800800000
(1438651058.275600) can0 0EF88190#00
(1438651058.281923) can0 12F85450#1636000000160000
(1438651058.297978) can0 0AF81110#180000000000
(1438651058.301730) can0 12F96050#00000000410A00
(1438651058.304406) can0 16F97D54#A22518199F91EF21
(1438651058.327717) can0 0AF87010#0024
(1438651058.331555) can0 0EF91250#0000000000000008
(1438651058.341452) can0 12F97450#8040
(1438651058.351488) can0 12F85050#000323200008
(1438651058.352237) can0 12F97150#E0FF58
(1438651058.353363) can0 0EF86350#0000000055559EB8
(1438651058.367602) can0 12F82C10#20
(1438651058.368589) can0 12F83210#08
(1438651058.371116) can0 12F96D50#04000000
(1438651058.377725) can0 0AF87110#00FF00
(1438651058.397672) can0 0EF82010#00
(1438651058.401714) can0 12F96050#00000000410A00
(1438651058.417613) can0 12F83110#08
(1438651058.431684) can0 12F86150#00001000000000FC
(1438651058.441674) can0 12F97450#8000
(1438651058.442109) can0 12F85C50#00
(1438651058.443351) can0 16F86250#0600000000000000
(1438651058.443920) can0 0AF97950#00
(1438651058.444744) can0 12F95A50#00000000
(1438651058.450563) can0 12F88090#00
(1438651058.451552) can0 12F85050#000323200008
(1438651058.452317) can0 12F97150#E0FF58
(1438651058.452990) can0 12F97350#0000
(1438651058.454115) can0 0EF86350#000000005555A0B6
(1438651058.455926) can0 0EF81490#00
(1438651058.457584) can0 12F84010#40
(1438651058.477626) can0 12F84110#80
(1438651058.478604) can0 12F84210#80
(1438651058.485853) can0 12F89090#00010004
(1438651058.501844) can0 12F96050#00000000410A00
(1438651058.507613) can0 0EF81510#02
(1438651058.517618) can0 12F83010#80
(1438651058.527623) can0 12F83410#20
(1438651058.528592) can0 12F84310#00
(1438651058.531610) can0 0EF91250#0000000000000008
(1438651058.537593) can0 12F87810#00
(1438651058.541679) can0 12F97450#8000
(1438651058.542592) can0 12F85150#4001000060
(1438651058.551625) can0 12F85050#000319200008
(1438651058.552695) can0 0EF86350#000000005555A3B3
(1438651058.553499) can0 12F97150#E0FF58
(1438651058.554192) can0 12F85250#7F0038A8
(1438651058.565382) can0 0EF87372#0438
(1438651058.566075) can0 0EF82390#0102
(1438651058.567941) can0 12F81010#2800800000
(1438651058.571122) can0 12F96D50#04000000
(1438651058.575511) can0 0EF88190#00
(1438651058.581871) can0 12F85450#1636000000160000
(1438651058.598006) can0 0AF81110#180000000000
(1438651058.601555) can0 12F96050#00000000410A00
(1438651058.627724) can0 0AF87010#0024
(1438651058.641329) can0 12F97450#8040
(1438651058.642453) can0 12F95F50#8284860000000000
(1438651058.651567) can0 12F85050#000326200008
(1438651058.652116) can0 12F97150#E0FF58
(1438651058.652821) can0 12F97C50#18
(1438651058.653889) can0 0EF86350#000000005555A5B1
(1438651058.667645) can0 12F82C10#20
(1438651058.668630) can0 12F83210#08
(1438651058.677768) can0 0AF87110#00FF00
(1438651058.697709) can0 0EF82010#00
(1438651058.701825) can0 12F96050#00000000410A00
(1438651058.717627) can0 12F83110#08
(1438651058.731633) can0 0EF91250#0000000000000008
(1438651058.732727) can0 12F86150#00001000000000FC
(1438651058.741401) can0 12F97450#8000
(1438651058.742024) can0 12F85C50#00
(1438651058.742891) can0 12F95A50#00000000
(1438651058.744102) can0 16F86250#0700000000000000
(1438651058.744711) can0 0AF97950#00
(1438651058.750523) can0 12F88090#00
(1438651058.751508) can0 12F85050#000325200008
(1438651058.752277) can0 12F97150#E0FF58
(1438651058.752985) can0 12F97350#0000
(1438651058.754109) can0 0EF86350#000000005555A8AE
(1438651058.755378) can0 1610FF90#
(1438651058.756019) can0 0EF81490#00
(1438651058.757613) can0 12F84010#40
(1438651058.771359) can0 12F96D50#04000000
(1438651058.777872) can0 12F84110#80
(1438651058.778860) can0 12F84210#80
(1438651058.779894) can0 1610FF50#
(1438651058.785892) can0 12F89090#00010004
(1438651058.801697) can0 12F96050#00000000410A00
(1438651058.807634) can0 0EF81510#02
(1438651058.817640) can0 12F83010#80
(1438651058.827641) can0 12F83410#20
(1438651058.828633) can0 12F84310#00
(1438651058.837639) can0 12F87810#00
(1438651058.841408) can0 12F97450#8000
(1438651058.842344) can0 12F85150#4001000060
(1438651058.851397) can0 12F85050#000320200008
(1438651058.852138) can0 12F97150#E0FF58
(1438651058.852774) can0 12F97650#04
(1438651058.853897) can0 0EF86350#000000005555AAAC
(1438651058.865086) can0 0EF87372#0438
(1438651058.865775) can0 0EF82390#0102
(1438651058.867894) can0 12F81010#2800800000
(1438651058.875525) can0 0EF88190#00
(1438651058.881665) can0 12F85450#1636000000160000
(1438651058.898023) can0 0AF81110#180000000000
(1438651058.901748) can0 12F96050#00000000410A00
(1438651058.927761) can0 0AF87010#0024
(1438651058.931505) can0 0EF91250#0000000000000008
(1438651058.941229) can0 12F97450#8000
(1438651058.951469) can0 12F85050#000328200008
(1438651058.952216) can0 12F97150#E0FF58
(1438651058.953333) can0 0EF86350#000000005555ADA9
(1438651058.967653) can0 12F82C10#20
(1438651058.968624) can0 12F83210#08
(1438651058.971285) can0 12F96D50#04000000
(1438651058.977765) can0 0AF87110#00FF00
(1438651058.997655) can0 0EF82010#00
(1438651059.001772) can0 12F96050#00000000410A00
(1438651059.017643) can0 12F83110#08
(1438651059.031542) can0 12F86150#00001000000000FC
(1438651059.041282) can0 12F97450#8000
(1438651059.041895) can0 12F85C50#00
(1438651059.043028) can0 16F86250#0800000000000000
(1438651059.043885) can0 12F95A50#00000000
(1438651059.044522) can0 0AF97950#00
(1438651059.050547) can0 12F88090#00
(1438651059.051527) can0 12F85050#000326200008
(1438651059.052297) can0 12F97150#E0FF58
(1438651059.053028) can0 12F97350#0000
(1438651059.054162) can0 0EF86350#000000005555AFA7
(1438651059.055614) can0 0EF81490#00
(1438651059.057635) can0 12F84010#40
(1438651059.077660) can0 12F84110#80
(1438651059.078634) can0 12F84210#80
(1438651059.085790) can0 12F89090#00010004
(1438651059.101798) can0 12F96050#00000000410A00
(1438651059.107620) can0 0EF81510#02
(1438651059.111982) can0 1610FF54#
(1438651059.117770) can0 12F83010#80
(1438651059.127773) can0 12F83410#20
(1438651059.128761) can0 12F84310#00
(1438651059.131607) can0 0EF91250#0000000000000008
(1438651059.137749) can0 12F87810#00
(1438651059.141242) can0 12F97450#8000
(1438651059.142371) can0 12F95F50#8284860000000000
(1438651059.143271) can0 12F85150#4001000060
(1438651059.144556) can0 1610FF72#
(1438651059.151228) can0 12F85050#000320200008
(1438651059.151979) can0 12F97150#E0FF58
(1438651059.152623) can0 12F97C50#18
(1438651059.153741) can0 0EF86350#000000005555B2A4
(1438651059.155521) can0 12F82290#80
(1438651059.164767) can0 0EF87372#0438
(1438651059.165661) can0 0EF82390#0102
(1438651059.167915) can0 12F81010#2800800000
(1438651059.168608) can0 1610FF10#
(1438651059.171164) can0 12F96D50#04000000
(1438651059.175537) can0 0EF88190#00
(1438651059.181671) can0 12F85450#1636000000160000
(1438651059.198507) can0 0AF81110#180000000000
(1438651059.201754) can0 12F96050#00000000410A00
(1438651059.227740) can0 0AF87010#0024
(1438651059.241275) can0 12F97450#8000
(1438651059.251409) can0 12F85050#000324200008
(1438651059.252065) can0 12F97150#E0FF58
(1438651059.253259) can0 0EF86350#000000005555B4A2
(1438651059.267680) can0 12F82C10#20
(1438651059.268623) can0 12F83210#08
(1438651059.277803) can0 0AF87110#00FF00
(1438651059.297672) can0 0EF82010#00
(1438651059.301702) can0 12F96050#00000000410A00
(1438651059.304400) can0 16F97D54#A22518199F91EFA1
(1438651059.317638) can0 12F83110#08
(1438651059.331574) can0 0EF91250#0000000000000008
(1438651059.332697) can0 12F86150#00001000000000FC
(1438651059.341399) can0 12F97450#8040
(1438651059.342015) can0 12F85C50#00
(1438651059.343185) can0 16F86250#0900000000000000
(1438651059.343817) can0 0AF97950#00
(1438651059.344660) can0 12F95A50#00000000
(1438651059.350824) can0 12F88090#00
(1438651059.351874) can0 12F85050#000324200008
(1438651059.352300) can0 12F97150#E0FF58
(1438651059.352954) can0 12F97350#0000
(1438651059.354174) can0 0EF86350#000000005555B79F
(1438651059.355811) can0 0EF81490#00
(1438651059.357885) can0 12F84010#40
(1438651059.371247) can0 12F96D50#04000000
(1438651059.377645) can0 12F84110#80
(1438651059.378642) can0 12F84210#80
(1438651059.385816) can0 12F89090#00010004
(1438651059.401562) can0 12F96050#00000000410A00
(1438651059.407684) can0 0EF81510#02
(1438651059.417661) can0 12F83010#80
(1438651059.427673) can0 12F83410#20
(1438651059.428648) can0 12F84310#00
(1438651059.437650) can0 12F87810#00
(1438651059.441388) can0 12F97450#8000
(1438651059.442276) can0 12F85150#4001000060
(1438651059.451323) can0 12F85050#000328200008
(1438651059.452073) can0 12F97150#E0FF58
(1438651059.453201) can0 0EF86350#000000005555B99D
(1438651059.464781) can0 0EF87372#0438
(1438651059.465836) can0 0EF82390#0102
(1438651059.468009) can0 12F81010#2800800000
(1438651059.475828) can0 0EF88190#00
(1438651059.481898) can0 12F85450#1636000000160000
(1438651059.498029) can0 0AF81110#180000000000
(1438651059.501520) can0 12F96050#00000000410A00
(1438651059.527776) can0 0AF87010#0024
(1438651059.531405) can0 0EF91250#0000000000000008
(1438651059.541160) can0 12F97450#8000
(1438651059.551321) can0 12F85050#000324200008
(1438651059.552414) can0 0EF86350#000000005555BC9A
(1438651059.553190) can0 12F97150#E0FF58
(1438651059.554031) can0 12F85250#7F0038A8
(1438651059.567661) can0 12F82C10#20
(1438651059.568639) can0 12F83210#08
(1438651059.571265) can0 12F96D50#04000000
(1438651059.577769) can0 0AF87110#00FF00
(1438651059.597809) can0 0EF82010#00
(1438651059.601588) can0 12F96050#00000000410A00
(1438651059.617681) can0 12F83110#08
(1438651059.631471) can0 12F86150#00001000000000FC
(1438651059.641221) can0 12F97450#8000
(1438651059.641844) can0 12F85C50#00
(1438651059.642981) can0 12F95F50#8284860000000000
(1438651059.644184) can0 16F86250#0A00000000808000
(1438651059.644794) can0 0AF97950#00
(1438651059.645665) can0 12F95A50#00000000
(1438651059.650581) can0 12F88090#00
(1438651059.651570) can0 12F85050#000318200008
(1438651059.652687) can0 0EF86350#000000005555BE98
(1438651059.653447) can0 12F97150#E0FF58
(1438651059.654087) can0 12F97C50#18
(1438651059.654815) can0 12F97350#0000
(1438651059.655659) can0 0EF81490#00
(1438651059.657602) can0 12F84010#40
(1438651059.677686) can0 12F84110#80
(1438651059.678648) can0 12F84210#80
(1438651059.685824) can0 12F89090#00010004
(1438651059.701939) can0 12F96050#00000000410A00
(1438651059.707672) can0 0EF81510#02
(1438651059.717691) can0 12F83010#80
(1438651059.727673) can0 12F83410#20
(1438651059.728653) can0 12F84310#00
(1438651059.731432) can0 0EF91250#0000000000000008
(1438651059.737613) can0 12F87810#00
(1438651059.741199) can0 12F97450#8000
(1438651059.742085) can0 12F85150#4001000060
(1438651059.751223) can0 12F85050#00031C200008
(1438651059.751972) can0 12F97150#E0FF58
(1438651059.753100) can0 0EF86350#000000005555C195
(1438651059.753708) can0 1610FF90#
(1438651059.764110) can0 0EF87372#0437
(1438651059.765592) can0 0EF82390#0102
(1438651059.767947) can0 12F81010#2800800000
(1438651059.771207) can0 12F96D50#04000000
(1438651059.775545) can0 0EF88190#00
(1438651059.781787) can0 12F85450#1636000000160000
(1438651059.784487) can0 1610FF50#
(1438651059.798048) can0 0AF81110#180000000000
(1438651059.801855) can0 12F96050#00000000410A00
(1438651059.827795) can0 0AF87010#0024
(1438651059.828619) can0 12F83110#18
(1438651059.841218) can0 12F97450#8000
(1438651059.851169) can0 12F85050#00031A200008
(1438651059.851919) can0 12F97150#E0FF58
(1438651059.852553) can0 12F97650#04
(1438651059.853672) can0 0EF86350#000000005555C393
(1438651059.867676) can0 12F82C10#20
(1438651059.868619) can0 12F83210#08
(1438651059.877803) can0 0AF87110#00FF00
(1438651059.897683) can0 0EF82010#00
(1438651059.901747) can0 12F96050#00000000410A00
(1438651059.931458) can0 0EF91250#0000000000000008
(1438651059.932722) can0 12F86150#00001000000000FC
(1438651059.941250) can0 12F97450#8000
(1438651059.941867) can0 12F85C50#00
(1438651059.943084) can0 16F86250#0B00000000000000
(1438651059.943692) can0 0AF97950#00
(1438651059.944555) can0 12F95A50#00000000
(1438651059.950571) can0 12F88090#00
(1438651059.951569) can0 12F85050#000317200008
(1438651059.952318) can0 12F97150#E0FF58
(1438651059.952996) can0 12F97350#0000
(1438651059.954127) can0 0EF86350#000000005555C690
(1438651059.955593) can0 0EF81490#00
(1438651059.957631) can0 12F84010#40
(1438651059.971310) can0 12F96D50#04000000
(1438651059.977633) can0 12F84110#80
(1438651059.978624) can0 12F84210#80
(1438651059.985813) can0 12F89090#00010004
(1438651060.001700) can0 12F96050#00000000410A00
(1438651060.007636) can0 0EF81510#02
(1438651060.017702) can0 12F83010#80
(1438651060.027730) can0 12F83410#20
(1438651060.028619) can0 12F84310#00
(1438651060.038078) can0 12F87810#00
(1438651060.041221) can0 12F97450#8000
(1438651060.042123) can0 12F85150#4001000060
(1438651060.051480) can0 12F85050#00031D200008
(1438651060.052225) can0 12F97150#E0FF58
(1438651060.053348) can0 0EF86350#000000005555C88E
(1438651060.063807) can0 0EF87372#0437
(1438651060.065617) can0 0EF82390#0102
(1438651060.067952) can0 12F81010#2800800000
(1438651060.075558) can0 0EF88190#00
(1438651060.081849) can0 12F85450#1636000000160000
(1438651060.098014) can0 0AF81110#180000000000
(1438651060.101576) can0 12F96050#00000000410A00
(1438651060.112442) can0 1610FF54#
(1438651060.127827) can0 0AF87010#0024
(1438651060.128632) can0 12F83110#18
(1438651060.131740) can0 0EF91250#0000000000000008
(1438651060.132752) can0 12F96150#415F0000000000
(1438651060.141252) can0 12F97450#8000
(1438651060.142376) can0 12F96B50#7FF8F10000000000
(1438651060.143647) can0 12F95F50#8284860000000000
(1438651060.144227) can0 1610FF72#
(1438651060.151267) can0 12F85050#000318200008
(1438651060.152004) can0 12F97150#E0FF58
(1438651060.152885) can0 12F97C50#18
(1438651060.153953) can0 0EF86350#000000005555CB8B
(1438651060.155745) can0 12F82290#80
(1438651060.167690) can0 12F82C10#20
(1438651060.168632) can0 12F83210#08
(1438651060.169651) can0 1610FF10#
(1438651060.171127) can0 12F96D50#04000000
(1438651060.177766) can0 0AF87110#00FF00
(1438651060.197693) can0 0EF82010#00
(1438651060.201765) can0 12F96050#00000000410A00
(1438651060.231581) can0 12F86150#00001000000000FC
(1438651060.241321) can0 12F97450#8000
(1438651060.241898) can0 12F85C50#00
(1438651060.243094) can0 16F86250#0C00000000000000
(1438651060.243721) can0 0AF97950#00
(1438651060.244602) can0 12F95A50#00000000
(1438651060.250837) can0 12F88090#00
(1438651060.251850) can0 12F85050#00031F200008
(1438651060.252285) can0 12F97150#E0FF58
(1438651060.253514) can0 0EF86350#000000005555CD89
(1438651060.254130) can0 12F97350#0000
(1438651060.255860) can0 0EF81490#00
(1438651060.257905) can0 12F83110#08
(1438651060.258951) can0 12F84010#40
(1438651060.277708) can0 12F84110#80
(1438651060.278638) can0 12F84210#80
(1438651060.285783) can0 12F89090#00010004
(1438651060.301453) can0 12F96050#00000000410A00
(1438651060.304347) can0 16F97D54#A22518199F91F021
(1438651060.307647) can0 0EF81510#02
(1438651060.317657) can0 12F83010#80
(1438651060.327893) can0 12F83410#20
(1438651060.328648) can0 12F84310#00
(1438651060.331769) can0 0EF91250#0000000000000008
(1438651060.337635) can0 12F87810#00
(1438651060.341339) can0 12F97450#8000
(1438651060.342241) can0 12F85150#4001000060
(1438651060.351480) can0 12F85050#000321200008
(1438651060.352229) can0 12F97150#E0FF58
(1438651060.353354) can0 0EF86350#000000005555D086
(1438651060.363497) can0 0EF87372#0437
(1438651060.365602) can0 0EF82390#0102
(1438651060.367914) can0 12F81010#2800800000
(1438651060.371208) can0 12F96D50#04000000
(1438651060.375836) can0 0EF88190#00
(1438651060.381972) can0 12F85450#1636000000160000
(1438651060.398048) can0 0AF81110#180000000000
(1438651060.401518) can0 12F96050#00000000410A00
(1438651060.427796) can0 0AF87010#0024
(1438651060.441296) can0 12F97450#8040
(1438651060.451387) can0 12F85050#00031D200008
(1438651060.452140) can0 12F97150#E0FF58
(1438651060.453260) can0 0EF86350#000000005555D284
(1438651060.467676) can0 12F82C10#20
(1438651060.468661) can0 12F83210#08
(1438651060.477795) can0 0AF87110#00FF00
(1438651060.497670) can0 0EF82010#00
(1438651060.501518) can0 12F96050#00000000410A00
(1438651060.531677) can0 0EF91250#0000000000000008
(1438651060.532796) can0 12F86150#00001000000000FC
(1438651060.541369) can0 12F97450#8040
(1438651060.541996) can0 12F85C50#00
(1438651060.543172) can0 16F86250#0D00000000000000
(1438651060.543790) can0 0AF97950#00
(1438651060.544644) can0 12F95A50#00000000
(1438651060.550550) can0 12F88090#00
(1438651060.551535) can0 12F85050#000321200008
(1438651060.552665) can0 0EF86350#000000005555D581
(1438651060.553425) can0 12F97150#E0FF58
(1438651060.554157) can0 12F97350#0000
(1438651060.554997) can0 12F85250#7F0038A8
(1438651060.555672) can0 0EF81490#00
(1438651060.557661) can0 12F83110#08
(1438651060.558656) can0 12F84010#40
(1438651060.571302) can0 12F96D50#04000000
(1438651060.577668) can0 12F84110#80
(1438651060.578665) can0 12F84210#80
(1438651060.585796) can0 12F89090#00010004
(1438651060.601937) can0 12F96050#00000000410A00
(1438651060.607900) can0 0EF81510#02
(1438651060.617679) can0 12F83010#80
(1438651060.627681) can0 12F83410#20
(1438651060.628672) can0 12F84310#00
(1438651060.637732) can0 12F87810#00
(1438651060.641300) can0 12F97450#8040
(1438651060.642403) can0 12F95F50#8284860000000000
(1438651060.643318) can0 12F85150#4001000060
(1438651060.651160) can0 12F85050#000321200008
(1438651060.651905) can0 12F97150#E0FF58
(1438651060.652537) can0 12F97C50#18
(1438651060.653657) can0 0EF86350#000000005555D77F
(1438651060.663186) can0 0EF87372#0437
(1438651060.665672) can0 0EF82390#0102
(1438651060.667943) can0 12F81010#2800800000
(1438651060.675566) can0 0EF88190#00
(1438651060.681445) can0 12F85450#1636000000160000
(1438651060.698063) can0 0AF81110#180000000000
(1438651060.701814) can0 12F96050#00000000410A00
(1438651060.727798) can0 0AF87010#0024
(1438651060.731547) can0 0EF91250#0000000000000008
(1438651060.741281) can0 12F97450#8000
(1438651060.751367) can0 12F85050#00031D200008
(1438651060.752137) can0 12F97150#E0FF58
(1438651060.753248) can0 0EF86350#000000005555DA7C
(1438651060.753882) can0 1610FF90#
(1438651060.767704) can0 12F82C10#20
(1438651060.768674) can0 12F83210#08
(1438651060.771075) can0 12F96D50#04000000
(1438651060.777807) can0 0AF87110#00FF00
(1438651060.789759) can0 1610FF50#
(1438651060.797666) can0 0EF82010#00
(1438651060.801531) can0 12F96050#00000000410A00
(1438651060.831540) can0 12F86150#00001000000000FC
(1438651060.841314) can0 12F97450#8000
(1438651060.842208) can0 12F85C50#00
(1438651060.843073) can0 16F86250#0E00000000000000
(1438651060.843690) can0 0AF97950#00
(1438651060.844556) can0 12F95A50#00000000
(1438651060.850556) can0 12F88090#00
(1438651060.851558) can0 12F85050#000320200008
(1438651060.852317) can0 12F97150#E0FF58
(1438651060.853025) can0 12F97350#0000
(1438651060.853661) can0 12F97650#04
(1438651060.854775) can0 0EF86350#000000005555DC7A
(1438651060.855650) can0 0EF81490#00
(1438651060.857664) can0 12F83110#08
(1438651060.858681) can0 12F84010#40
(1438651060.877704) can0 12F84110#80
(1438651060.878680) can0 12F84210#80
(1438651060.885802) can0 12F89090#00010004
(1438651060.901563) can0 12F96050#00000000410A00
(1438651060.907673) can0 0EF81510#02
(1438651060.917699) can0 12F83010#80
(1438651060.927695) can0 12F83410#20
(1438651060.928666) can0 12F84310#00
(1438651060.931593) can0 0EF91250#0000000000000008
(1438651060.937670) can0 12F87810#00
(1438651060.942027) can0 12F97450#8000
(1438651060.943213) can0 12F85150#4001000060
(1438651060.951424) can0 12F85050#000317200008
(1438651060.952199) can0 12F97150#E0FF58
(1438651060.953296) can0 0EF86350#000000005555DF77
(1438651060.962839) can0 0EF87372#0437
(1438651060.965592) can0 0EF82390#0102
(1438651060.967954) can0 12F81010#2800800000
(1438651060.971203) can0 12F96D50#04000000
(1438651060.975532) can0 0EF88190#00
(1438651060.981776) can0 12F85450#1636000000160000
(1438651060.998069) can0 0AF81110#180000000000
(1438651061.001650) can0 12F96050#00000000410A00
(1438651061.027786) can0 0AF87010#0024
(1438651061.041666) can0 12F97450#8000
(1438651061.051442) can0 12F85050#00031F200008
(1438651061.052177) can0 12F97150#E0FF58
(1438651061.053319) can0 0EF86350#000000005555E175
(1438651061.067714) can0 12F82C10#20
(1438651061.068693) can0 12F83210#08
(1438651061.077835) can0 0AF87110#00FF00
(1438651061.097712) can0 0EF82010#00
(1438651061.101702) can0 12F96050#00000000410A00
(1438651061.112941) can0 1610FF54#
(1438651061.131478) can0 0EF91250#0000000000000008
(1438651061.132611) can0 12F86150#00001000000000FC
(1438651061.141337) can0 12F97450#8040
(1438651061.141966) can0 12F85C50#00
(1438651061.143093) can0 12F95F50#8284860000000000
(1438651061.143703) can0 1610FF72#
(1438651061.144822) can0 16F86250#0F00000000000000
(1438651061.145452) can0 0AF97950#00
(1438651061.146321) can0 12F95A50#00000000
(1438651061.150547) can0 12F88090#00
(1438651061.151528) can0 12F85050#00031D200008
(1438651061.152652) can0 0EF86350#000000005555E472
(1438651061.153418) can0 12F97150#E0FF58
(1438651061.154047) can0 12F97C50#18
(1438651061.154854) can0 12F97350#0000
(1438651061.155573) can0 12F82290#80
(1438651061.156230) can0 0EF81490#00
(1438651061.157674) can0 12F83110#08
(1438651061.158675) can0 12F84010#40
(1438651061.167944) can0 1610FF10#
(1438651061.171055) can0 12F96D50#04000000
(1438651061.177968) can0 12F84110#80
(1438651061.178970) can0 12F84210#80
(1438651061.185988) can0 12F89090#00010004
(1438651061.201782) can0 12F96050#00000000410A00
(1438651061.207705) can0 0EF81510#02
(1438651061.217712) can0 12F83010#80
(1438651061.227710) can0 0EF82010#40
(1438651061.228681) can0 12F83110#28
(1438651061.229707) can0 12F83410#20
(1438651061.230695) can0 12F84310#00
(1438651061.237707) can0 12F87810#00
(1438651061.241340) can0 12F97450#8040
(1438651061.242208) can0 12F85150#4001000060
(1438651061.251181) can0 12F85050#00031D200008
(1438651061.251871) can0 12F97150#E0FF58
(1438651061.252996) can0 0EF86350#000000005555E670
(1438651061.262548) can0 0EF87372#0437
(1438651061.265622) can0 0EF82390#0102
(1438651061.267951) can0 12F81010#2800800000
(1438651061.275558) can0 0EF88190#00
(1438651061.281686) can0 12F85450#1636000000160000
(1438651061.298081) can0 0AF81110#180000000000
(1438651061.301812) can0 12F96050#00000000410A00
(1438651061.304343) can0 16F97D54#A22518199F91F0A1
(1438651061.327805) can0 0AF87010#0024
(1438651061.331544) can0 0EF91250#0000000000000008
(1438651061.341295) can0 12F97450#8040
(1438651061.351441) can0 12F85050#00031C200008
(1438651061.352132) can0 12F97150#E0FF58
(1438651061.353234) can0 0EF86350#000000005555E96D
(1438651061.367727) can0 12F82C10#20
(1438651061.368693) can0 12F83210#08
(1438651061.371114) can0 12F96D50#04000000
(1438651061.377835) can0 0AF87110#00FF00
(1438651061.401508) can0 12F96050#00000000410A00
(1438651061.431452) can0 12F86150#00001000000000FC
(1438651061.441250) can0 12F97450#8000
(1438651061.441865) can0 12F85C50#00
(1438651061.443065) can0 16F86250#0000000010000000
(1438651061.443698) can0 0AF97950#00
(1438651061.444576) can0 12F95A50#00000000
(1438651061.451112) can0 12F88090#00
(1438651061.451626) can0 12F85050#000320200008
(1438651061.452359) can0 12F97150#E0FF58
(1438651061.453094) can0 12F97350#0000
(1438651061.454201) can0 0EF86350#000000005555EB6B
(1438651061.455572) can0 0EF81490#00
(1438651061.457692) can0 12F84010#40
(1438651061.477724) can0 12F83110#08
(1438651061.478703) can0 12F84110#80
(1438651061.479701) can0 12F84210#80
(1438651061.485763) can0 12F89090#00010004
(1438651061.501704) can0 12F96050#00000000410A00
(1438651061.507699) can0 0EF81510#02
(1438651061.517996) can0 12F83010#80
(1438651061.527730) can0 0EF82010#40
(1438651061.528706) can0 12F83410#20
(1438651061.529718) can0 12F84310#00
(1438651061.531505) can0 0EF91250#0000000000000008
(1438651061.537691) can0 12F87810#00
(1438651061.541380) can0 12F97450#8040
(1438651061.542326) can0 12F85150#4001000060
(1438651061.551384) can0 12F85050#00031D200008
(1438651061.552490) can0 0EF86350#000000005555EE68
(1438651061.553697) can0 12F97150#E0FF58
(1438651061.554132) can0 12F85250#7F0038A8
(1438651061.562230) can0 0EF87372#0437
(1438651061.565625) can0 0EF82390#0102
(1438651061.567998) can0 12F81010#2800800000
(1438651061.571227) can0 12F96D50#04000000
(1438651061.575515) can0 0EF88190#00
(1438651061.581614) can0 12F85450#1636000000160000
(1438651061.598088) can0 0AF81110#180000000000
(1438651061.601636) can0 12F96050#00000000410A00
(1438651061.628014) can0 0AF87010#0024
(1438651061.641150) can0 12F97450#8000
(1438651061.642267) can0 12F95F50#8284860000000000
(1438651061.651234) can0 12F85050#00031D200008
(1438651061.651971) can0 12F97150#E0FF58
(1438651061.652628) can0 12F97C50#18
(1438651061.653740) can0 0EF86350#000000005555F066
(1438651061.667756) can0 12F82C10#20
(1438651061.668706) can0 12F83210#08
(1438651061.677860) can0 0AF87110#00FF00
(1438651061.701637) can0 12F96050#00000000410A00
(1438651061.731461) can0 0EF91250#0000000000000008
(1438651061.732595) can0 12F86150#00001000000000FC
(1438651061.741225) can0 12F97450#8000
(1438651061.741857) can0 12F85C50#00
(1438651061.742975) can0 16F86250#01334847474B3500
(1438651061.743579) can0 0AF97950#00
(1438651061.744403) can0 12F95A50#00000000
(1438651061.750625) can0 12F88090#00
(1438651061.751524) can0 12F85050#00031C200008
(1438651061.752263) can0 12F97150#E0FF58
(1438651061.753126) can0 12F97350#0000
(1438651061.754149) can0 0EF86350#000000005555F363
(1438651061.755019) can0 1610FF90#
(1438651061.755525) can0 0EF81490#00
(1438651061.758398) can0 12F84010#40
(1438651061.771106) can0 12F96D50#04000000
(1438651061.777665) can0 12F83110#08
(1438651061.778714) can0 12F84110#80
(1438651061.779713) can0 12F84210#80
(1438651061.785770) can0 12F89090#00010004
(1438651061.793896) can0 1610FF50#
(1438651061.801529) can0 12F96050#00000000410A00
(1438651061.807721) can0 0EF81510#02
(1438651061.817723) can0 12F83010#80
(1438651061.827730) can0 0EF82010#00
(1438651061.828723) can0 12F83410#20
(1438651061.829725) can0 12F84310#00
(1438651061.837719) can0 12F87810#00
(1438651061.841278) can0 12F97450#8040
(1438651061.842154) can0 12F85150#4001000060
(1438651061.851161) can0 12F85050#000316200008
(1438651061.851911) can0 12F97150#E0FF58
(1438651061.852545) can0 12F97650#04
(1438651061.853668) can0 0EF86350#000000005555F561
(1438651061.862143) can0 0EF87372#0437
(1438651061.865669) can0 0EF82390#0102
(1438651061.868115) can0 12F81010#2800800000
(1438651061.875546) can0 0EF88190#00
(1438651061.881727) can0 12F85450#1636000000160000
(1438651061.898105) can0 0AF81110#180000000000
(1438651061.901490) can0 12F96050#00000000410A00
(1438651061.927802) can0 0AF87010#0024
(1438651061.928666) can0 0EF82010#40
(1438651061.929787) can0 12F83110#28
(1438651061.931528) can0 0EF91250#0000000000000008
(1438651061.941359) can0 12F97450#8000
(1438651061.951230) can0 12F85050#000317200008
(1438651061.951977) can0 12F97150#E0FF58
(1438651061.953119) can0 0EF86350#000000005555F85E
(1438651061.967725) can0 12F82C10#20
(1438651061.968664) can0 12F83210#08
(1438651061.971225) can0 12F96D50#04000000
(1438651061.978052) can0 0AF87110#00FF00
(1438651062.001664) can0 12F96050#00000000410A00
(1438651062.031523) can0 12F86150#00001000000000FC
(1438651062.041063) can0 12F97450#8040
(1438651062.041678) can0 12F85C50#00
(1438651062.043999) can0 16F86250#02483839464D3700
(1438651062.044407) can0 12F95A50#00000000
(1438651062.044686) can0 0AF97950#00
(1438651062.050557) can0 12F88090#00
(1438651062.051541) can0 12F85050#00031B200008
(1438651062.052299) can0 12F97150#E0FF58
(1438651062.053042) can0 12F97350#0000
(1438651062.054166) can0 0EF86350#000000005555FA5C
(1438651062.055546) can0 0EF81490#00
(1438651062.057689) can0 12F84010#40
(1438651062.077758) can0 12F84110#80
(1438651062.078666) can0 12F84210#80
(1438651062.086054) can0 12F89090#00010004
(1438651062.087934) can0 12F83110#08
(1438651062.101435) can0 12F96050#00000000410A00
(1438651062.107904) can0 0EF81510#02
(1438651062.113533) can0 1610FF54#
(1438651062.117740) can0 12F83010#80
(1438651062.127739) can0 12F83410#20
(1438651062.128688) can0 12F84310#00
(1438651062.131506) can0 0EF91250#0000000000000008
(1438651062.137681) can0 12F87810#00
(1438651062.141323) can0 12F97450#8040
(1438651062.142492) can0 12F95F50#8284860000000000
(1438651062.143437) can0 12F96750#B2270F890000
(1438651062.144380) can0 12F85150#4001000060
(1438651062.144925) can0 1610FF72#
(1438651062.151294) can0 12F85050#000314200008
(1438651062.152036) can0 12F97150#E0FF58
(1438651062.152667) can0 12F97C50#18
(1438651062.153810) can0 0EF86350#000000005555FD59
(1438651062.155506) can0 12F82290#80
(1438651062.161561) can0 0EF87372#0437
(1438651062.165574) can0 0EF82390#0102
(1438651062.168062) can0 12F81010#2800800000
(1438651062.168682) can0 1610FF10#
(1438651062.171173) can0 12F96D50#04000000
(1438651062.175527) can0 0EF88190#00
(1438651062.181776) can0 12F85450#1636000000160000
(1438651062.198073) can0 0AF81110#180000000000
(1438651062.201642) can0 12F96050#00000000410A00
(1438651062.207671) can0 12F83110#28
(1438651062.227819) can0 0AF87010#0024
(1438651062.228698) can0 0EF82010#40
(1438651062.241154) can0 12F97450#8040
(1438651062.251395) can0 12F85050#000311200008
(1438651062.252145) can0 12F97150#E0FF58
(1438651062.253284) can0 0EF86350#000000005555FF57
(1438651062.267698) can0 12F82C10#20
(1438651062.268677) can0 12F83210#08
(1438651062.277915) can0 0AF87110#00FF00
(1438651062.301577) can0 12F96050#00000000410A00
(1438651062.304713) can0 16F97D54#A22518199F91F121
(1438651062.331425) can0 0EF91250#0000000000000008
(1438651062.332565) can0 12F86150#00001000000000FC
(1438651062.341280) can0 12F97450#8000
(1438651062.342081) can0 12F95A50#00000000
(1438651062.342715) can0 12F85C50#00
(1438651062.343390) can0 0AF97950#00
(1438651062.344461) can0 16F86250#0333333134300000
(1438651062.350578) can0 12F88090#00
(1438651062.351548) can0 12F85050#000316200008
(1438651062.352321) can0 12F97150#E0FF58
(1438651062.353027) can0 12F97350#0000
(1438651062.354155) can0 0EF86350#0000000055550254
(1438651062.355565) can0 0EF81490#00
(1438651062.357691) can0 12F84010#40
(1438651062.367700) can0 12F83110#08
(1438651062.371064) can0 12F96D50#04000000
(1438651062.377772) can0 12F84110#80
(1438651062.378701) can0 12F84210#80
(1438651062.385784) can0 12F89090#00010004
(1438651062.401672) can0 12F96050#00000000410A00
(1438651062.407695) can0 0EF81510#02
(1438651062.417708) can0 12F83010#80
(1438651062.427711) can0 12F83410#20
(1438651062.428691) can0 12F84310#00
(1438651062.438040) can0 12F87810#00
(1438651062.441276) can0 12F97450#8040
(1438651062.442195) can0 12F85150#4001000060
(1438651062.451215) can0 12F85050#000314200008
(1438651062.451940) can0 12F97150#E0FF58
(1438651062.453061) can0 0EF86350#0000000055550452
(1438651062.461293) can0 0EF87372#0437
(1438651062.465654) can0 0EF82390#0102
(1438651062.468024) can0 12F81010#2800800000
(1438651062.475597) can0 0EF88190#00
(1438651062.481707) can0 12F85450#1636000000160000
(1438651062.487709) can0 12F83110#28
(1438651062.498093) can0 0AF81110#180000000000
(1438651062.501561) can0 12F96050#00000000410A00
(1438651062.527833) can0 0AF87010#0024
(1438651062.528711) can0 0EF82010#00
(1438651062.531337) can0 0EF91250#0000000000000008
(1438651062.541341) can0 12F97450#8040
(1438651062.551203) can0 12F85050#000314200008
(1438651062.552274) can0 0EF86350#000000005555074F
(1438651062.553189) can0 12F97150#E0FF58
(1438651062.554105) can0 12F85250#7F0038A8
(1438651062.567927) can0 12F82C10#20
(1438651062.568927) can0 12F83210#08
(1438651062.571102) can0 12F96D50#04000000
(1438651062.577910) can0 0AF87110#00FF00
(1438651062.601550) can0 12F96050#00000000410A00
(1438651062.627738) can0 12F83110#08
(1438651062.631476) can0 12F86150#00001000000000FC
(1438651062.641606) can0 12F97450#8000
(1438651062.642215) can0 12F85C50#00
(1438651062.643344) can0 12F95F50#8284860000000000
(1438651062.644488) can0 16F86250#0431144003050000
(1438651062.645100) can0 0AF97950#00
(1438651062.645963) can0 12F95A50#00000000
(1438651062.650556) can0 12F88090#00
(1438651062.651541) can0 12F85050#000313200008
(1438651062.652303) can0 12F97150#E0FF58
(1438651062.652984) can0 12F97350#0000
(1438651062.653618) can0 12F97C50#18
(1438651062.654736) can0 0EF86350#000000005555094D
(1438651062.655598) can0 0EF81490#00
(1438651062.657704) can0 12F84010#40
(1438651062.678058) can0 12F84110#80
(1438651062.679079) can0 12F84210#80
(1438651062.686089) can0 12F89090#00010004
(1438651062.701621) can0 12F96050#00000000410A00
(1438651062.707738) can0 0EF81510#02
(1438651062.717736) can0 12F83010#80
(1438651062.727737) can0 12F83410#20
(1438651062.728723) can0 12F84310#00
(1438651062.731459) can0 0EF91250#0000000000000008
(1438651062.737717) can0 12F87810#00
(1438651062.741579) can0 12F97450#8040
(1438651062.742459) can0 12F85150#4001000060
(1438651062.751227) can0 12F85050#000315200008
(1438651062.751969) can0 12F97150#E0FF58
(1438651062.753084) can0 0EF86350#0000000055550C4A
(1438651062.754343) can0 1610FF90#
(1438651062.761105) can0 0EF87372#0437
(1438651062.765600) can0 0EF82390#0102
(1438651062.767998) can0 12F81010#2800800000
(1438651062.770990) can0 12F96D50#04000000
(1438651062.775475) can0 0EF88190#00
(1438651062.782103) can0 12F85450#1636000000160000
(1438651062.798125) can0 0AF81110#180000000000
(1438651062.798608) can0 1610FF50#
(1438651062.801694) can0 12F96050#00000000410A00
(1438651062.827832) can0 0AF87010#0024
(1438651062.828742) can0 0EF82010#00
(1438651062.841687) can0 12F97450#8000
(1438651062.851242) can0 12F85050#00031E200008
(1438651062.851990) can0 12F97150#E0FF58
(1438651062.852625) can0 12F97650#04
(1438651062.853734) can0 0EF86350#0000000055550E48
(1438651062.867746) can0 12F82C10#20
(1438651062.868736) can0 12F83210#08
(1438651062.877882) can0 0AF87110#00FF00
(1438651062.901953) can0 12F96050#00000000410A00
(1438651062.927755) can0 12F83110#08
(1438651062.931481) can0 0EF91250#0000000000000008
(1438651062.932610) can0 12F86150#00001000000000FC
(1438651062.941496) can0 12F97450#8000
(1438651062.942120) can0 12F85C50#00
(1438651062.943268) can0 16F86250#0500000000000000
(1438651062.943893) can0 0AF97950#00
(1438651062.944761) can0 12F95A50#00000000
(1438651062.950515) can0 12F88090#00
(1438651062.951502) can0 12F85050#00032A200008
(1438651062.952266) can0 12F97150#E0FF58
(1438651062.952997) can0 12F97350#0000
(1438651062.954121) can0 0EF86350#0000000055551145
(1438651062.955571) can0 0EF81490#00
(1438651062.957739) can0 12F84010#40
(1438651062.971013) can0 12F96D50#04000000
(1438651062.977742) can0 12F84110#80
(1438651062.978731) can0 12F84210#80
(1438651062.985771) can0 12F89090#00010004
(1438651063.002089) can0 12F96050#00000000410A00
(1438651063.008075) can0 0EF81510#02
(1438651063.017954) can0 12F83010#80
(1438651063.027758) can0 12F83410#20
(1438651063.028750) can0 12F84310#00
(1438651063.037751) can0 12F87810#00
(1438651063.041140) can0 12F97450#8000
(1438651063.042016) can0 12F85150#4001000060
(1438651063.051444) can0 12F85050#000328200008
(1438651063.052136) can0 12F97150#E0FF58
(1438651063.053254) can0 0EF86350#0000000055551343
(1438651063.060644) can0 0EF87372#0437
(1438651063.065593) can0 0EF82390#0102
(1438651063.068012) can0 12F81010#2800800000
(1438651063.075519) can0 0EF88190#00
(1438651063.081594) can0 12F85450#1636000000160000
(1438651063.098137) can0 0AF81110#180000000000
(1438651063.101517) can0 12F96050#00000000410A00
(1438651063.114035) can0 1610FF54#
(1438651063.128103) can0 0AF87010#0024
(1438651063.128975) can0 0EF82010#00
(1438651063.131375) can0 0EF91250#0000000000000008
(1438651063.140399) can0 1610FF72#
(1438651063.141132) can0 12F97450#8040
(1438651063.142263) can0 12F95F50#8284860000000000
(1438651063.151348) can0 12F85050#00032A200008
(1438651063.152094) can0 12F97150#E0FF58
(1438651063.152724) can0 12F97C50#18
(1438651063.153850) can0 0EF86350#0000000055551640
(1438651063.155488) can0 12F82290#80
(1438651063.167757) can0 12F82C10#20
(1438651063.168726) can0 12F83210#08
(1438651063.169724) can0 1610FF10#
(1438651063.171027) can0 12F96D50#04000000
(1438651063.177876) can0 0AF87110#00FF00
(1438651063.201707) can0 12F96050#00000000410A00
(1438651063.227757) can0 12F83110#08
(1438651063.231480) can0 12F86150#00001000000000FC
(1438651063.241230) can0 12F97450#8000
(1438651063.241780) can0 12F85C50#00
(1438651063.243154) can0 16F86250#0600000000000000
(1438651063.243631) can0 0AF97950#00
(1438651063.244357) can0 12F95A50#00000000
(1438651063.250587) can0 12F88090#00
(1438651063.251530) can0 12F85050#00032D200008
(1438651063.252293) can0 12F97150#E0FF58
(1438651063.253026) can0 12F97350#0000
(1438651063.254147) can0 0EF86350#000000005555183E
(1438651063.255584) can0 0EF81490#00
(1438651063.257735) can0 12F84010#40
(1438651063.277769) can0 12F84110#80
(1438651063.278752) can0 12F84210#80
(1438651063.285781) can0 12F89090#00010004
(1438651063.301490) can0 12F96050#00000000410A00
(1438651063.305234) can0 16F97D54#A22518199F91F1A1
(1438651063.307738) can0 0EF81510#02
(1438651063.317761) can0 12F83010#80
(1438651063.327763) can0 12F83410#20
(1438651063.328749) can0 12F84310#00
(1438651063.331412) can0 0EF91250#0000000000000008
(1438651063.337740) can0 12F87810#00
(1438651063.341288) can0 12F97450#8040
(1438651063.342258) can0 12F85150#4001000060
(1438651063.351244) can0 12F85050#000329200008
(1438651063.352164) can0 12F97150#E0FF58
(1438651063.353225) can0 0EF86350#0000000055551B3B
(1438651063.360347) can0 0EF87372#0437
(1438651063.365602) can0 0EF82390#0102
(1438651063.368028) can0 12F81010#2800800000
(1438651063.370916) can0 12F96D50#04000000
(1438651063.375513) can0 0EF88190#00
(1438651063.381418) can0 12F85450#1636000000160000
(1438651063.398138) can0 0AF81110#180000000000
(1438651063.401401) can0 12F96050#00000000410A00
(1438651063.427874) can0 0AF87010#0024
(1438651063.428754) can0 0EF82010#00
(1438651063.441241) can0 12F97450#8000
(1438651063.451305) can0 12F85050#00032D200008
(1438651063.452249) can0 12F97150#E0FF58
(1438651063.453252) can0 0EF86350#0000000055551D39
(1438651063.467786) can0 12F82C10#20
(1438651063.468755) can0 12F83210#08
(1438651063.477896) can0 0AF87110#00FF00
(1438651063.501503) can0 12F96050#00000000410A00
(1438651063.527759) can0 12F83110#08
(1438651063.531380) can0 0EF91250#0000000000000008
(1438651063.532511) can0 12F86150#00001000000000FC
(1438651063.541256) can0 12F97450#8000
(1438651063.541868) can0 12F85C50#00
(1438651063.543038) can0 16F86250#0700000000000000
(1438651063.543665) can0 0AF97950#00
(1438651063.544509) can0 12F95A50#00000000
(1438651063.550523) can0 12F88090#00
(1438651063.551508) can0 12F85050#000327200008
(1438651063.552632) can0 0EF86350#0000000055552036
(1438651063.553415) can0 12F97150#E0FF58
(1438651063.554111) can0 12F97350#0000
(1438651063.554922) can0 12F85250#7F0038A8
(1438651063.555612) can0 0EF81490#00
(1438651063.557747) can0 12F84010#40
(1438651063.571251) can0 12F96D50#04000000
(1438651063.577825) can0 12F84110#80
(1438651063.578808) can0 12F84210#80
(1438651063.585997) can0 12F89090#00010004
(1438651063.601638) can0 12F96050#00000000410A00
(1438651063.607777) can0 0EF81510#02
(1438651063.617764) can0 12F83010#80
(1438651063.627775) can0 12F83410#20
(1438651063.628768) can0 12F84310#00
(1438651063.637768) can0 12F87810#00
(1438651063.641176) can0 12F97450#8040
(1438651063.642287) can0 12F95F50#8284860000000000
(1438651063.643196) can0 12F85150#4001000060
(1438651063.651271) can0 12F85050#000329200008
(1438651063.652043) can0 12F97150#E0FF58
(1438651063.652673) can0 12F97C50#18
(1438651063.653790) can0 0EF86350#0000000055552234
(1438651063.660019) can0 0EF87372#0437
(1438651063.665573) can0 0EF82390#0102
(1438651063.668058) can0 12F81010#2800800000
(1438651063.675518) can0 0EF88190#00
(1438651063.681704) can0 12F85450#1636000000160000
(1438651063.682771) can0 12F96250#812A0000000000
(1438651063.698271) can0 0AF81110#180000000000
(1438651063.701578) can0 12F96050#00000000410A00
(1438651063.727887) can0 0AF87010#0024
(1438651063.728760) can0 0EF82010#00
(1438651063.731447) can0 0EF91250#0000000000000008
(1438651063.741203) can0 12F97450#8000
(1438651063.751310) can0 12F85050#000323200008
(1438651063.752060) can0 12F97150#E0FF58
(1438651063.753177) can0 0EF86350#0000000055552531
(1438651063.754462) can0 1610FF90#
(1438651063.767778) can0 12F82C10#20
(1438651063.768756) can0 12F83210#08
(1438651063.771029) can0 12F96D50#04000000
(1438651063.777903) can0 0AF87110#00FF00
(1438651063.801586) can0 12F96050#00000000410A00
(1438651063.802583) can0 1610FF50#
(1438651063.827786) can0 12F83110#08
(1438651063.831444) can0 12F86150#00001000000000FC
(1438651063.841179) can0 12F97450#8040
(1438651063.841784) can0 12F85C50#00
(1438651063.842961) can0 16F86250#0800000000000000
(1438651063.843573) can0 0AF97950#00
(1438651063.844432) can0 12F95A50#00000000
(1438651063.850535) can0 12F88090#00
(1438651063.851518) can0 12F85050#00031D200008
(1438651063.852283) can0 12F97150#E0FF58
(1438651063.852962) can0 12F97350#0000
(1438651063.853586) can0 12F97650#04
(1438651063.854722) can0 0EF86350#000000005555272F
(1438651063.855640) can0 0EF81490#00
(1438651063.857771) can0 12F84010#40
(1438651063.877785) can0 12F84110#80
(1438651063.878721) can0 12F84210#80
(1438651063.885787) can0 12F89090#00010004
(1438651063.901539) can0 12F96050#00000000410A00
(1438651063.907727) can0 0EF81510#02
(1438651063.917833) can0 12F83010#80
(1438651063.927839) can0 12F83410#20
(1438651063.928825) can0 12F84310#00
(1438651063.931343) can0 0EF91250#0000000000000008
(1438651063.937770) can0 12F87810#00
(1438651063.941281) can0 12F97450#8000
(1438651063.942181) can0 12F85150#4001000060
(1438651063.951091) can0 12F85050#000322200008
(1438651063.951837) can0 12F97150#E0FF58
(1438651063.952960) can0 0EF86350#0000000055552A2C
(1438651063.959700) can0 0EF87372#0437
(1438651063.965589) can0 0EF82390#0102
(1438651063.968059) can0 12F81010#2800800000
(1438651063.970922) can0 12F96D50#04000000
(1438651063.975472) can0 0EF88190#00
(1438651063.981800) can0 12F85450#1636000000160000
(1438651063.998152) can0 0AF81110#180000000000
(1438651064.001661) can0 12F96050#00000000410A00
(1438651064.027855) can0 0AF87010#0024
(1438651064.028726) can0 0EF82010#00
(1438651064.041305) can0 12F97450#8040
(1438651064.051359) can0 12F85050#000323200008
(1438651064.052099) can0 12F97150#E0FF58
(1438651064.053215) can0 0EF86350#0000000055552C2A
(1438651064.067786) can0 12F82C10#20
(1438651064.068736) can0 12F83210#08
(1438651064.077917) can0 0AF87110#00FF00
(1438651064.101611) can0 12F96050#00000000410A00
(1438651064.114615) can0 1610FF54#
(1438651064.127739) can0 12F83110#08
(1438651064.131433) can0 0EF91250#0000000000000008
(1438651064.132560) can0 12F86150#00001000000000FC
(1438651064.139709) can0 1610FF72#
(1438651064.141361) can0 12F97450#8000
(1438651064.142247) can0 12F85C50#00
(1438651064.143315) can0 12F95F50#8284860000000000
(1438651064.144343) can0 16F86250#0900000000000000
(1438651064.145243) can0 0AF97950#00
(1438651064.145990) can0 12F95A50#00000000
(1438651064.150495) can0 12F88090#00
(1438651064.151489) can0 12F85050#000319200008
(1438651064.152677) can0 12F97150#E0FF58
(1438651064.153374) can0 12F97350#0000
(1438651064.153842) can0 12F97C50#18
(1438651064.154729) can0 0EF86350#0000000055552F27
(1438651064.155586) can0 12F82290#80
(1438651064.156251) can0 0EF81490#00
(1438651064.157745) can0 12F84010#40
(1438651064.167743) can0 1610FF10#
(1438651064.171095) can0 12F96D50#04000000
(1438651064.177749) can0 12F84110#80
(1438651064.178737) can0 12F84210#80
(1438651064.185750) can0 12F89090#00010004
(1438651064.201500) can0 12F96050#00000000410A00
(1438651064.207752) can0 0EF81510#02
(1438651064.217818) can0 12F83010#80
(1438651064.227758) can0 12F83410#20
(1438651064.228750) can0 12F84310#00
(1438651064.237755) can0 12F87810#00
(1438651064.241200) can0 12F97450#8000
(1438651064.242089) can0 12F85150#4001000060
(1438651064.251340) can0 12F85050#00031D200008
(1438651064.252187) can0 12F97150#E0FF58
(1438651064.253264) can0 0EF86350#0000000055553125
(1438651064.259501) can0 0EF87372#0437
(1438651064.265630) can0 0EF82390#0102
(1438651064.268250) can0 12F81010#2800800000
(1438651064.275506) can0 0EF88190#00
(1438651064.281553) can0 12F85450#1636000000160000
(1438651064.298127) can0 0AF81110#180000000000
(1438651064.301690) can0 12F96050#00000000410A00
(1438651064.304086) can0 16F97D54#A22518199F91F221
(1438651064.327876) can0 0AF87010#0024
(1438651064.328745) can0 0EF82010#00
(1438651064.331310) can0 0EF91250#0000000000000008
(1438651064.341199) can0 12F97450#8000
(1438651064.351134) can0 12F85050#000325200008
(1438651064.351878) can0 12F97150#E0FF58
(1438651064.353005) can0 0EF86350#0000000055553422
(1438651064.367756) can0 12F82C10#20
(1438651064.368728) can0 12F83210#08
(1438651064.371265) can0 12F96D50#04000000
(1438651064.378208) can0 0AF87110#00FF00
(1438651064.401633) can0 12F96050#00000000410A00
(1438651064.427818) can0 12F83110#08
(1438651064.431212) can0 12F86150#00001000000000FC
(1438651064.441200) can0 12F97450#8000
(1438651064.441772) can0 12F85C50#00
(1438651064.442954) can0 16F86250#0A00000000808000
(1438651064.443587) can0 0AF97950#00
(1438651064.444459) can0 12F95A50#00000000
(1438651064.450526) can0 12F88090#00
(1438651064.451518) can0 12F85050#000320200008
(1438651064.452316) can0 12F97150#E0FF58
(1438651064.452994) can0 12F97350#0000
(1438651064.454125) can0 0EF86350#0000000055553620
(1438651064.455584) can0 0EF81490#00
(1438651064.457740) can0 12F84010#40
(1438651064.477825) can0 12F84110#80
(1438651064.478738) can0 12F84210#80
(1438651064.485902) can0 12F89090#00010004
(1438651064.501512) can0 12F96050#00000000410A00
(1438651064.507771) can0 0EF81510#02
(1438651064.517767) can0 12F83010#80
(1438651064.527826) can0 12F83410#20
(1438651064.528759) can0 12F84310#00
(1438651064.531354) can0 0EF91250#0000000000000008
(1438651064.537750) can0 12F87810#00
(1438651064.541213) can0 12F97450#8000
(1438651064.542096) can0 12F85150#4001000060
(1438651064.551325) can0 12F85050#000322200008
(1438651064.552393) can0 0EF86350#000000005555391D
(1438651064.553157) can0 12F97150#E0FF58
(1438651064.554010) can0 12F85250#7F0038A8
(1438651064.559035) can0 0EF87372#0437
(1438651064.565598) can0 0EF82390#0102
(1438651064.568081) can0 12F81010#2800800000
(1438651064.571153) can0 12F96D50#04000000
(1438651064.575498) can0 0EF88190#00
(1438651064.581658) can0 12F85450#1636000000160000
(1438651064.598350) can0 0AF81110#180000000000
(1438651064.601749) can0 12F96050#00000000410A00
(1438651064.627892) can0 0AF87010#0024
(1438651064.628776) can0 0EF82010#00
(1438651064.641252) can0 12F97450#8040
(1438651064.642366) can0 12F95F50#8284860000000000
(1438651064.651041) can0 12F85050#000324200008
(1438651064.651788) can0 12F97150#E0FF58
(1438651064.652463) can0 12F97C50#18
(1438651064.653587) can0 0EF86350#0000000055553B1B
(1438651064.667787) can0 12F82C10#20
(1438651064.668779) can0 12F83210#08
(1438651064.677916) can0 0AF87110#00FF00
(1438651064.701638) can0 12F96050#00000000410A00
(1438651064.727919) can0 12F83110#08
(1438651064.731420) can0 0EF91250#0000000000000008
(1438651064.732541) can0 12F86150#00001000000000FC
(1438651064.741240) can0 12F97450#8040
(1438651064.742051) can0 12F85C50#00
(1438651064.743010) can0 16F86250#0B00000000000000
(1438651064.743646) can0 0AF97950#00
(1438651064.744506) can0 12F95A50#00000000
(1438651064.750531) can0 12F88090#00
(1438651064.751522) can0 12F85050#000321200008
(1438651064.752278) can0 12F97150#E0FF58
(1438651064.752990) can0 12F97350#0000
(1438651064.754147) can0 0EF86350#0000000055553E18
(1438651064.754996) can0 1610FF90#
(1438651064.755660) can0 0EF81490#00
(1438651064.757777) can0 12F84010#40
(1438651064.771014) can0 12F96D50#04000000
(1438651064.777786) can0 12F84110#80
(1438651064.778775) can0 12F84210#80
(1438651064.785778) can0 12F89090#00010004
(1438651064.801605) can0 12F96050#00000000410A00
(1438651064.806480) can0 1610FF50#
(1438651064.807779) can0 0EF81510#02
(1438651064.817792) can0 12F83010#80
(1438651064.827813) can0 12F83410#20
(1438651064.828804) can0 12F84310#00
(1438651064.837856) can0 12F87810#00
(1438651064.841183) can0 12F97450#8040
(1438651064.842115) can0 12F85150#4001000060
(1438651064.851301) can0 12F85050#00031E200008
(1438651064.852041) can0 12F97150#E0FF58
(1438651064.852683) can0 12F97650#04
(1438651064.853785) can0 0EF86350#0000000055554016
(1438651064.858745) can0 0EF87372#0437
(1438651064.865555) can0 0EF82390#0102
(1438651064.868062) can0 12F81010#2800800000
(1438651064.875504) can0 0EF88190#00
(1438651064.881668) can0 12F85450#1636000000160000
(1438651064.898172) can0 0AF81110#180000000000
(1438651064.901523) can0 12F96050#00000000410A00
(1438651064.927880) can0 0AF87010#0024
(1438651064.928775) can0 0EF82010#00
(1438651064.931439) can0 0EF91250#0000000000000008
(1438651064.941395) can0 12F97450#8040
