(1438758333.260076) can0 0EF82390#0102
(1438758333.266283) can0 12F96D50#04000000
(1438758333.286179) can0 12F81010#3800800000
(1438758333.296513) can0 0EF91250#0000000000000008
(1438758333.297067) can0 1610FF54#
(1438758333.306261) can0 12F97450#8000
(1438758333.307316) can0 12F96050#00000000410A00
(1438758333.316231) can0 0AF81110#180000000000
(1438758333.317212) can0 12F85050#0002EE200008
(1438758333.318369) can0 0EF86350#000000005555A6B0
(1438758333.319121) can0 12F97150#E001BC
(1438758333.320282) can0 12F86150#00001000000000FC
(1438758333.322120) can0 1610FF72#
(1438758333.322872) can0 0EF87372#0497
(1438758333.365927) can0 12F82C10#70
(1438758333.384885) can0 12F88090#00
(1438758333.389954) can0 0EF81490#00
(1438758333.396017) can0 0AF87010#0004
(1438758333.396560) can0 0AF97950#00
(1438758333.397201) can0 0EF81510#02
(1438758333.397929) can0 0EF82010#00
(1438758333.405896) can0 12F83110#08
(1438758333.406528) can0 12F97450#8040
(1438758333.407158) can0 12F83210#08
(1438758333.408236) can0 12F96050#00000000410A00
(1438758333.408877) can0 12F83410#20
(1438758333.410013) can0 12F85450#1636000000160000
(1438758333.410661) can0 12F84010#00
(1438758333.411874) can0 12F84110#80
(1438758333.412863) can0 12F84210#80
(1438758333.416064) can0 12F85050#0002EC200008
(1438758333.416706) can0 12F83010#00
(1438758333.417489) can0 12F97150#E001BC
(1438758333.418125) can0 12F84310#00
(1438758333.418832) can0 12F97350#0000
(1438758333.420051) can0 0EF86350#000000005555A8AE
(1438758333.420599) can0 12F87810#00
(1438758333.426407) can0 12F95A50#00000000
(1438758333.427542) can0 16F86250#0A00000000808000
(1438758333.428173) can0 12F85C50#00
(1438758333.429766) can0 1610FF50#
(1438758333.432204) can0 16F97D54#222C7E1F0595BCC1
(1438758333.455853) can0 12F97650#04
(1438758333.460181) can0 12F89090#00010004
(1438758333.466006) can0 0AF87110#00FF00
(1438758333.466844) can0 12F96D50#04000000
(1438758333.496356) can0 0EF91250#0000000000000008
(1438758333.506090) can0 12F97450#8040
(1438758333.507142) can0 12F96050#00000000410A00
(1438758333.516258) can0 12F85050#0002F2200008
(1438758333.517032) can0 12F97150#E001BC
(1438758333.518161) can0 0EF86350#000000005555ABAB
(1438758333.526276) can0 12F85150#4003000060
(1438758333.539885) can0 0EF88190#00
(1438758333.559959) can0 0EF82390#0102
(1438758333.586190) can0 12F81010#3800800000
(1438758333.606058) can0 12F97450#8000
(1438758333.607122) can0 12F96050#00000000410A00
(1438758333.616138) can0 12F85050#0002F1200008
(1438758333.617137) can0 0AF81110#180000000000
(1438758333.618288) can0 12F86150#00001000000000FC
(1438758333.619406) can0 0EF86350#000000005555ADA9
(1438758333.620080) can0 12F82290#80
(1438758333.620824) can0 12F97150#E001BC
(1438758333.622028) can0 12F95F50#8296300000000000
(1438758333.622680) can0 0EF87372#0497
(1438758333.625795) can0 1610FF10#
(1438758333.655960) can0 12F97C50#18
(1438758333.665879) can0 12F82C10#70
(1438758333.666709) can0 12F96D50#04000000
(1438758333.684870) can0 12F88090#00
(1438758333.689898) can0 0EF81490#00
(1438758333.696351) can0 0EF91250#0000000000000008
(1438758333.697053) can0 0AF87010#0004
(1438758333.697683) can0 0AF97950#00
(1438758333.698320) can0 0EF81510#02
(1438758333.699894) can0 0EF82010#00
(1438758333.705866) can0 12F83110#08
(1438758333.706547) can0 12F97450#8040
(1438758333.707175) can0 12F83210#08
(1438758333.708256) can0 12F96050#00000000410A00
(1438758333.708896) can0 12F83410#20
(1438758333.710105) can0 12F85450#1636000000160000
(1438758333.710681) can0 12F84010#00
(1438758333.711853) can0 12F84110#80
(1438758333.712873) can0 12F84210#80
(1438758333.715916) can0 12F83010#00
(1438758333.716861) can0 12F85050#0002EF200008
(1438758333.717492) can0 12F84310#00
(1438758333.718319) can0 12F97150#E001BC
(1438758333.718916) can0 12F87810#00
(1438758333.719620) can0 12F97350#0000
(1438758333.720738) can0 0EF86350#000000005555B0A6
(1438758333.726333) can0 12F95A50#00000000
(1438758333.727456) can0 16F86250#0B00000000000000
(1438758333.728090) can0 12F85C50#00
(1438758333.760143) can0 12F89090#00010004
(1438758333.766032) can0 0AF87110#00FF00
(1438758333.806062) can0 12F97450#8000
(1438758333.807141) can0 12F96050#00000000410A00
(1438758333.816264) can0 12F85050#0002F0200008
(1438758333.817029) can0 12F97150#E001BC
(1438758333.818143) can0 0EF86350#000000005555B2A4
(1438758333.826431) can0 12F85150#4003000060
(1438758333.839852) can0 0EF88190#00
(1438758333.859968) can0 0EF82390#0102
(1438758333.866422) can0 12F96D50#04000000
(1438758333.886194) can0 12F81010#3800800000
(1438758333.896374) can0 0EF91250#0000000000000008
(1438758333.906133) can0 12F97450#8040
(1438758333.907191) can0 12F96050#00000000410A00
(1438758333.916114) can0 12F85050#0002F3200008
(1438758333.917077) can0 0AF81110#180000000000
(1438758333.918204) can0 0EF86350#000000005555B5A1
(1438758333.919362) can0 12F86150#00001000000000FC
(1438758333.920149) can0 12F97150#E001BC
(1438758333.921598) can0 0EF87372#0497
(1438758333.965918) can0 12F82C10#70
(1438758333.984881) can0 12F88090#00
(1438758333.989932) can0 0EF81490#00
(1438758333.995850) can0 0AF97950#00
(1438758333.996552) can0 0AF87010#0004
(1438758333.997860) can0 0EF81510#02
(1438758333.998863) can0 0EF82010#00
(1438758334.005860) can0 12F83110#08
(1438758334.006539) can0 12F97450#8040
(1438758334.007171) can0 12F83210#08
(1438758334.008289) can0 12F96050#00000000410A00
(1438758334.008892) can0 12F83410#20
(1438758334.010023) can0 12F85450#1636000000160000
(1438758334.010676) can0 12F84010#00
(1438758334.011850) can0 12F84110#80
(1438758334.012878) can0 12F84210#80
(1438758334.015889) can0 12F83010#00
(1438758334.016863) can0 12F85050#0002EF200008
(1438758334.017501) can0 12F84310#00
(1438758334.018280) can0 12F97150#E001BC
(1438758334.018925) can0 12F87810#00
(1438758334.019628) can0 12F97350#0000
(1438758334.020764) can0 0EF86350#000000005555B79F
(1438758334.026298) can0 12F95A50#00000000
(1438758334.027441) can0 16F86250#0C00000000000000
(1438758334.028112) can0 12F85C50#00
(1438758334.060151) can0 12F89090#00010004
(1438758334.066020) can0 0AF87110#00FF00
(1438758334.066853) can0 12F96D50#04000000
(1438758334.096455) can0 0EF91250#0000000000000008
(1438758334.106213) can0 12F97450#8000
(1438758334.107285) can0 12F96050#00000000410A00
(1438758334.108144) can0 12F85250#7D003A14
(1438758334.116249) can0 12F85050#0002F3200008
(1438758334.117358) can0 0EF86350#000000005555BA9C
(1438758334.118149) can0 12F97150#E001BC
(1438758334.119294) can0 12F95F50#8296300000000000
(1438758334.126344) can0 12F85150#4003000060
(1438758334.139844) can0 0EF88190#00
(1438758334.155875) can0 12F97C50#18
(1438758334.159911) can0 0EF82390#0102
(1438758334.186213) can0 12F81010#3800800000
(1438758334.206121) can0 12F97450#8040
(1438758334.207160) can0 12F96050#00000000410A00
(1438758334.216133) can0 12F85050#0002F4200008
(1438758334.217138) can0 0AF81110#180000000000
(1438758334.218245) can0 0EF86350#000000005555BC9A
(1438758334.219025) can0 12F97150#E001BC
(1438758334.220203) can0 12F86150#00001000000000FC
(1438758334.221282) can0 0EF87372#0497
(1438758334.227852) can0 1610FF90#
(1438758334.265876) can0 12F82C10#70
(1438758334.266714) can0 12F96D50#04000000
(1438758334.284860) can0 12F88090#00
(1438758334.289893) can0 0EF81490#00
(1438758334.295958) can0 0AF87010#0004
(1438758334.297107) can0 0EF91250#0000000000000008
(1438758334.297735) can0 0AF97950#00
(1438758334.298373) can0 0EF81510#02
(1438758334.298929) can0 1610FF54#
(1438758334.299880) can0 0EF82010#00
(1438758334.305876) can0 12F83110#08
(1438758334.306552) can0 12F97450#8040
(1438758334.307184) can0 12F83210#08
(1438758334.308262) can0 12F96050#00000000410A00
(1438758334.308905) can0 12F83410#20
(1438758334.310090) can0 12F85450#1636000000160000
(1438758334.310688) can0 12F84010#00
(1438758334.311863) can0 12F84110#80
(1438758334.312881) can0 12F84210#80
(1438758334.316138) can0 12F85050#0002F0200008
(1438758334.316733) can0 12F83010#00
(1438758334.317515) can0 12F97150#E001BC
(1438758334.318167) can0 12F84310#00
(1438758334.318863) can0 12F97350#0000
(1438758334.319991) can0 0EF86350#000000005555BF97
(1438758334.320629) can0 12F87810#00
(1438758334.321189) can0 1610FF72#
(1438758334.326347) can0 12F95A50#00000000
(1438758334.327505) can0 16F86250#0D00000000000000
(1438758334.328107) can0 12F85C50#00
(1438758334.360112) can0 12F89090#00010004
(1438758334.366052) can0 0AF87110#00FF00
(1438758334.406254) can0 12F97450#8040
(1438758334.407303) can0 12F96050#00000000410A00
(1438758334.416201) can0 12F85050#0002ED200008
(1438758334.416972) can0 12F97150#E001BC
(1438758334.418108) can0 0EF86350#000000005555C195
(1438758334.426406) can0 12F85150#4003000060
(1438758334.432239) can0 16F97D54#222C7E1F0595BD41
(1438758334.434450) can0 1610FF50#
(1438758334.439838) can0 0EF88190#00
(1438758334.455806) can0 12F97650#04
(1438758334.459909) can0 0EF82390#0102
(1438758334.466292) can0 12F96D50#04000000
(1438758334.486206) can0 12F81010#3800800000
(1438758334.496427) can0 0EF91250#0000000000000008
(1438758334.506215) can0 12F97450#8040
(1438758334.507259) can0 12F96050#00000000410A00
(1438758334.516232) can0 12F85050#0002EF200008
(1438758334.517203) can0 0AF81110#180000000000
(1438758334.518367) can0 0EF86350#000000005555C492
(1438758334.519112) can0 12F97150#E001BC
(1438758334.520275) can0 12F86150#00001000000000FC
(1438758334.520980) can0 0EF87372#0497
(1438758334.565882) can0 12F82C10#70
(1438758334.584866) can0 12F88090#00
(1438758334.589900) can0 0EF81490#00
(1438758334.595877) can0 0AF97950#00
(1438758334.596559) can0 0AF87010#0004
(1438758334.597864) can0 0EF81510#02
(1438758334.598856) can0 0EF82010#00
(1438758334.605858) can0 12F83110#08
(1438758334.606546) can0 12F97450#8040
(1438758334.607175) can0 12F83210#08
(1438758334.608256) can0 12F96050#00000000410A00
(1438758334.608895) can0 12F83410#20
(1438758334.610030) can0 12F85450#1636000000160000
(1438758334.610681) can0 12F84010#00
(1438758334.611863) can0 12F84110#80
(1438758334.612877) can0 12F84210#80
(1438758334.615890) can0 12F83010#00
(1438758334.616884) can0 12F85050#0002F0200008
(1438758334.618012) can0 0EF86350#000000005555C690
(1438758334.618649) can0 12F84310#00
(1438758334.619433) can0 12F97150#E001BC
(1438758334.620148) can0 12F82290#80
(1438758334.620703) can0 12F87810#00
(1438758334.621408) can0 12F97350#0000
(1438758334.622643) can0 12F95F50#8296300000000000
(1438758334.625814) can0 1610FF10#
(1438758334.626666) can0 12F95A50#00000000
(1438758334.627822) can0 16F86250#0E00000000000000
(1438758334.628468) can0 12F85C50#00
(1438758334.655783) can0 12F97C50#18
(1438758334.660168) can0 12F89090#00010004
(1438758334.666016) can0 0AF87110#00FF00
(1438758334.666848) can0 12F96D50#04000000
(1438758334.696307) can0 0EF91250#0000000000000008
(1438758334.706195) can0 12F97450#8040
(1438758334.707238) can0 12F96050#00000000410A00
(1438758334.716120) can0 12F85050#0002EC200008
(1438758334.716824) can0 12F97150#E001BC
(1438758334.717996) can0 0EF86350#000000005555C98D
(1438758334.726445) can0 12F85150#4003000060
(1438758334.739833) can0 0EF88190#00
(1438758334.759918) can0 0EF82390#0102
(1438758334.786208) can0 12F81010#3800800000
(1438758334.806255) can0 12F97450#8040
(1438758334.807300) can0 12F96050#00000000410A00
(1438758334.816257) can0 0AF81110#180000000000
(1438758334.817247) can0 12F85050#0002F2200008
(1438758334.818363) can0 0EF86350#000000005555CB8B
(1438758334.819142) can0 12F97150#E001BC
(1438758334.820308) can0 12F86150#00001000000000FC
(1438758334.820993) can0 0EF87372#0497
(1438758334.865898) can0 12F82C10#70
(1438758334.866719) can0 12F96D50#04000000
(1438758334.884848) can0 12F88090#00
(1438758334.889877) can0 0EF81490#00
(1438758334.895958) can0 0AF87010#0004
(1438758334.897112) can0 0EF91250#0000000000000008
(1438758334.897744) can0 0AF97950#00
(1438758334.898383) can0 0EF81510#02
(1438758334.899869) can0 0EF82010#00
(1438758334.905867) can0 12F83110#08
(1438758334.906560) can0 12F97450#8000
(1438758334.907186) can0 12F83210#08
(1438758334.908268) can0 12F96050#00000000410A00
(1438758334.908909) can0 12F83410#20
(1438758334.910098) can0 12F85450#1636000000160000
(1438758334.910688) can0 12F84010#00
(1438758334.911867) can0 12F84110#80
(1438758334.912887) can0 12F84210#80
(1438758334.916185) can0 12F85050#0002F2200008
(1438758334.916760) can0 12F83010#00
(1438758334.917543) can0 12F97150#E001BC
(1438758334.918185) can0 12F84310#00
(1438758334.918904) can0 12F97350#0000
(1438758334.920010) can0 0EF86350#000000005555CE88
(1438758334.920652) can0 12F87810#00
(1438758334.926187) can0 12F95A50#00000000
(1438758334.927340) can0 16F86250#0F00000000000000
(1438758334.927971) can0 12F85C50#00
(1438758334.960112) can0 12F89090#00010004
(1438758334.966055) can0 0AF87110#00FF00
(1438758335.006160) can0 12F97450#8000
(1438758335.007208) can0 12F96050#00000000410A00
(1438758335.016154) can0 12F85050#0002F1200008
(1438758335.016917) can0 12F97150#E001BC
(1438758335.018042) can0 0EF86350#000000005555D086
(1438758335.026385) can0 12F85150#4003000060
(1438758335.039826) can0 0EF88190#00
(1438758335.059937) can0 0EF82390#0102
(1438758335.066304) can0 12F96D50#04000000
(1438758335.086210) can0 12F81010#3800800000
(1438758335.096163) can0 0EF91250#0000000000000008
(1438758335.106215) can0 12F97450#8000
(1438758335.107283) can0 12F96050#00000000410A00
(1438758335.108192) can0 12F85250#7D003A14
(1438758335.116224) can0 12F85050#0002E8200008
(1438758335.117183) can0 0AF81110#180000000000
(1438758335.118380) can0 12F86150#00001000000000FC
(1438758335.119471) can0 0EF86350#000000005555D383
(1438758335.120253) can0 12F97150#E001BC
(1438758335.120940) can0 0EF87372#0497
(1438758335.122090) can0 12F95F50#8296300000000000
(1438758335.155678) can0 12F97C50#18
(1438758335.165872) can0 12F82C10#70
(1438758335.184860) can0 12F88090#00
(1438758335.189888) can0 0EF81490#00
(1438758335.195828) can0 0AF97950#00
(1438758335.196517) can0 0AF87010#0004
(1438758335.197882) can0 0EF81510#02
(1438758335.198873) can0 0EF82010#00
(1438758335.205870) can0 12F83110#08
(1438758335.206561) can0 12F97450#8040
(1438758335.207181) can0 12F83210#08
(1438758335.208258) can0 12F96050#00000000410A00
(1438758335.208898) can0 12F83410#20
(1438758335.210034) can0 12F85450#1636000000160000
(1438758335.210684) can0 12F84010#00
(1438758335.211858) can0 12F84110#80
(1438758335.212892) can0 12F84210#80
(1438758335.216218) can0 12F85050#0002ED200008
(1438758335.216859) can0 12F83010#00
(1438758335.217637) can0 12F97150#E001BC
(1438758335.218278) can0 12F84310#00
(1438758335.218983) can0 12F97350#0000
(1438758335.220188) can0 0EF86350#000000005555D581
(1438758335.220748) can0 12F87810#00
(1438758335.226332) can0 12F95A50#00000000
(1438758335.227480) can0 16F86250#0000000010000000
(1438758335.228196) can0 12F85C50#00
(1438758335.228674) can0 1610FF90#
(1438758335.260159) can0 12F89090#00010004
(1438758335.266025) can0 0AF87110#00FF00
(1438758335.266860) can0 12F96D50#04000000
(1438758335.296392) can0 0EF91250#0000000000000008
(1438758335.297889) can0 1610FF54#
(1438758335.306181) can0 12F97450#8040
(1438758335.307229) can0 12F96050#00000000410A00
(1438758335.316214) can0 12F85050#0002F5200008
(1438758335.316920) can0 12F97150#E001BC
(1438758335.318101) can0 0EF86350#000000005555D87E
(1438758335.319956) can0 1610FF72#
(1438758335.326400) can0 12F85150#4003000060
(1438758335.339830) can0 0EF88190#00
(1438758335.359914) can0 0EF82390#0102
(1438758335.386218) can0 12F81010#3800800000
(1438758335.406188) can0 12F97450#8000
(1438758335.407223) can0 12F96050#00000000410A00
(1438758335.416227) can0 12F85050#0002E8200008
(1438758335.417212) can0 0AF81110#180000000000
(1438758335.418339) can0 0EF86350#000000005555DA7C
(1438758335.419121) can0 12F97150#E001BC
(1438758335.420299) can0 12F86150#00001000000000FC
(1438758335.420968) can0 0EF87372#0497
(1438758335.431875) can0 16F97D54#222C7E1F0595BDC1
(1438758335.439669) can0 1610FF50#
(1438758335.455607) can0 12F97650#04
(1438758335.465892) can0 12F82C10#70
(1438758335.466729) can0 12F96D50#04000000
(1438758335.484840) can0 12F88090#00
(1438758335.489875) can0 0EF81490#00
(1438758335.496219) can0 0EF91250#0000000000000008
(1438758335.496917) can0 0AF87010#0004
(1438758335.497546) can0 0AF97950#00
(1438758335.498197) can0 0EF81510#02
(1438758335.498894) can0 0EF82010#00
(1438758335.505894) can0 12F83110#08
(1438758335.506571) can0 12F97450#8040
(1438758335.507203) can0 12F83210#08
(1438758335.508302) can0 12F96050#00000000410A00
(1438758335.508937) can0 12F83410#20
(1438758335.510122) can0 12F85450#1636000000160000
(1438758335.510702) can0 12F84010#00
(1438758335.511883) can0 12F84110#80
(1438758335.512894) can0 12F84210#80
(1438758335.516178) can0 12F85050#0002E0200008
(1438758335.516747) can0 12F83010#00
(1438758335.517526) can0 12F97150#E001BC
(1438758335.518203) can0 12F84310#00
(1438758335.518870) can0 12F97350#0000
(1438758335.520009) can0 0EF86350#000000005555DD79
(1438758335.520645) can0 12F87810#00
(1438758335.526234) can0 12F95A50#00000000
(1438758335.527311) can0 16F86250#01334847474B3500
(1438758335.527951) can0 12F85C50#00
(1438758335.560093) can0 12F89090#00010004
(1438758335.566066) can0 0AF87110#00FF00
(1438758335.606158) can0 12F97450#8040
(1438758335.607184) can0 12F96050#00000000410A00
(1438758335.616271) can0 12F85050#000300200008
(1438758335.617335) can0 12F96150#415F0000000000
(1438758335.618458) can0 0EF86350#000000005555DF77
(1438758335.619603) can0 12F96B50#7FF94D0000000000
(1438758335.620267) can0 12F82290#80
(1438758335.621028) can0 12F97150#E001BC
(1438758335.622215) can0 12F95F50#8296300000000000
(1438758335.625837) can0 1610FF10#
(1438758335.626736) can0 12F85150#4003000060
(1438758335.639825) can0 0EF88190#00
(1438758335.655666) can0 12F97C50#18
(1438758335.659895) can0 0EF82390#0102
(1438758335.666345) can0 12F96D50#04000000
(1438758335.686221) can0 12F81010#3800800000
(1438758335.696271) can0 0EF91250#0000000000000008
(1438758335.706054) can0 12F97450#8000
(1438758335.707093) can0 12F96050#00000000410A00
(1438758335.716124) can0 12F85050#000328200008
(1438758335.717077) can0 0AF81110#180000000000
(1438758335.718218) can0 0EF86350#000000005555E274
(1438758335.718977) can0 12F97150#E001BC
(1438758335.720138) can0 12F86150#00001000000000FC
(1438758335.720825) can0 0EF87372#0497
(1438758335.765897) can0 12F82C10#70
(1438758335.784847) can0 12F88090#00
(1438758335.789874) can0 0EF81490#00
(1438758335.795863) can0 0AF97950#00
(1438758335.796553) can0 0AF87010#0004
(1438758335.797888) can0 0EF81510#02
(1438758335.798887) can0 0EF82010#00
(1438758335.805888) can0 12F83110#08
(1438758335.806572) can0 12F97450#8000
(1438758335.807196) can0 12F83210#08
(1438758335.808276) can0 12F96050#00000000410A00
(1438758335.808914) can0 12F83410#20
(1438758335.810050) can0 12F85450#1636000000160000
(1438758335.810698) can0 12F84010#00
(1438758335.811872) can0 12F84110#80
(1438758335.812896) can0 12F84210#80
(1438758335.816098) can0 12F85050#000304200008
(1438758335.816742) can0 12F83010#00
(1438758335.817525) can0 12F97150#E001BC
(1438758335.818163) can0 12F84310#00
(1438758335.818869) can0 12F97350#0000
(1438758335.819989) can0 0EF86350#000000005555E472
(1438758335.820629) can0 12F87810#00
(1438758335.826328) can0 12F95A50#00000000
(1438758335.827421) can0 16F86250#02483839464D3700
(1438758335.828086) can0 12F85C50#00
(1438758335.860126) can0 12F89090#00010004
(1438758335.866040) can0 0AF87110#00FF00
(1438758335.866876) can0 12F96D50#04000000
(1438758335.896266) can0 0EF91250#0000000000000008
(1438758335.906016) can0 12F97450#8000
(1438758335.907072) can0 12F96050#00000000410A00
(1438758335.916261) can0 12F85050#00031B200008
(1438758335.916952) can0 12F97150#E001BC
(1438758335.918115) can0 0EF86350#000000005555E76F
(1438758335.926274) can0 12F85150#4003000060
(1438758335.939829) can0 0EF88190#00
(1438758335.959898) can0 0EF82390#0102
(1438758335.986225) can0 12F81010#3800800000
(1438758336.006124) can0 12F97450#8000
(1438758336.007138) can0 12F96050#00000000410A00
(1438758336.016145) can0 12F85050#000313200008
(1438758336.017133) can0 0AF81110#180000000000
(1438758336.018258) can0 0EF86350#000000005555E96D
(1438758336.019043) can0 12F97150#E001BC
(1438758336.019730) can0 0EF87372#0497
(1438758336.020891) can0 12F86150#00001000000000FC
(1438758336.066119) can0 12F96D50#04000000
(1438758336.066708) can0 12F82C10#70
(1438758336.084840) can0 12F88090#00
(1438758336.089863) can0 0EF81490#00
(1438758336.096326) can0 0EF91250#0000000000000008
(1438758336.097010) can0 0AF87010#0004
(1438758336.097641) can0 0AF97950#00
(1438758336.098293) can0 0EF81510#02
(1438758336.099884) can0 0EF82010#00
(1438758336.105896) can0 12F83110#08
(1438758336.106577) can0 12F97450#8040
(1438758336.107210) can0 12F83210#08
(1438758336.108355) can0 12F85450#1636000000160000
(1438758336.108986) can0 12F83410#20
(1438758336.110112) can0 12F96050#00000000410A00
(1438758336.110715) can0 12F84010#00
(1438758336.111545) can0 12F85250#7D003A14
(1438758336.112182) can0 12F84110#80
(1438758336.112923) can0 12F84210#80
(1438758336.116126) can0 12F85050#00030A200008
(1438758336.117199) can0 0EF86350#000000005555EC6A
(1438758336.117848) can0 12F83010#00
(1438758336.118633) can0 12F97150#E001BC
(1438758336.119272) can0 12F84310#00
(1438758336.119975) can0 12F97350#0000
(1438758336.121127) can0 12F95F50#8296300000000000
(1438758336.121765) can0 12F87810#00
(1438758336.126256) can0 12F95A50#00000000
(1438758336.127354) can0 16F86250#0333333134300000
(1438758336.127994) can0 12F85C50#00
(1438758336.155728) can0 12F97C50#18
(1438758336.160137) can0 12F89090#00010004
(1438758336.166273) can0 0AF87110#00FF00
(1438758336.206133) can0 12F97450#8040
(1438758336.207127) can0 12F96050#00000000410A00
(1438758336.216174) can0 12F85050#000303200008
(1438758336.216941) can0 12F97150#E001BC
(1438758336.218056) can0 0EF86350#000000005555EE68
(1438758336.226366) can0 12F85150#4003000060
(1438758336.228537) can0 1610FF90#
(1438758336.239812) can0 0EF88190#00
(1438758336.259964) can0 0EF82390#0102
(1438758336.266293) can0 12F96D50#04000000
(1438758336.286258) can0 12F81010#3800800000
(1438758336.296244) can0 0EF91250#0000000000000008
(1438758336.298396) can0 1610FF54#
(1438758336.306000) can0 12F97450#8040
(1438758336.307057) can0 12F96050#00000000410A00
(1438758336.316105) can0 12F85050#000305200008
(1438758336.317058) can0 0AF81110#180000000000
(1438758336.318236) can0 0EF86350#000000005555F165
(1438758336.318964) can0 12F97150#E001BC
(1438758336.320127) can0 12F86150#00001000000000FC
(1438758336.320685) can0 1610FF72#
(1438758336.321429) can0 0EF87372#0497
(1438758336.365922) can0 12F82C10#70
(1438758336.384838) can0 12F88090#00
(1438758336.389909) can0 0EF81490#00
(1438758336.395644) can0 0AF97950#00
(1438758336.396366) can0 0AF87010#0004
(1438758336.397900) can0 0EF81510#02
(1438758336.398895) can0 0EF82010#00
(1438758336.405888) can0 12F83110#08
(1438758336.406609) can0 12F97450#8040
(1438758336.407194) can0 12F83210#08
(1438758336.408276) can0 12F96050#00000000410A00
(1438758336.408916) can0 12F83410#20
(1438758336.410054) can0 12F85450#1636000000160000
(1438758336.410697) can0 12F84010#00
(1438758336.411886) can0 12F84110#80
(1438758336.412906) can0 12F84210#80
(1438758336.416026) can0 12F85050#0002FD200008
(1438758336.416666) can0 12F83010#00
(1438758336.417446) can0 12F97150#E001BC
(1438758336.418089) can0 12F84310#00
(1438758336.418791) can0 12F97350#0000
(1438758336.419927) can0 0EF86350#000000005555F363
(1438758336.420566) can0 12F87810#00
(1438758336.426201) can0 12F95A50#00000000
(1438758336.427306) can0 16F86250#0431144003050000
(1438758336.427944) can0 12F85C50#00
(1438758336.432078) can0 16F97D54#222C7E1F0595C041
(1438758336.443880) can0 1610FF50#
(1438758336.455686) can0 12F97650#04
(1438758336.460264) can0 12F89090#00010004
(1438758336.466127) can0 12F96D50#04000000
(1438758336.466875) can0 0AF87110#00FF00
(1438758336.496190) can0 0EF91250#0000000000000008
(1438758336.506072) can0 12F97450#8000
(1438758336.507127) can0 12F96050#00000000410A00
(1438758336.516136) can0 12F85050#000303200008
(1438758336.516861) can0 12F97150#E001BC
(1438758336.518003) can0 0EF86350#000000005555F660
(1438758336.526396) can0 12F85150#4003000060
(1438758336.539814) can0 0EF88190#00
(1438758336.560001) can0 0EF82390#0102
(1438758336.586241) can0 12F81010#3800800000
(1438758336.606210) can0 12F97450#8000
(1438758336.607230) can0 12F96050#00000000410A00
(1438758336.616257) can0 12F85050#0002FF200008
(1438758336.617252) can0 0AF81110#180000000000
(1438758336.618409) can0 12F86150#00001000000000FC
(1438758336.619553) can0 0EF86350#000000005555F85E
(1438758336.620329) can0 0EF87372#0497
(1438758336.620873) can0 12F82290#80
(1438758336.621666) can0 12F97150#E001BC
(1438758336.622831) can0 12F95F50#8296300000000000
(1438758336.625841) can0 1610FF10#
(1438758336.655712) can0 12F97C50#18
(1438758336.666117) can0 12F96D50#04000000
(1438758336.666728) can0 12F82C10#70
(1438758336.684830) can0 12F88090#00
(1438758336.689857) can0 0EF81490#00
(1438758336.696296) can0 0EF91250#0000000000000008
(1438758336.696997) can0 0AF87010#0004
(1438758336.697619) can0 0AF97950#00
(1438758336.698256) can0 0EF81510#02
(1438758336.698921) can0 0EF82010#00
(1438758336.705910) can0 12F83110#08
(1438758336.706586) can0 12F97450#8000
(1438758336.707215) can0 12F83210#08
(1438758336.708335) can0 12F96050#00000000410A00
(1438758336.708937) can0 12F83410#20
(1438758336.710074) can0 12F85450#1636000000160000
(1438758336.710722) can0 12F84010#00
(1438758336.711897) can0 12F84110#80
(1438758336.712915) can0 12F84210#80
(1438758336.716270) can0 12F85050#0002F8200008
(1438758336.716841) can0 12F83010#00
(1438758336.717625) can0 12F97150#E001BC
(1438758336.718303) can0 12F84310#00
(1438758336.718969) can0 12F97350#0000
(1438758336.720096) can0 0EF86350#000000005555FB5B
(1438758336.720740) can0 12F87810#00
(1438758336.726329) can0 12F95A50#00000000
(1438758336.727472) can0 16F86250#0500000000000000
(1438758336.728110) can0 12F85C50#00
(1438758336.760075) can0 12F89090#00010004
(1438758336.766038) can0 0AF87110#00FF00
(1438758336.806192) can0 12F97450#8000
(1438758336.807199) can0 12F96050#00000000410A00
(1438758336.816073) can0 12F85050#0002F8200008
(1438758336.816839) can0 12F97150#E001BC
(1438758336.817973) can0 0EF86350#000000005555FD59
(1438758336.826263) can0 12F85150#4003000060
(1438758336.839804) can0 0EF88190#00
(1438758336.859889) can0 0EF82390#0102
(1438758336.866157) can0 12F96D50#04000000
(1438758336.886266) can0 12F81010#3800800000
(1438758336.896271) can0 0EF91250#0000000000000008
(1438758336.906136) can0 12F97450#8040
(1438758336.907203) can0 12F96050#00000000410A00
(1438758336.916103) can0 12F85050#000304200008
(1438758336.917099) can0 0AF81110#180000000000
(1438758336.918269) can0 0EF86350#0000000055550056
(1438758336.918898) can0 0EF87372#0497
(1438758336.919686) can0 12F97150#E001BC
(1438758336.920843) can0 12F86150#00001000000000FC
(1438758336.965928) can0 12F82C10#70
(1438758336.984820) can0 12F88090#00
(1438758336.989852) can0 0EF81490#00
(1438758336.995669) can0 0AF97950#00
(1438758336.996392) can0 0AF87010#0004
(1438758336.997922) can0 0EF81510#02
(1438758336.998913) can0 0EF82010#00
(1438758337.005904) can0 12F83110#08
(1438758337.006621) can0 12F97450#8000
(1438758337.007218) can0 12F83210#08
(1438758337.008293) can0 12F96050#00000000410A00
(1438758337.008935) can0 12F83410#20
(1438758337.010068) can0 12F85450#1636000000160000
(1438758337.010717) can0 12F84010#00
(1438758337.011895) can0 12F84110#80
(1438758337.012918) can0 12F84210#80
(1438758337.016064) can0 12F85050#0002FB200008
(1438758337.016708) can0 12F83010#00
(1438758337.017488) can0 12F97150#E001BC
(1438758337.018127) can0 12F84310#00
(1438758337.018831) can0 12F97350#0000
(1438758337.019971) can0 0EF86350#0000000055550254
(1438758337.020608) can0 12F87810#00
(1438758337.026298) can0 12F95A50#00000000
(1438758337.027448) can0 16F86250#0600000000000000
(1438758337.028091) can0 12F85C50#00
(1438758337.060089) can0 12F89090#00010004
(1438758337.066073) can0 0AF87110#00FF00
(1438758337.066889) can0 12F96D50#04000000
(1438758337.096425) can0 0EF91250#0000000000000008
(1438758337.106127) can0 12F97450#8000
(1438758337.107192) can0 12F96050#00000000410A00
(1438758337.108022) can0 12F85250#7D003A14
(1438758337.116241) can0 12F85050#0002F4200008
(1438758337.117317) can0 0EF86350#0000000055550551
(1438758337.118101) can0 12F97150#E001BC
(1438758337.119251) can0 12F95F50#8296300000000000
(1438758337.126330) can0 12F85150#4003000060
(1438758337.139801) can0 0EF88190#00
(1438758337.155637) can0 12F97C50#18
(1438758337.159872) can0 0EF82390#0102
(1438758337.186248) can0 12F81010#3800800000
(1438758337.206013) can0 12F97450#8040
(1438758337.207054) can0 12F96050#00000000410A00
(1438758337.216093) can0 12F85050#0002FE200008
(1438758337.217097) can0 0AF81110#180000000000
(1438758337.218217) can0 0EF86350#000000005555074F
(1438758337.218907) can0 0EF87372#0497
(1438758337.219687) can0 12F97150#E001BC
(1438758337.220848) can0 12F86150#00001000000000FC
(1438758337.229090) can0 1610FF90#
(1438758337.265928) can0 12F82C10#70
(1438758337.266760) can0 12F96D50#04000000
(1438758337.284822) can0 12F88090#00
(1438758337.289847) can0 0EF81490#00
(1438758337.296415) can0 0EF91250#0000000000000008
(1438758337.297112) can0 0AF87010#0004
(1438758337.297741) can0 0AF97950#00
(1438758337.298381) can0 0EF81510#02
(1438758337.299136) can0 1610FF54#
(1438758337.299927) can0 0EF82010#00
(1438758337.305909) can0 12F83110#08
(1438758337.306601) can0 12F97450#8000
(1438758337.307234) can0 12F83210#08
(1438758337.308383) can0 12F96050#00000000410A00
(1438758337.308954) can0 12F83410#20
(1438758337.310087) can0 12F85450#1636000000160000
(1438758337.310746) can0 12F84010#00
(1438758337.311912) can0 12F84110#80
(1438758337.312930) can0 12F84210#80
(1438758337.316139) can0 12F85050#0002EB200008
(1438758337.316783) can0 12F83010#00
(1438758337.317566) can0 12F97150#E001BC
(1438758337.318254) can0 12F84310#00
(1438758337.318910) can0 12F97350#0000
(1438758337.320038) can0 0EF86350#0000000055550A4C
(1438758337.320673) can0 12F87810#00
(1438758337.321231) can0 1610FF72#
(1438758337.326339) can0 12F95A50#00000000
(1438758337.327454) can0 16F86250#0700000000000000
(1438758337.328093) can0 12F85C50#00
(1438758337.360086) can0 12F89090#00010004
(1438758337.366049) can0 0AF87110#00FF00
(1438758337.406156) can0 12F97450#8040
(1438758337.407203) can0 12F96050#00000000410A00
(1438758337.416162) can0 12F85050#0002FB200008
(1438758337.416929) can0 12F97150#E001BC
(1438758337.418045) can0 0EF86350#0000000055550C4A
(1438758337.426079) can0 12F85150#4003000060
(1438758337.432084) can0 16F97D54#222C7E1F0595C0C1
(1438758337.439811) can0 0EF88190#00
(1438758337.448143) can0 1610FF50#
(1438758337.455916) can0 12F97650#04
(1438758337.459876) can0 0EF82390#0102
(1438758337.466134) can0 12F96D50#04000000
(1438758337.486289) can0 12F81010#3800800000
(1438758337.496461) can0 0EF91250#0000000000000008
(1438758337.506111) can0 12F97450#8040
(1438758337.507181) can0 12F96050#00000000410A00
(1438758337.516207) can0 12F85050#0002F6200008
(1438758337.517164) can0 0AF81110#180000000000
(1438758337.518323) can0 0EF86350#0000000055550F47
(1438758337.518964) can0 0EF87372#0497
(1438758337.519753) can0 12F97150#E001BC
(1438758337.520909) can0 12F86150#00001000000000FC
(1438758337.565935) can0 12F82C10#70
(1438758337.584875) can0 12F88090#00
(1438758337.589843) can0 0EF81490#00
(1438758337.595699) can0 0AF97950#00
(1438758337.596426) can0 0AF87010#0004
(1438758337.597910) can0 0EF81510#02
(1438758337.598906) can0 0EF82010#00
(1438758337.605902) can0 12F83110#08
(1438758337.606638) can0 12F97450#8000
(1438758337.607221) can0 12F83210#08
(1438758337.608299) can0 12F96050#00000000410A00
(1438758337.608948) can0 12F83410#20
(1438758337.610072) can0 12F85450#1636000000160000
(1438758337.610721) can0 12F84010#00
(1438758337.611898) can0 12F84110#80
(1438758337.612921) can0 12F84210#80
(1438758337.616207) can0 12F85050#0002F8200008
(1438758337.617327) can0 0EF86350#0000000055551145
(1438758337.617975) can0 12F83010#00
(1438758337.618757) can0 12F97150#E001BC
(1438758337.619395) can0 12F84310#00
(1438758337.620029) can0 12F82290#80
(1438758337.620736) can0 12F97350#0000
(1438758337.621373) can0 12F87810#00
(1438758337.622635) can0 12F95F50#8296300000000000
(1438758337.626057) can0 12F95A50#00000000
(1438758337.626632) can0 1610FF10#
(1438758337.627805) can0 16F86250#0800000000000000
(1438758337.628776) can0 12F96750#C2270F890000
(1438758337.629409) can0 12F85C50#00
(1438758337.655843) can0 12F97C50#18
(1438758337.660045) can0 12F89090#00010004
(1438758337.666070) can0 12F96D50#04000000
(1438758337.666827) can0 0AF87110#00FF00
(1438758337.696406) can0 0EF91250#0000000000000008
(1438758337.706032) can0 12F97450#8040
(1438758337.707098) can0 12F96050#00000000410A00
(1438758337.716087) can0 12F85050#0002F7200008
(1438758337.716861) can0 12F97150#E001BC
(1438758337.717963) can0 0EF86350#0000000055551442
(1438758337.726182) can0 12F85150#4003000060
(1438758337.739810) can0 0EF88190#00
(1438758337.759885) can0 0EF82390#0102
(1438758337.786252) can0 12F81010#3800800000
(1438758337.806000) can0 12F97450#8000
(1438758337.807054) can0 12F96050#00000000410A00
(1438758337.816069) can0 12F85050#0002FC200008
(1438758337.817062) can0 0AF81110#180000000000
(1438758337.818185) can0 0EF86350#0000000055551640
(1438758337.818871) can0 0EF87372#0497
(1438758337.819658) can0 12F97150#E001BC
(1438758337.820832) can0 12F86150#00001000000000FC
(1438758337.865941) can0 12F82C10#70
(1438758337.866771) can0 12F96D50#04000000
(1438758337.884820) can0 12F88090#00
(1438758337.889836) can0 0EF81490#00
(1438758337.896003) can0 0AF87010#0004
(1438758337.897163) can0 0EF91250#0000000000000008
(1438758337.897791) can0 0AF97950#00
(1438758337.898431) can0 0EF81510#02
(1438758337.899919) can0 0EF82010#00
(1438758337.905913) can0 12F83110#08
(1438758337.906607) can0 12F97450#8000
(1438758337.907232) can0 12F83210#08
(1438758337.908387) can0 12F96050#00000000410A00
(1438758337.908955) can0 12F83410#20
(1438758337.910092) can0 12F85450#1636000000160000
(1438758337.910771) can0 12F84010#00
(1438758337.911924) can0 12F84110#80
(1438758337.912932) can0 12F84210#80
(1438758337.916043) can0 12F85050#0002F4200008
(1438758337.916693) can0 12F83010#00
(1438758337.917473) can0 12F97150#E001BC
(1438758337.918111) can0 12F84310#00
(1438758337.918814) can0 12F97350#0000
(1438758337.919937) can0 0EF86350#000000005555193D
(1438758337.920575) can0 12F87810#00
(1438758337.926116) can0 12F95A50#00000000
(1438758337.927273) can0 16F86250#0900000000000000
(1438758337.927912) can0 12F85C50#00
(1438758337.960072) can0 12F89090#00010004
(1438758337.966054) can0 0AF87110#00FF00
(1438758338.005982) can0 12F97450#8040
(1438758338.007037) can0 12F96050#00000000410A00
(1438758338.015993) can0 12F85050#0002FC200008
(1438758338.016762) can0 12F97150#E001BC
(1438758338.017883) can0 0EF86350#0000000055551B3B
(1438758338.026221) can0 12F85150#4003000060
(1438758338.039808) can0 0EF88190#00
(1438758338.059884) can0 0EF82390#0102
(1438758338.066184) can0 12F96D50#04000000
(1438758338.086297) can0 12F81010#3800800000
(1438758338.096321) can0 0EF91250#0000000000000008
(1438758338.105968) can0 12F97450#8040
(1438758338.107039) can0 12F96050#00000000410A00
(1438758338.107864) can0 12F85250#7D003A14
(1438758338.116032) can0 12F85050#0002FD200008
(1438758338.117021) can0 0AF81110#180000000000
(1438758338.117705) can0 0EF87372#0497
(1438758338.118868) can0 12F86150#00001000000000FC
(1438758338.119993) can0 0EF86350#0000000055551E38
(1438758338.120777) can0 12F97150#E001BC
(1438758338.121929) can0 12F95F50#8296300000000000
(1438758338.155694) can0 12F97C50#18
(1438758338.166123) can0 12F82C10#70
(1438758338.184815) can0 12F88090#00
(1438758338.189835) can0 0EF81490#00
(1438758338.195704) can0 0AF97950#00
(1438758338.196467) can0 0AF87010#0004
(1438758338.197937) can0 0EF81510#02
(1438758338.198928) can0 0EF82010#00
(1438758338.205915) can0 12F83110#08
(1438758338.206602) can0 12F97450#8000
(1438758338.207234) can0 12F83210#08
(1438758338.208309) can0 12F96050#00000000410A00
(1438758338.208949) can0 12F83410#20
(1438758338.210085) can0 12F85450#1636000000160000
(1438758338.210734) can0 12F84010#00
(1438758338.211909) can0 12F84110#80
(1438758338.212941) can0 12F84210#80
(1438758338.215980) can0 12F85050#0002F3200008
(1438758338.216628) can0 12F83010#00
(1438758338.217410) can0 12F97150#E001BC
(1438758338.218060) can0 12F84310#00
(1438758338.218752) can0 12F97350#0000
(1438758338.219877) can0 0EF86350#0000000055552036
(1438758338.220538) can0 12F87810#00
(1438758338.226097) can0 12F95A50#00000000
(1438758338.227247) can0 16F86250#0A00000000808000
(1438758338.227879) can0 12F85C50#00
(1438758338.229503) can0 1610FF90#
(1438758338.260074) can0 12F89090#00010004
(1438758338.266064) can0 0AF87110#00FF00
(1438758338.266917) can0 12F96D50#04000000
(1438758338.296165) can0 0EF91250#0000000000000008
(1438758338.299522) can0 1610FF54#
(1438758338.306168) can0 12F97450#8000
(1438758338.307093) can0 12F96050#00000000410A00
(1438758338.315923) can0 12F85050#0002F3200008
(1438758338.316679) can0 12F97150#E001BC
(1438758338.317798) can0 0EF86350#0000000055552333
(1438758338.318449) can0 1610FF72#
(1438758338.326129) can0 12F85150#4003000060
(1438758338.339797) can0 0EF88190#00
(1438758338.359888) can0 0EF82390#0102
(1438758338.386270) can0 12F81010#3800800000
(1438758338.405925) can0 12F97450#8040
(1438758338.406978) can0 12F96050#00000000410A00
(1438758338.416075) can0 12F85050#0002F7200008
(1438758338.417071) can0 0AF81110#180000000000
(1438758338.418195) can0 0EF86350#0000000055552531
(1438758338.418884) can0 0EF87372#0497
(1438758338.419667) can0 12F97150#E001BC
(1438758338.420824) can0 12F86150#00001000000000FC
(1438758338.431738) can0 16F97D54#222C7E1F0595C141
(1438758338.452343) can0 1610FF50#
(1438758338.455743) can0 12F97650#04
(1438758338.465941) can0 12F82C10#70
(1438758338.466781) can0 12F96D50#04000000
(1438758338.484798) can0 12F88090#00
(1438758338.489837) can0 0EF81490#00
(1438758338.496200) can0 0EF91250#0000000000000008
(1438758338.496903) can0 0AF87010#0004
(1438758338.497526) can0 0AF97950#00
(1438758338.498170) can0 0EF81510#02
(1438758338.498945) can0 0EF82010#00
(1438758338.505929) can0 12F83110#08
(1438758338.506620) can0 12F97450#8000
(1438758338.507266) can0 12F83210#08
(1438758338.508375) can0 12F96050#00000000410A00
(1438758338.508970) can0 12F83410#20
(1438758338.510108) can0 12F85450#1636000000160000
(1438758338.510792) can0 12F84010#00
(1438758338.511929) can0 12F84110#80
(1438758338.512948) can0 12F84210#80
(1438758338.515904) can0 12F85050#0002F5200008
(1438758338.516559) can0 12F83010#00
(1438758338.517340) can0 12F97150#E001BC
(1438758338.517976) can0 12F84310#00
(1438758338.518722) can0 12F97350#0000
(1438758338.519808) can0 0EF86350#000000005555282E
(1438758338.520445) can0 12F87810#00
(1438758338.526189) can0 12F95A50#00000000
(1438758338.527354) can0 16F86250#0B00000000000000
(1438758338.527992) can0 12F85C50#00
(1438758338.560075) can0 12F89090#00010004
(1438758338.566070) can0 0AF87110#00FF00
(1438758338.606060) can0 12F97450#8000
(1438758338.607122) can0 12F96050#00000000410A00
(1438758338.616181) can0 12F85050#0002F7200008
(1438758338.617285) can0 0EF86350#0000000055552A2C
(1438758338.618070) can0 12F97150#E001BC
(1438758338.619220) can0 12F95F50#8296300000000000
(1438758338.619851) can0 12F82290#80
(1438758338.625878) can0 1610FF10#
(1438758338.626788) can0 12F85150#4003000060
(1438758338.639838) can0 0EF88190#00
(1438758338.655623) can0 12F97C50#18
(1438758338.659892) can0 0EF82390#0102
(1438758338.666170) can0 12F96D50#04000000
(1438758338.686268) can0 12F81010#3800800000
(1438758338.696242) can0 0EF91250#0000000000000008
(1438758338.705912) can0 12F97450#8040
(1438758338.706980) can0 12F96050#00000000410A00
(1438758338.716119) can0 12F85050#0002FE200008
(1438758338.717104) can0 0AF81110#180000000000
(1438758338.718224) can0 0EF86350#0000000055552D29
(1438758338.718910) can0 0EF87372#0497
(1438758338.719704) can0 12F97150#E001BC
(1438758338.720852) can0 12F86150#00001000000000FC
(1438758338.765950) can0 12F82C10#70
(1438758338.784803) can0 12F88090#00
(1438758338.789827) can0 0EF81490#00
(1438758338.795716) can0 0AF97950#00
(1438758338.796487) can0 0AF87010#0004
(1438758338.797941) can0 0EF81510#02
(1438758338.798934) can0 0EF82010#00
(1438758338.805925) can0 12F97450#8000
(1438758338.806538) can0 12F83110#08
(1438758338.807610) can0 12F96050#00000000410A00
(1438758338.808239) can0 12F83210#08
(1438758338.809373) can0 12F85450#1636000000160000
(1438758338.810011) can0 12F83410#20
(1438758338.810955) can0 12F84010#00
(1438758338.811924) can0 12F84110#80
(1438758338.812948) can0 12F84210#80
(1438758338.815917) can0 12F85050#0002EE200008
(1438758338.816556) can0 12F83010#00
(1438758338.817346) can0 12F97150#E001BC
(1438758338.817982) can0 12F84310#00
(1438758338.818685) can0 12F97350#0000
(1438758338.819817) can0 0EF86350#0000000055552F27
(1438758338.820515) can0 12F87810#00
(1438758338.826154) can0 12F95A50#00000000
(1438758338.827305) can0 16F86250#0C00000000000000
(1438758338.827942) can0 12F85C50#00
(1438758338.860055) can0 12F89090#00010004
(1438758338.866047) can0 12F96D50#04000000
(1438758338.866805) can0 0AF87110#00FF00
(1438758338.896077) can0 0EF91250#0000000000000008
(1438758338.906059) can0 12F97450#8000
(1438758338.907123) can0 12F96050#00000000410A00
(1438758338.915954) can0 12F85050#0002F4200008
(1438758338.916712) can0 12F97150#E001BC
(1438758338.917850) can0 0EF86350#0000000055553224
(1438758338.926028) can0 12F85150#4003000060
(1438758338.939938) can0 0EF88190#00
(1438758338.959864) can0 0EF82390#0102
(1438758338.986276) can0 12F81010#3800800000
(1438758339.006089) can0 12F97450#8000
(1438758339.007142) can0 12F96050#00000000410A00
(1438758339.016067) can0 12F85050#0002FC200008
(1438758339.017059) can0 0AF81110#180000000000
(1438758339.018183) can0 0EF86350#0000000055553422
(1438758339.018866) can0 0EF87372#0497
(1438758339.019651) can0 12F97150#E001BC
(1438758339.020814) can0 12F86150#00001000000000FC
(1438758339.066172) can0 12F96D50#04000000
(1438758339.066763) can0 12F82C10#70
(1438758339.084800) can0 12F88090#00
(1438758339.089833) can0 0EF81490#00
(1438758339.096227) can0 0EF91250#0000000000000008
(1438758339.096916) can0 0AF87010#0004
(1438758339.097543) can0 0AF97950#00
(1438758339.098182) can0 0EF81510#02
(1438758339.098941) can0 0EF82010#00
(1438758339.105912) can0 12F97450#8000
(1438758339.106520) can0 12F83110#08
(1438758339.107660) can0 12F85450#1636000000160000
(1438758339.108289) can0 12F83210#08
(1438758339.109369) can0 12F96050#00000000410A00
(1438758339.110008) can0 12F83410#20
(1438758339.110869) can0 12F85250#7D003A14
(1438758339.111487) can0 12F84010#00
(1438758339.112964) can0 12F84110#80
(1438758339.113936) can0 12F84210#80
(1438758339.116022) can0 12F85050#0002F4200008
(1438758339.117152) can0 0EF86350#000000005555371F
(1438758339.117799) can0 12F83010#00
(1438758339.118583) can0 12F97150#E001BC
(1438758339.119222) can0 12F84310#00
(1438758339.119924) can0 12F97350#0000
(1438758339.120567) can0 12F87810#00
(1438758339.121716) can0 12F95F50#8296300000000000
(1438758339.126077) can0 12F95A50#00000000
(1438758339.127238) can0 16F86250#0D00000000000000
(1438758339.127878) can0 12F85C50#00
(1438758339.155683) can0 12F97C50#18
(1438758339.160097) can0 12F89090#00010004
(1438758339.166244) can0 0AF87110#00FF00
(1438758339.206063) can0 12F97450#8040
(1438758339.207106) can0 12F96050#00000000410A00
(1438758339.216063) can0 12F85050#0002F6200008
(1438758339.216827) can0 12F97150#E001BC
(1438758339.217945) can0 0EF86350#000000005555391D
(1438758339.226329) can0 12F85150#4003000060
(1438758339.228157) can0 1610FF90#
(1438758339.239772) can0 0EF88190#00
(1438758339.259931) can0 0EF82390#0102
(1438758339.266096) can0 12F96D50#04000000
(1438758339.286275) can0 12F81010#3800800000
(1438758339.296092) can0 0EF91250#0000000000000008
(1438758339.300063) can0 1610FF54#
(1438758339.306095) can0 12F97450#8000
(1438758339.307166) can0 12F96050#00000000410A00
(1438758339.315976) can0 12F85050#0002ED200008
(1438758339.316964) can0 0AF81110#180000000000
(1438758339.318099) can0 0EF86350#0000000055553C1A
(1438758339.318886) can0 12F97150#E001BC
(1438758339.320039) can0 12F86150#00001000000000FC
(1438758339.320595) can0 1610FF72#
(1438758339.321330) can0 0EF87372#0497
(1438758339.365969) can0 12F82C10#70
(1438758339.384828) can0 12F88090#00
(1438758339.389817) can0 0EF81490#00
(1438758339.395607) can0 0AF97950#00
(1438758339.396304) can0 0AF87010#0004
(1438758339.396964) can0 0EF81510#02
(1438758339.397956) can0 0EF82010#00
(1438758339.405942) can0 12F83110#08
(1438758339.406629) can0 12F97450#8000
(1438758339.407252) can0 12F83210#08
(1438758339.408335) can0 12F96050#00000000410A00
(1438758339.408968) can0 12F83410#20
(1438758339.410103) can0 12F85450#1636000000160000
(1438758339.410754) can0 12F84010#00
(1438758339.411927) can0 12F84110#80
(1438758339.412956) can0 12F84210#80
(1438758339.416093) can0 12F85050#0002F1200008
(1438758339.416734) can0 12F83010#00
(1438758339.417535) can0 12F97150#E001BC
(1438758339.418159) can0 12F84310#00
(1438758339.418860) can0 12F97350#0000
(1438758339.420006) can0 0EF86350#0000000055553E18
(1438758339.420647) can0 12F87810#00
(1438758339.426257) can0 12F95A50#00000000
(1438758339.427402) can0 16F86250#0E00000000000000
(1438758339.428042) can0 12F85C50#00
(1438758339.431674) can0 16F97D54#222C7E1F0595C1C1
(1438758339.455713) can0 12F97650#04
(1438758339.456483) can0 1610FF50#
(1438758339.460060) can0 12F89090#00010004
(1438758339.466095) can0 12F96D50#04000000
(1438758339.466850) can0 0AF87110#00FF00
(1438758339.496191) can0 0EF91250#0000000000000008
(1438758339.506038) can0 12F97450#8040
(1438758339.507104) can0 12F96050#00000000410A00
(1438758339.516020) can0 12F85050#0002F5200008
(1438758339.516796) can0 12F97150#E001BC
(1438758339.517930) can0 0EF86350#0000000055554115
(1438758339.526142) can0 12F85150#4003000060
(1438758339.539776) can0 0EF88190#00
(1438758339.559939) can0 0EF82390#0102
(1438758339.586283) can0 12F81010#3800800000
(1438758339.606068) can0 12F97450#8000
(1438758339.607128) can0 12F96050#00000000410A00
(1438758339.615481) can0 0EF87372#0497
(1438758339.616470) can0 0AF81110#180000000000
(1438758339.617458) can0 12F85050#0002F1200008
(1438758339.618619) can0 12F86150#00001000000000FC
(1438758339.619747) can0 0EF86350#0000000055554313
(1438758339.620412) can0 12F82290#80
(1438758339.621164) can0 12F97150#E001BC
(1438758339.622314) can0 12F95F50#8296300000000000
(1438758339.625890) can0 1610FF10#
(1438758339.655654) can0 12F97C50#18
(1438758339.665959) can0 12F82C10#70
(1438758339.666799) can0 12F96D50#04000000
(1438758339.684828) can0 12F88090#00
(1438758339.689824) can0 0EF81490#00
(1438758339.696174) can0 0EF91250#0000000000000008
(1438758339.696875) can0 0AF87010#0004
(1438758339.697500) can0 0AF97950#00
(1438758339.698143) can0 0EF81510#02
(1438758339.698973) can0 0EF82010#00
(1438758339.705948) can0 12F83110#08
(1438758339.706635) can0 12F97450#8040
(1438758339.707270) can0 12F83210#08
(1438758339.708351) can0 12F96050#00000000410A00
(1438758339.708996) can0 12F83410#20
(1438758339.710126) can0 12F85450#1636000000160000
(1438758339.710814) can0 12F84010#00
(1438758339.711947) can0 12F84110#80
(1438758339.712966) can0 12F84210#80
(1438758339.715932) can0 12F85050#0002ED200008
(1438758339.716614) can0 12F83010#00
(1438758339.717366) can0 12F97150#E001BC
(1438758339.718003) can0 12F84310#00
(1438758339.718714) can0 12F97350#0000
(1438758339.719836) can0 0EF86350#0000000055554610
(1438758339.720472) can0 12F87810#00
(1438758339.726115) can0 12F95A50#00000000
(1438758339.727273) can0 16F86250#0F00000000000000
(1438758339.727918) can0 12F85C50#00
(1438758339.760060) can0 12F89090#00010004
(1438758339.766084) can0 0AF87110#00FF00
(1438758339.806322) can0 12F97450#8040
(1438758339.807367) can0 12F96050#00000000410A00
(1438758339.816076) can0 12F85050#0002F7200008
(1438758339.816841) can0 12F97150#E001BC
(1438758339.817975) can0 0EF86350#000000005555480E
(1438758339.826382) can0 12F85150#4003000060
(1438758339.839765) can0 0EF88190#00
(1438758339.859886) can0 0EF82390#0102
(1438758339.866341) can0 12F96D50#04000000
(1438758339.886283) can0 12F81010#3800800000
(1438758339.896170) can0 0EF91250#0000000000000008
(1438758339.906230) can0 12F97450#8000
(1438758339.907300) can0 12F96050#00000000410A00
(1438758339.915154) can0 0EF87372#0497
(1438758339.916139) can0 12F85050#0002F2200008
(1438758339.917144) can0 0AF81110#180000000000
(1438758339.918267) can0 0EF86350#0000000055554B0B
(1438758339.919424) can0 12F86150#00001000000000FC
(1438758339.920210) can0 12F97150#E001BC
(1438758339.965979) can0 12F82C10#70
(1438758339.984789) can0 12F88090#00
(1438758339.989818) can0 0EF81490#00
(1438758339.995685) can0 0AF97950#00
(1438758339.996378) can0 0AF87010#0004
(1438758339.997966) can0 0EF81510#02
(1438758339.998952) can0 0EF82010#00
(1438758340.006013) can0 12F97450#8000
(1438758340.006614) can0 12F83110#08
(1438758340.007690) can0 12F96050#00000000410A00
(1438758340.008326) can0 12F83210#08
(1438758340.009458) can0 12F85450#1636000000160000
(1438758340.010124) can0 12F83410#20
(1438758340.010978) can0 12F84010#00
(1438758340.011946) can0 12F84110#80
(1438758340.012972) can0 12F84210#80
(1438758340.015965) can0 12F85050#0002F1200008
(1438758340.016608) can0 12F83010#00
(1438758340.017393) can0 12F97150#E001BC
(1438758340.018028) can0 12F84310#00
(1438758340.018734) can0 12F97350#0000
(1438758340.019851) can0 0EF86350#0000000055554D09
(1438758340.020565) can0 12F87810#00
(1438758340.026347) can0 12F95A50#00000000
(1438758340.027499) can0 16F86250#0000000010000000
(1438758340.028144) can0 12F85C50#00
(1438758340.060032) can0 12F89090#00010004
(1438758340.066113) can0 0AF87110#00FF00
(1438758340.066944) can0 12F96D50#04000000
(1438758340.096075) can0 0EF91250#0000000000000008
(1438758340.105793) can0 12F97450#8000
(1438758340.106856) can0 12F96050#00000000410A00
(1438758340.107686) can0 12F85250#7D003A14
(1438758340.115965) can0 12F85050#0002F2200008
(1438758340.117079) can0 0EF86350#0000000055555006
(1438758340.117866) can0 12F97150#E001BC
(1438758340.119017) can0 12F95F50#8296300000000000
(1438758340.126074) can0 12F85150#4003000060
(1438758340.139761) can0 0EF88190#00
(1438758340.155578) can0 12F97C50#18
(1438758340.159834) can0 0EF82390#0102
(1438758340.186303) can0 12F81010#3800800000
(1438758340.206017) can0 12F97450#8040
(1438758340.207057) can0 12F96050#00000000410A00
(1438758340.214896) can0 0EF87372#0497
(1438758340.215974) can0 12F85050#0002F3200008
(1438758340.216982) can0 0AF81110#180000000000
(1438758340.218123) can0 0EF86350#0000000055555204
(1438758340.218901) can0 12F97150#E001BC
(1438758340.220065) can0 12F86150#00001000000000FC
(1438758340.228628) can0 1610FF90#
(1438758340.266156) can0 12F96D50#04000000
(1438758340.266769) can0 12F82C10#70
(1438758340.284781) can0 12F88090#00
(1438758340.289816) can0 0EF81490#00
(1438758340.296148) can0 0EF91250#0000000000000008
(1438758340.296849) can0 0AF87010#0004
(1438758340.297476) can0 0AF97950#00
(1438758340.298121) can0 0EF81510#02
(1438758340.298981) can0 0EF82010#00
(1438758340.300712) can0 1610FF54#
(1438758340.305986) can0 12F97450#8040
(1438758340.306599) can0 12F83110#08
(1438758340.307678) can0 12F96050#00000000410A00
(1438758340.308310) can0 12F83210#08
(1438758340.309448) can0 12F85450#1636000000160000
(1438758340.310086) can0 12F83410#20
(1438758340.310999) can0 12F84010#00
(1438758340.311965) can0 12F84110#80
(1438758340.312975) can0 12F84210#80
(1438758340.314545) can0 1610FF72#
(1438758340.315928) can0 12F85050#0002F5200008
(1438758340.316636) can0 12F83010#00
(1438758340.317361) can0 12F97150#E001BC
(1438758340.318001) can0 12F84310#00
(1438758340.318721) can0 12F97350#0000
(1438758340.319835) can0 0EF86350#0000000055555501
(1438758340.320473) can0 12F87810#00
(1438758340.326113) can0 12F95A50#00000000
(1438758340.327203) can0 16F86250#01334847474B3500
(1438758340.327842) can0 12F85C50#00
(1438758340.360025) can0 12F89090#00010004
(1438758340.366094) can0 0AF87110#00FF00
(1438758340.405842) can0 12F97450#8040
(1438758340.406934) can0 12F96050#00000000410A00
(1438758340.415936) can0 12F85050#0002F5200008
(1438758340.416702) can0 12F97150#E001BC
(1438758340.417835) can0 0EF86350#00000000555557FF
(1438758340.426091) can0 12F85150#4003000060
(1438758340.431644) can0 16F97D54#222C7E1F0595C241
(1438758340.439773) can0 0EF88190#00
(1438758340.455609) can0 12F97650#04
(1438758340.459825) can0 0EF82390#0102
(1438758340.461670) can0 1610FF50#
(1438758340.466157) can0 12F96D50#04000000
(1438758340.486309) can0 12F81010#3800800000
(1438758340.496055) can0 0EF91250#0000000000000008
(1438758340.505873) can0 12F97450#8000
(1438758340.506943) can0 12F96050#00000000410A00
(1438758340.514538) can0 0EF87372#0497
(1438758340.515921) can0 12F85050#0002F3200008
(1438758340.516931) can0 0AF81110#180000000000
(1438758340.518062) can0 0EF86350#0000000055555AFC
(1438758340.518881) can0 12F97150#E001BC
(1438758340.520001) can0 12F86150#00001000000000FC
(1438758340.565984) can0 12F82C10#70
(1438758340.584785) can0 12F88090#00
(1438758340.589806) can0 0EF81490#00
(1438758340.595613) can0 0AF97950#00
(1438758340.596296) can0 0AF87010#0004
(1438758340.596988) can0 0EF81510#02
(1438758340.597954) can0 0EF82010#00
(1438758340.605957) can0 12F83110#08
(1438758340.606650) can0 12F97450#8000
(1438758340.607271) can0 12F83210#08
(1438758340.608354) can0 12F96050#00000000410A00
(1438758340.608992) can0 12F83410#20
(1438758340.610128) can0 12F85450#1636000000160000
(1438758340.610775) can0 12F84010#00
(1438758340.611950) can0 12F84110#80
(1438758340.612980) can0 12F84210#80
(1438758340.616136) can0 12F85050#0002F3200008
(1438758340.616781) can0 12F83010#00
(1438758340.617860) can0 12F96150#415F0000000000
(1438758340.618999) can0 0EF86350#0000000055555CFA
(1438758340.619629) can0 12F84310#00
(1438758340.620259) can0 12F82290#80
(1438758340.621403) can0 12F96B50#7FF94D0000000000
(1438758340.622041) can0 12F87810#00
(1438758340.622867) can0 12F97150#E001BC
(1438758340.623529) can0 12F97350#0000
(1438758340.624679) can0 12F95F50#8296300000000000
(1438758340.626077) can0 12F95A50#00000000
(1438758340.626646) can0 1610FF10#
(1438758340.627757) can0 16F86250#02483839464D3700
(1438758340.628395) can0 12F85C50#00
(1438758340.655678) can0 12F97C50#18
(1438758340.659999) can0 12F89090#00010004
(1438758340.666105) can0 12F96D50#04000000
(1438758340.666854) can0 0AF87110#00FF00
(1438758340.696134) can0 0EF91250#0000000000000008
(1438758340.706021) can0 12F97450#8000
(1438758340.707086) can0 12F96050#00000000410A00
(1438758340.715951) can0 12F85050#0002EF200008
(1438758340.717052) can0 0EF86350#0000000055555FF7
(1438758340.717837) can0 12F97150#E001BC
(1438758340.726211) can0 12F85150#4003000060
(1438758340.739801) can0 0EF88190#00
(1438758340.759885) can0 0EF82390#0102
(1438758340.786304) can0 12F81010#3800800000
(1438758340.805938) can0 12F97450#8040
(1438758340.806995) can0 12F96050#00000000410A00
(1438758340.814187) can0 0EF87372#0497
(1438758340.816101) can0 12F85050#0002FB200008
(1438758340.817098) can0 0AF81110#180000000000
(1438758340.818231) can0 0EF86350#00000000555561F5
(1438758340.819013) can0 12F97150#E001BC
(1438758340.820175) can0 12F86150#00001000000000FC
(1438758340.865935) can0 12F96D50#04000000
(1438758340.866543) can0 12F82C10#70
(1438758340.884776) can0 12F88090#00
(1438758340.889862) can0 0EF81490#00
(1438758340.895995) can0 0EF91250#0000000000000008
(1438758340.896701) can0 0AF87010#0004
(1438758340.897326) can0 0AF97950#00
(1438758340.897977) can0 0EF81510#02
(1438758340.898993) can0 0EF82010#00
(1438758340.905774) can0 12F97450#8040
(1438758340.906384) can0 12F83110#08
(1438758340.907462) can0 12F96050#00000000410A00
(1438758340.908095) can0 12F83210#08
(1438758340.909230) can0 12F85450#1636000000160000
(1438758340.909868) can0 12F83410#20
(1438758340.911018) can0 12F84010#00
(1438758340.911981) can0 12F84110#80
(1438758340.912984) can0 12F84210#80
(1438758340.915972) can0 12F85050#0002F9200008
(1438758340.916691) can0 12F83010#00
(1438758340.917402) can0 12F97150#E001BC
(1438758340.918043) can0 12F84310#00
(1438758340.918752) can0 12F97350#0000
(1438758340.919873) can0 0EF86350#00000000555564F2
(1438758340.920562) can0 12F87810#00
(1438758340.926106) can0 12F95A50#00000000
(1438758340.927211) can0 16F86250#0333333134300000
(1438758340.927855) can0 12F85C50#00
(1438758340.960030) can0 12F89090#00010004
(1438758340.966107) can0 0AF87110#00FF00
(1438758341.005891) can0 12F97450#8040
(1438758341.006978) can0 12F96050#00000000410A00
(1438758341.015901) can0 12F85050#0002EC200008
(1438758341.016664) can0 12F97150#E001BC
(1438758341.017792) can0 0EF86350#00000000555566F0
(1438758341.026114) can0 12F85150#4003000060
(1438758341.039764) can0 0EF88190#00
(1438758341.059834) can0 0EF82390#0102
(1438758341.066015) can0 12F96D50#04000000
(1438758341.086310) can0 12F81010#3800800000
(1438758341.096188) can0 0EF91250#0000000000000008
(1438758341.105983) can0 12F97450#8040
(1438758341.107045) can0 12F96050#00000000410A00
(1438758341.107873) can0 12F85250#7E003A14
(1438758341.113873) can0 0EF87372#0497
(1438758341.116086) can0 12F85050#0002F4200008
(1438758341.117094) can0 0AF81110#180000000000
(1438758341.118210) can0 0EF86350#00000000555569ED
(1438758341.119058) can0 12F97150#E001BC
(1438758341.120159) can0 12F86150#00001000000000FC
(1438758341.126293) can0 12F95F50#8296300000000000
(1438758341.155624) can0 12F97C50#18
(1438758341.166188) can0 12F82C10#70
(1438758341.184770) can0 12F88090#00
(1438758341.189798) can0 0EF81490#00
(1438758341.195616) can0 0AF97950#00
(1438758341.196452) can0 0AF87010#0004
(1438758341.197001) can0 0EF81510#02
(1438758341.197983) can0 0EF82010#00
(1438758341.206038) can0 12F97450#8040
(1438758341.206671) can0 12F83110#08
(1438758341.207711) can0 12F96050#00000000410A00
(1438758341.208344) can0 12F83210#08
(1438758341.209481) can0 12F85450#1636000000160000
(1438758341.210121) can0 12F83410#20
(1438758341.210999) can0 12F84010#00
(1438758341.211958) can0 12F84110#80
(1438758341.212994) can0 12F84210#80
(1438758341.215803) can0 12F85050#0002EE200008
(1438758341.216447) can0 12F83010#00
(1438758341.217226) can0 12F97150#E001BC
(1438758341.217929) can0 12F97350#0000
(1438758341.219062) can0 0EF86350#0000000055556BEB
(1438758341.219704) can0 12F84310#00
(1438758341.220979) can0 12F87810#00
(1438758341.226138) can0 12F95A50#00000000
(1438758341.227257) can0 16F86250#0431144003050000
(1438758341.227914) can0 12F85C50#00
(1438758341.229005) can0 1610FF90#
(1438758341.260012) can0 12F89090#00010004
(1438758341.265928) can0 12F96D50#04000000
(1438758341.266689) can0 0AF87110#00FF00
(1438758341.296178) can0 0EF91250#0000000000000008
(1438758341.301166) can0 1610FF54#
(1438758341.305864) can0 12F97450#8040
(1438758341.306938) can0 12F96050#00000000410A00
(1438758341.313531) can0 1610FF72#
(1438758341.316017) can0 12F85050#0002F0200008
(1438758341.316801) can0 12F97150#E001BC
(1438758341.317930) can0 0EF86350#0000000055556EE8
(1438758341.326127) can0 12F85150#4003000060
(1438758341.339767) can0 0EF88190#00
(1438758341.359864) can0 0EF82390#0102
(1438758341.386313) can0 12F81010#3800800000
(1438758341.406031) can0 12F97450#8040
(1438758341.407070) can0 12F96050#00000000410A00
(1438758341.413562) can0 0EF87372#0497
(1438758341.416037) can0 12F85050#0002F5200008
(1438758341.417041) can0 0AF81110#180000000000
(1438758341.418161) can0 0EF86350#00000000555570E6
(1438758341.418947) can0 12F97150#E001BC
(1438758341.420105) can0 12F86150#00001000000000FC
(1438758341.432042) can0 16F97D54#222C7E1F0595C2C1
(1438758341.455647) can0 12F97650#04
(1438758341.466057) can0 12F96D50#04000000
(1438758341.466673) can0 12F82C10#70
(1438758341.467230) can0 1610FF50#
(1438758341.484793) can0 12F88090#00
(1438758341.489799) can0 0EF81490#00
(1438758341.496080) can0 0EF91250#0000000000000008
(1438758341.496785) can0 0AF87010#0004
(1438758341.497414) can0 0AF97950#00
(1438758341.498053) can0 0EF81510#02
(1438758341.499001) can0 0EF82010#00
(1438758341.505883) can0 12F97450#8040
(1438758341.506493) can0 12F83110#08
(1438758341.507574) can0 12F96050#00000000410A00
(1438758341.508208) can0 12F83210#08
(1438758341.509347) can0 12F85450#1636000000160000
(1438758341.509984) can0 12F83410#20
(1438758341.511048) can0 12F84010#00
(1438758341.511984) can0 12F84110#80
(1438758341.512999) can0 12F84210#80
(1438758341.516036) can0 12F85050#0002ED200008
(1438758341.516740) can0 12F83010#00
(1438758341.517469) can0 12F97150#E001BC
(1438758341.518110) can0 12F84310#00
(1438758341.518820) can0 12F97350#0000
(1438758341.519957) can0 0EF86350#00000000555573E3
(1438758341.520599) can0 12F87810#00
(1438758341.525965) can0 12F95A50#00000000
(1438758341.527118) can0 16F86250#0500000000000000
(1438758341.527754) can0 12F85C50#00
(1438758341.560013) can0 12F89090#00010004
(1438758341.566126) can0 0AF87110#00FF00
(1438758341.605823) can0 12F97450#8000
(1438758341.606898) can0 12F96050#00000000410A00
(1438758341.615938) can0 12F85050#0002F7200008
(1438758341.616697) can0 12F97150#E001BC
(1438758341.617814) can0 0EF86350#00000000555575E1
(1438758341.619733) can0 12F82290#80
(1438758341.626229) can0 12F85150#4003000060
(1438758341.627368) can0 12F95F50#8296300000000000
(1438758341.627946) can0 1610FF10#
(1438758341.639743) can0 0EF88190#00
(1438758341.655548) can0 12F97C50#18
(1438758341.659812) can0 0EF82390#0102
(1438758341.665954) can0 12F96D50#04000000
(1438758341.686326) can0 12F81010#3800800000
(1438758341.696172) can0 0EF91250#0000000000000008
(1438758341.705948) can0 12F97450#8040
(1438758341.707014) can0 12F96050#00000000410A00
(1438758341.713224) can0 0EF87372#0497
(1438758341.716152) can0 12F85050#0002F3200008
(1438758341.717160) can0 0AF81110#180000000000
(1438758341.718279) can0 0EF86350#00000000555578DE
(1438758341.719090) can0 12F97150#E001BC
(1438758341.720220) can0 12F86150#00001000000000FC
(1438758341.766004) can0 12F82C10#70
(1438758341.784764) can0 12F88090#00
(1438758341.789798) can0 0EF81490#00
(1438758341.795643) can0 0AF97950#00
(1438758341.796337) can0 0AF87010#0004
(1438758341.797006) can0 0EF81510#02
(1438758341.797986) can0 0EF82010#00
(1438758341.805856) can0 12F97450#8040
(1438758341.806456) can0 12F83110#08
(1438758341.807532) can0 12F96050#00000000410A00
(1438758341.808167) can0 12F83210#08
(1438758341.809305) can0 12F85450#1636000000160000
(1438758341.809939) can0 12F83410#20
(1438758341.811006) can0 12F84010#00
(1438758341.811974) can0 12F84110#80
(1438758341.813004) can0 12F84210#80
(1438758341.816080) can0 12F85050#000306200008
(1438758341.816738) can0 12F83010#00
(1438758341.817516) can0 12F97150#E001BC
(1438758341.818142) can0 12F84310#00
(1438758341.818850) can0 12F97350#0000
(1438758341.819968) can0 0EF86350#0000000055557ADC
(1438758341.820656) can0 12F87810#00
(1438758341.825934) can0 12F95A50#00000000
(1438758341.827092) can0 16F86250#0600000000000000
(1438758341.827727) can0 12F85C50#00
(1438758341.860015) can0 12F89090#00010004
(1438758341.866057) can0 12F96D50#04000000
(1438758341.866812) can0 0AF87110#00FF00
(1438758341.896095) can0 0EF91250#0000000000000008
(1438758341.905783) can0 12F97450#8000
(1438758341.906853) can0 12F96050#00000000410A00
(1438758341.916198) can0 12F85050#000318200008
(1438758341.916964) can0 12F97150#E001BC
(1438758341.918096) can0 0EF86350#0000000055557DD9
(1438758341.926215) can0 12F85150#4003000060
(1438758341.939734) can0 0EF88190#00
(1438758341.959833) can0 0EF82390#0102
(1438758341.986329) can0 12F81010#3800800000
(1438758342.005942) can0 12F97450#8000
(1438758342.007029) can0 12F96050#00000000410A00
(1438758342.012887) can0 0EF87372#0497
(1438758342.015817) can0 12F85050#0002D4200008
(1438758342.016820) can0 0AF81110#180000000000
(1438758342.017951) can0 0EF86350#0000000055557FD7
(1438758342.018736) can0 12F97150#E001BC
(1438758342.019899) can0 12F86150#00001000000000FC
(1438758342.065964) can0 12F96D50#04000000
(1438758342.066578) can0 12F82C10#70
(1438758342.084809) can0 12F88090#00
(1438758342.089790) can0 0EF81490#00
(1438758342.096183) can0 0EF91250#0000000000000008
(1438758342.096875) can0 0AF87010#0004
(1438758342.097502) can0 0AF97950#00
(1438758342.098141) can0 0EF81510#02
(1438758342.099002) can0 0EF82010#00
(1438758342.105830) can0 12F97450#8040
(1438758342.106426) can0 12F83110#08
(1438758342.107564) can0 12F85450#1636000000160000
(1438758342.108196) can0 12F83210#08
(1438758342.109281) can0 12F96050#00000000410A00
(1438758342.109914) can0 12F83410#20
(1438758342.110771) can0 12F85250#7E003A14
(1438758342.111393) can0 12F84010#00
(1438758342.113010) can0 12F84110#80
(1438758342.113984) can0 12F84210#80
(1438758342.115935) can0 12F85050#0002D6200008
(1438758342.116624) can0 12F83010#00
(1438758342.117366) can0 12F97150#E001BC
(1438758342.118493) can0 0EF86350#00000000555582D4
(1438758342.119134) can0 12F84310#00
(1438758342.119835) can0 12F97350#0000
(1438758342.120479) can0 12F87810#00
(1438758342.125965) can0 12F95A50#00000000
(1438758342.127122) can0 12F95F50#8296300000000000
(1438758342.128272) can0 16F86250#0700000000000000
(1438758342.128912) can0 12F85C50#00
(1438758342.155601) can0 12F97C50#18
(1438758342.159996) can0 12F89090#00010004
(1438758342.166261) can0 0AF87110#00FF00
(1438758342.167037) can0 12F82C10#60
(1438758342.205925) can0 12F97450#8040
(1438758342.207003) can0 12F96050#00000000410A00
(1438758342.215894) can0 12F85050#0002DE200008
(1438758342.216662) can0 12F97150#E001BC
(1438758342.217785) can0 0EF86350#00000000555584D2
(1438758342.226086) can0 12F85150#4003000060
(1438758342.229213) can0 1610FF90#
(1438758342.239737) can0 0EF88190#00
(1438758342.259821) can0 0EF82390#0102
(1438758342.266018) can0 12F96D50#04000000
(1438758342.286323) can0 12F81010#3800800000
(1438758342.296042) can0 0EF91250#0000000000000008
(1438758342.301717) can0 1610FF54#
(1438758342.305886) can0 12F97450#8040
(1438758342.306959) can0 12F96050#00000000410A00
(1438758342.312431) can0 1610FF72#
(1438758342.313163) can0 0EF87372#0497
(1438758342.315886) can0 12F85050#0002F1200008
(1438758342.316895) can0 0AF81110#180000000000
(1438758342.318019) can0 0EF86350#00000000555587CF
(1438758342.318809) can0 12F97150#E001BC
(1438758342.319964) can0 12F86150#00001000000000FC
(1438758342.336009) can0 12F82C10#70
(1438758342.384757) can0 12F88090#00
(1438758342.389851) can0 0EF81490#00
(1438758342.395565) can0 0AF97950#00
(1438758342.396271) can0 0AF87010#0004
(1438758342.397020) can0 0EF81510#02
(1438758342.397996) can0 0EF82010#00
(1438758342.405992) can0 12F97450#8040
(1438758342.406586) can0 12F83110#08
(1438758342.407667) can0 12F96050#00000000410A00
(1438758342.408297) can0 12F83210#08
(1438758342.409434) can0 12F85450#1636000000160000
(1438758342.410070) can0 12F83410#20
(1438758342.411013) can0 12F84010#00
(1438758342.411984) can0 12F84110#80
(1438758342.413012) can0 12F84210#80
(1438758342.415794) can0 12F85050#0002FA200008
(1438758342.416437) can0 12F83010#00
(1438758342.417222) can0 12F97150#E001BC
(1438758342.417923) can0 12F97350#0000
(1438758342.419042) can0 0EF86350#00000000555589CD
(1438758342.419686) can0 12F84310#00
(1438758342.420997) can0 12F87810#00
(1438758342.425889) can0 12F95A50#00000000
(1438758342.427053) can0 16F86250#0800000000000000
(1438758342.427687) can0 12F85C50#00
(1438758342.432674) can0 16F97D54#222C7E1F0595C341
(1438758342.455596) can0 12F97650#04
(1438758342.460057) can0 12F89090#00010004
(1438758342.466051) can0 12F96D50#04000000
(1438758342.466808) can0 0AF87110#00FF00
(1438758342.472067) can0 1610FF50#
(1438758342.496110) can0 0EF91250#0000000000000008
(1438758342.505845) can0 12F97450#8040
(1438758342.506912) can0 12F96050#00000000410A00
(1438758342.515833) can0 12F85050#000305200008
(1438758342.516643) can0 12F97150#E001BC
(1438758342.517718) can0 0EF86350#0000000055558CCA
(1438758342.526068) can0 12F85150#4003000060
(1438758342.539733) can0 0EF88190#00
(1438758342.559879) can0 0EF82390#0102
(1438758342.586328) can0 12F81010#3800800000
(1438758342.605827) can0 12F97450#8000
(1438758342.606903) can0 12F96050#00000000410A00
(1438758342.612222) can0 0EF87372#0497
(1438758342.616037) can0 12F85050#000307200008
(1438758342.617034) can0 0AF81110#180000000000
(1438758342.618148) can0 0EF86350#0000000055558EC8
(1438758342.618933) can0 12F97150#E001BC
(1438758342.620093) can0 12F86150#00001000000000FC
(1438758342.620802) can0 12F82290#80
(1438758342.626312) can0 12F95F50#8296300000000000
(1438758342.627269) can0 12F96750#C2270F890000
(1438758342.627839) can0 1610FF10#
(1438758342.636019) can0 12F82C10#70
(1438758342.655540) can0 12F97C50#18
(1438758342.665976) can0 12F96D50#04000000
(1438758342.684817) can0 12F88090#00
(1438758342.689783) can0 0EF81490#00
(1438758342.696130) can0 0EF91250#0000000000000008
(1438758342.696837) can0 0AF87010#0004
(1438758342.697464) can0 0AF97950#00
(1438758342.698101) can0 0EF81510#02
(1438758342.699021) can0 0EF82010#00
(1438758342.705948) can0 12F97450#8040
(1438758342.706556) can0 12F83110#08
(1438758342.707635) can0 12F96050#00000000410A00
(1438758342.708266) can0 12F83210#08
(1438758342.709411) can0 12F85450#1636000000160000
(1438758342.710044) can0 12F83410#20
(1438758342.711077) can0 12F84010#00
(1438758342.712007) can0 12F84110#80
(1438758342.713045) can0 12F84210#80
(1438758342.715838) can0 12F85050#0002FD200008
(1438758342.716483) can0 12F83010#00
(1438758342.717265) can0 12F97150#E001BC
(1438758342.717971) can0 12F97350#0000
(1438758342.719134) can0 0EF86350#00000000555591C5
(1438758342.719732) can0 12F84310#00
(1438758342.721004) can0 12F87810#00
(1438758342.726105) can0 12F95A50#00000000
(1438758342.727268) can0 16F86250#0900000000000000
(1438758342.727905) can0 12F85C50#00
(1438758342.760017) can0 12F89090#00010004
(1438758342.766138) can0 0AF87110#00FF00
(1438758342.805859) can0 12F97450#8040
(1438758342.806913) can0 12F96050#00000000410A00
(1438758342.815799) can0 12F85050#000304200008
(1438758342.816562) can0 12F97150#E001BC
(1438758342.817679) can0 0EF86350#00000000555593C3
(1438758342.825966) can0 12F85150#4003000060
(1438758342.839737) can0 0EF88190#00
(1438758342.859842) can0 0EF82390#0102
(1438758342.865885) can0 12F96D50#04000000
(1438758342.886334) can0 12F81010#3800800000
(1438758342.896148) can0 0EF91250#0000000000000008
(1438758342.905903) can0 12F97450#8000
(1438758342.906971) can0 12F96050#00000000410A00
(1438758342.911909) can0 0EF87372#0497
(1438758342.915943) can0 12F85050#000304200008
(1438758342.916936) can0 0AF81110#180000000000
(1438758342.918059) can0 0EF86350#00000000555596C0
(1438758342.918849) can0 12F97150#E001BC
(1438758342.920006) can0 12F86150#00001000000000FC
(1438758342.936018) can0 12F82C10#70
(1438758342.984780) can0 12F88090#00
(1438758342.989780) can0 0EF81490#00
(1438758342.995520) can0 0AF97950#00
(1438758342.996211) can0 0AF87010#0004
(1438758342.997032) can0 0EF81510#02
(1438758342.998008) can0 0EF82010#00
(1438758343.005850) can0 12F97450#8040
(1438758343.006444) can0 12F83110#08
(1438758343.007528) can0 12F96050#00000000410A00
(1438758343.008156) can0 12F83210#08
(1438758343.009288) can0 12F85450#1636000000160000
(1438758343.009935) can0 12F83410#20
(1438758343.011002) can0 12F84010#00
(1438758343.011994) can0 12F84110#80
(1438758343.013021) can0 12F84210#80
(1438758343.015922) can0 12F85050#0002FE200008
(1438758343.016567) can0 12F83010#00
(1438758343.017349) can0 12F97150#E001BC
(1438758343.018053) can0 12F97350#0000
(1438758343.019183) can0 0EF86350#00000000555598BE
(1438758343.019823) can0 12F84310#00
(1438758343.021008) can0 12F87810#00
(1438758343.025937) can0 12F95A50#00000000
(1438758343.027076) can0 16F86250#0A00000000808000
(1438758343.027713) can0 12F85C50#00
(1438758343.059999) can0 12F89090#00010004
(1438758343.066076) can0 12F96D50#04000000
(1438758343.066824) can0 0AF87110#00FF00
(1438758343.096069) can0 0EF91250#0000000000000008
(1438758343.105791) can0 12F97450#8040
(1438758343.106851) can0 12F96050#00000000410A00
(1438758343.107680) can0 12F85250#7E003A14
(1438758343.115831) can0 12F85050#000310200008
(1438758343.116593) can0 12F97150#E001BC
(1438758343.117711) can0 0EF86350#0000000055559BBB
(1438758343.126038) can0 12F85150#4003000060
(1438758343.127210) can0 12F95F50#8296300000000000
(1438758343.139725) can0 0EF88190#00
(1438758343.155456) can0 12F97C50#18
(1438758343.159796) can0 0EF82390#0102
(1438758343.186358) can0 12F81010#3800800000
(1438758343.205792) can0 12F97450#8040
(1438758343.206848) can0 12F96050#00000000410A00
(1438758343.211598) can0 0EF87372#0497
(1438758343.215983) can0 12F85050#0002FC200008
(1438758343.216976) can0 0AF81110#180000000000
(1438758343.218092) can0 0EF86350#0000000055559DB9
(1438758343.218877) can0 12F97150#E001BC
(1438758343.220041) can0 12F86150#00001000000000FC
(1438758343.229729) can0 1610FF90#
(1438758343.236025) can0 12F82C10#70
(1438758343.265951) can0 12F96D50#04000000
(1438758343.284779) can0 12F88090#00
(1438758343.289769) can0 0EF81490#00
(1438758343.296114) can0 0EF91250#0000000000000008
(1438758343.296822) can0 0AF87010#0004
(1438758343.297452) can0 0AF97950#00
(1438758343.298089) can0 0EF81510#02
(1438758343.299029) can0 0EF82010#00
(1438758343.302302) can0 1610FF54#
(1438758343.305763) can0 12F97450#8040
(1438758343.306376) can0 12F83110#08
(1438758343.307452) can0 12F96050#00000000410A00
(1438758343.308085) can0 12F83210#08
(1438758343.309222) can0 12F85450#1636000000160000
(1438758343.309867) can0 12F83410#20
(1438758343.311025) can0 12F84010#00
(1438758343.311578) can0 1610FF72#
(1438758343.312222) can0 12F84110#80
(1438758343.313039) can0 12F84210#80
(1438758343.315774) can0 12F85050#000301200008
(1438758343.316423) can0 12F83010#00
(1438758343.317202) can0 12F97150#E001BC
(1438758343.317909) can0 12F97350#0000
(1438758343.319088) can0 0EF86350#000000005555A0B6
(1438758343.319683) can0 12F84310#00
(1438758343.321012) can0 12F87810#00
(1438758343.325916) can0 12F95A50#00000000
(1438758343.327114) can0 16F86250#0B00000000000000
(1438758343.327718) can0 12F85C50#00
(1438758343.359997) can0 12F89090#00010004
(1438758343.366145) can0 0AF87110#00FF00
(1438758343.405788) can0 12F97450#8000
(1438758343.406864) can0 12F96050#00000000410A00
(1438758343.415959) can0 12F85050#00030D200008
(1438758343.416719) can0 12F97150#E001BC
(1438758343.417838) can0 0EF86350#000000005555A2B4
(1438758343.425982) can0 12F85150#4003000060
(1438758343.431319) can0 16F97D54#222C7E1F0595C3C1
(1438758343.439718) can0 0EF88190#00
(1438758343.455586) can0 12F97650#04
(1438758343.459787) can0 0EF82390#0102
(1438758343.466034) can0 12F96D50#04000000
(1438758343.476257) can0 1610FF50#
(1438758343.486339) can0 12F81010#3800800000
(1438758343.496119) can0 0EF91250#0000000000000008
(1438758343.505875) can0 12F97450#8040
(1438758343.506945) can0 12F96050#00000000410A00
(1438758343.511298) can0 0EF87372#0497
(1438758343.515905) can0 12F85050#0002FE200008
(1438758343.516926) can0 0AF81110#180000000000
(1438758343.518023) can0 0EF86350#000000005555A5B1
(1438758343.518859) can0 12F97150#E001BC
(1438758343.519967) can0 12F86150#00001000000000FC
(1438758343.536026) can0 12F82C10#70
(1438758343.584742) can0 12F88090#00
(1438758343.589769) can0 0EF81490#00
(1438758343.595498) can0 0AF97950#00
(1438758343.596174) can0 0AF87010#0004
(1438758343.597035) can0 0EF81510#02
(1438758343.598006) can0 0EF82010#00
(1438758343.605856) can0 12F97450#8040
(1438758343.606462) can0 12F83110#08
(1438758343.607540) can0 12F96050#00000000410A00
(1438758343.608172) can0 12F83210#08
(1438758343.609310) can0 12F85450#1636000000160000
(1438758343.609951) can0 12F83410#20
(1438758343.611008) can0 12F84010#00
(1438758343.612000) can0 12F84110#80
(1438758343.613028) can0 12F84210#80
(1438758343.615921) can0 12F85050#000305200008
(1438758343.616566) can0 12F83010#00
(1438758343.617351) can0 12F97150#E001BC
(1438758343.618056) can0 12F97350#0000
(1438758343.619180) can0 0EF86350#000000005555A7AF
(1438758343.619813) can0 12F82290#80
(1438758343.620453) can0 12F84310#00
(1438758343.622024) can0 12F87810#00
(1438758343.625941) can0 12F95A50#00000000
(1438758343.627086) can0 12F95F50#8296300000000000
(1438758343.627658) can0 1610FF10#
(1438758343.628923) can0 16F86250#0C00000000000000
(1438758343.629467) can0 12F85C50#00
(1438758343.655516) can0 12F97C50#18
(1438758343.659990) can0 12F89090#00010004
(1438758343.665964) can0 12F96D50#04000000
(1438758343.666721) can0 0AF87110#00FF00
(1438758343.695996) can0 0EF91250#0000000000000008
(1438758343.705737) can0 12F97450#8040
(1438758343.706802) can0 12F96050#00000000410A00
(1438758343.715935) can0 12F85050#0002F9200008
(1438758343.716745) can0 12F97150#E001BC
(1438758343.717820) can0 0EF86350#000000005555AAAC
(1438758343.726163) can0 12F85150#4003000060
(1438758343.739719) can0 0EF88190#00
(1438758343.759816) can0 0EF82390#0102
(1438758343.786352) can0 12F81010#3800800000
(1438758343.805813) can0 12F97450#8040
(1438758343.806897) can0 12F96050#00000000410A00
(1438758343.810927) can0 0EF87372#0497
(1438758343.815761) can0 12F85050#0002FE200008
(1438758343.816756) can0 0AF81110#180000000000
(1438758343.817877) can0 0EF86350#000000005555ACAA
(1438758343.818659) can0 12F97150#E001BC
(1438758343.819822) can0 12F86150#00001000000000FC
(1438758343.836045) can0 12F82C10#70
(1438758343.865907) can0 12F96D50#04000000
(1438758343.884771) can0 12F88090#00
(1438758343.889772) can0 0EF81490#00
(1438758343.896061) can0 0EF91250#0000000000000008
(1438758343.896765) can0 0AF87010#0004
(1438758343.897393) can0 0AF97950#00
(1438758343.898029) can0 0EF81510#02
(1438758343.899037) can0 0EF82010#00
(1438758343.905877) can0 12F97450#8000
(1438758343.906484) can0 12F83110#08
(1438758343.907568) can0 12F96050#00000000410A00
(1438758343.908198) can0 12F83210#08
(1438758343.909333) can0 12F85450#1636000000160000
(1438758343.909978) can0 12F83410#20
(1438758343.911038) can0 12F84010#00
(1438758343.912049) can0 12F84110#80
(1438758343.913199) can0 12F84210#80
(1438758343.915980) can0 12F85050#000300200008
(1438758343.916618) can0 12F83010#00
(1438758343.917406) can0 12F97150#E001BC
(1438758343.918045) can0 12F84310#00
(1438758343.918787) can0 12F97350#0000
(1438758343.919882) can0 0EF86350#000000005555AFA7
(1438758343.920526) can0 12F87810#00
(1438758343.926190) can0 12F95A50#00000000
(1438758343.927349) can0 16F86250#0D00000000000000
(1438758343.927987) can0 12F85C50#00
(1438758343.960010) can0 12F89090#00010004
(1438758343.966167) can0 0AF87110#00FF00
(1438758344.006014) can0 12F97450#8000
(1438758344.007078) can0 12F96050#00000000410A00
(1438758344.015794) can0 12F85050#000301200008
(1438758344.016618) can0 12F97150#E001BC
(1438758344.017682) can0 0EF86350#000000005555B1A5
(1438758344.026191) can0 12F85150#4003000060
(1438758344.039720) can0 0EF88190#00
(1438758344.059800) can0 0EF82390#0102
(1438758344.065928) can0 12F96D50#04000000
(1438758344.086381) can0 12F81010#3800800000
(1438758344.095973) can0 0EF91250#0000000000000008
(1438758344.105773) can0 12F97450#8000
(1438758344.106838) can0 12F96050#00000000410A00
(1438758344.107666) can0 12F85250#7E003A14
(1438758344.110608) can0 0EF87372#0497
(1438758344.115815) can0 12F85050#0002FE200008
(1438758344.116852) can0 0AF81110#180000000000
(1438758344.117935) can0 0EF86350#000000005555B4A2
(1438758344.118719) can0 12F97150#E001BC
(1438758344.119878) can0 12F86150#00001000000000FC
(1438758344.126502) can0 12F95F50#8296300000000000
(1438758344.136036) can0 12F82C10#70
(1438758344.155495) can0 12F97C50#18
(1438758344.184745) can0 12F88090#00
(1438758344.189759) can0 0EF81490#00
(1438758344.195480) can0 0AF97950#00
(1438758344.196170) can0 0AF87010#0004
(1438758344.197042) can0 0EF81510#02
(1438758344.198032) can0 0EF82010#00
(1438758344.206020) can0 12F97450#8000
(1438758344.206620) can0 12F83110#08
(1438758344.207686) can0 12F96050#00000000410A00
(1438758344.208317) can0 12F83210#08
(1438758344.209451) can0 12F85450#1636000000160000
(1438758344.210092) can0 12F83410#20
(1438758344.211051) can0 12F84010#00
(1438758344.212009) can0 12F84110#80
(1438758344.213059) can0 12F84210#80
(1438758344.215891) can0 12F85050#0002F2200008
(1438758344.216538) can0 12F83010#00
(1438758344.217323) can0 12F97150#E001BC
(1438758344.218020) can0 12F97350#0000
(1438758344.219151) can0 0EF86350#000000005555B6A0
(1438758344.219790) can0 12F84310#00
(1438758344.221048) can0 12F87810#00
(1438758344.226066) can0 12F95A50#00000000
(1438758344.227215) can0 16F86250#0E00000000000000
(1438758344.227853) can0 12F85C50#00
(1438758344.228413) can0 1610FF90#
(1438758344.259987) can0 12F89090#00010004
(1438758344.266083) can0 12F96D50#04000000
(1438758344.266836) can0 0AF87110#00FF00
(1438758344.295957) can0 0EF91250#0000000000000008
(1438758344.302891) can0 1610FF54#
(1438758344.305790) can0 12F97450#8040
(1438758344.306869) can0 12F96050#00000000410A00
(1438758344.310275) can0 1610FF72#
(1438758344.315748) can0 12F85050#0002FA200008
(1438758344.316513) can0 12F97150#E001BC
(1438758344.317642) can0 0EF86350#000000005555B99D
(1438758344.326342) can0 12F85150#4003000060
(1438758344.339714) can0 0EF88190#00
(1438758344.359796) can0 0EF82390#0102
(1438758344.386364) can0 12F81010#3800800000
(1438758344.405870) can0 12F97450#8040
(1438758344.406950) can0 12F96050#00000000410A00
(1438758344.410303) can0 0EF87372#0497
(1438758344.415842) can0 12F85050#0002F9200008
(1438758344.416835) can0 0AF81110#180000000000
(1438758344.417972) can0 0EF86350#000000005555BB9B
(1438758344.418744) can0 12F97150#E001BC
(1438758344.419900) can0 12F86150#00001000000000FC
(1438758344.431520) can0 16F97D54#222C7E1F0595C441
(1438758344.436049) can0 12F82C10#70
(1438758344.455484) can0 12F97650#04
(1438758344.465898) can0 12F96D50#04000000
(1438758344.480432) can0 1610FF50#
(1438758344.484723) can0 12F88090#00
(1438758344.489798) can0 0EF81490#00
(1438758344.495895) can0 0EF91250#0000000000000008
(1438758344.496594) can0 0AF87010#0004
(1438758344.497233) can0 0AF97950#00
(1438758344.498053) can0 0EF81510#02
(1438758344.499046) can0 0EF82010#00
(1438758344.505728) can0 12F97450#8000
(1438758344.506334) can0 12F83110#08
(1438758344.507412) can0 12F96050#00000000410A00
(1438758344.508044) can0 12F83210#08
(1438758344.509184) can0 12F85450#1636000000160000
(1438758344.509823) can0 12F83410#20
(1438758344.511053) can0 12F84010#00
(1438758344.512031) can0 12F84110#80
(1438758344.513048) can0 12F84210#80
(1438758344.515774) can0 12F85050#0002F5200008
(1438758344.516416) can0 12F83010#00
(1438758344.517205) can0 12F97150#E001BC
(1438758344.517910) can0 12F97350#0000
(1438758344.519042) can0 0EF86350#000000005555BE98
(1438758344.519675) can0 12F84310#00
(1438758344.521037) can0 12F87810#00
(1438758344.526014) can0 12F95A50#00000000
(1438758344.527201) can0 16F86250#0F00000000000000
(1438758344.527811) can0 12F85C50#00
(1438758344.560048) can0 12F89090#00010004
(1438758344.566171) can0 0AF87110#00FF00
(1438758344.605841) can0 12F97450#8040
(1438758344.606954) can0 12F96050#00000000410A00
(1438758344.616140) can0 12F85050#0002F8200008
(1438758344.616905) can0 12F97150#E001BC
(1438758344.618037) can0 0EF86350#000000005555C096
(1438758344.619695) can0 12F82290#80
(1438758344.626114) can0 12F85150#4003000060
(1438758344.627239) can0 12F95F50#8296300000000000
(1438758344.627814) can0 1610FF10#
(1438758344.639712) can0 0EF88190#00
(1438758344.655566) can0 12F97C50#18
(1438758344.659771) can0 0EF82390#0102
(1438758344.665978) can0 12F96D50#04000000
(1438758344.686367) can0 12F81010#3800800000
(1438758344.695980) can0 0EF91250#0000000000000008
(1438758344.705810) can0 12F97450#8000
(1438758344.706876) can0 12F96050#00000000410A00
(1438758344.709973) can0 0EF87372#0497
(1438758344.715783) can0 12F85050#0002FC200008
(1438758344.716768) can0 0AF81110#180000000000
(1438758344.717889) can0 0EF86350#000000005555C393
(1438758344.718671) can0 12F97150#E001BC
(1438758344.719833) can0 12F86150#00001000000000FC
(1438758344.736054) can0 12F82C10#70
(1438758344.784724) can0 12F88090#00
(1438758344.789753) can0 0EF81490#00
(1438758344.795523) can0 0AF97950#00
(1438758344.796212) can0 0AF87010#0004
(1438758344.797086) can0 0EF81510#02
(1438758344.798044) can0 0EF82010#00
(1438758344.805700) can0 12F97450#8040
(1438758344.806296) can0 12F83110#08
(1438758344.807376) can0 12F96050#00000000410A00
(1438758344.808007) can0 12F83210#08
(1438758344.809145) can0 12F85450#1636000000160000
(1438758344.809782) can0 12F83410#20
(1438758344.811032) can0 12F84010#00
(1438758344.812021) can0 12F84110#80
(1438758344.813080) can0 12F84210#80
(1438758344.815930) can0 12F85050#0002FA200008
(1438758344.816571) can0 12F83010#00
(1438758344.817358) can0 12F97150#E001BC
(1438758344.818059) can0 12F97350#0000
(1438758344.819180) can0 0EF86350#000000005555C591
(1438758344.819815) can0 12F84310#00
(1438758344.821071) can0 12F87810#00
(1438758344.825931) can0 12F95A50#00000000
(1438758344.827090) can0 16F86250#0000000010000000
(1438758344.827729) can0 12F85C50#00
(1438758344.859979) can0 12F89090#00010004
(1438758344.865816) can0 12F96D50#04000000
(1438758344.866576) can0 0AF87110#00FF00
(1438758344.896039) can0 0EF91250#0000000000000008
(1438758344.905779) can0 12F97450#8040
(1438758344.906847) can0 12F96050#00000000410A00
(1438758344.915797) can0 12F85050#0002F0200008
(1438758344.916560) can0 12F97150#E001BC
(1438758344.917689) can0 0EF86350#000000005555C88E
(1438758344.925884) can0 12F85150#4003000060
(1438758344.939698) can0 0EF88190#00
(1438758344.959788) can0 0EF82390#0102
(1438758344.986378) can0 12F81010#3800800000
(1438758345.005822) can0 12F97450#8000
(1438758345.006918) can0 12F96050#00000000410A00
(1438758345.009636) can0 0EF87372#0497
(1438758345.015920) can0 12F85050#0002F6200008
(1438758345.016958) can0 0AF81110#180000000000
(1438758345.018020) can0 0EF86350#000000005555CA8C
(1438758345.018804) can0 12F97150#E001BC
(1438758345.019960) can0 12F86150#00001000000000FC
(1438758345.036073) can0 12F82C10#70
(1438758345.065863) can0 12F96D50#04000000
(1438758345.084748) can0 12F88090#00
(1438758345.089754) can0 0EF81490#00
(1438758345.095969) can0 0EF91250#0000000000000008
(1438758345.096670) can0 0AF87010#0004
(1438758345.097283) can0 0AF97950#00
(1438758345.098050) can0 0EF81510#02
(1438758345.099027) can0 0EF82010#00
(1438758345.105898) can0 12F97450#8000
(1438758345.106503) can0 12F83110#08
(1438758345.107634) can0 12F85450#1636000000160000
(1438758345.108271) can0 12F83210#08
(1438758345.109353) can0 12F96050#00000000410A00
(1438758345.109991) can0 12F83410#20
(1438758345.110867) can0 12F85250#7E003A14
(1438758345.111481) can0 12F84010#00
(1438758345.113066) can0 12F84110#80
(1438758345.114037) can0 12F84210#80
(1438758345.115714) can0 12F85050#0002F1200008
(1438758345.116364) can0 12F83010#00
(1438758345.117147) can0 12F97150#E001BC
(1438758345.117787) can0 12F84310#00
(1438758345.118493) can0 12F97350#0000
(1438758345.119612) can0 0EF86350#000000005555CD89
(1438758345.120253) can0 12F87810#00
(1438758345.125885) can0 12F95A50#00000000
(1438758345.127034) can0 12F95F50#8296300000000000
(1438758345.128124) can0 16F86250#01334847474B3500
(1438758345.128766) can0 12F85C50#00
(1438758345.155549) can0 12F97C50#18
(1438758345.159948) can0 12F89090#00010004
(1438758345.166269) can0 0AF87110#00FF00
(1438758345.205753) can0 12F97450#8040
(1438758345.206797) can0 12F96050#00000000410A00
(1438758345.215846) can0 12F85050#0002E8200008
(1438758345.216614) can0 12F97150#E001BC
(1438758345.217768) can0 0EF86350#000000005555CF87
(1438758345.225977) can0 12F85150#4003000060
(1438758345.228540) can0 1610FF90#
(1438758345.239767) can0 0EF88190#00
(1438758345.259796) can0 0EF82390#0102
(1438758345.265973) can0 12F96D50#04000000
(1438758345.286379) can0 12F81010#3800800000
(1438758345.296033) can0 0EF91250#0000000000000008
(1438758345.303400) can0 1610FF54#
(1438758345.305786) can0 12F97450#8040
(1438758345.306864) can0 12F96050#00000000410A00
(1438758345.309191) can0 1610FF72#
(1438758345.309925) can0 0EF87372#0497
(1438758345.315854) can0 12F85050#0002EF200008
(1438758345.316837) can0 0AF81110#180000000000
(1438758345.317966) can0 0EF86350#000000005555D284
(1438758345.318747) can0 12F97150#E001BC
(1438758345.319906) can0 12F86150#00001000000000FC
(1438758345.336058) can0 12F82C10#70
(1438758345.384728) can0 12F88090#00
(1438758345.389744) can0 0EF81490#00
(1438758345.395433) can0 0AF97950#00
(1438758345.396119) can0 0AF87010#0004
(1438758345.397100) can0 0EF81510#02
(1438758345.398049) can0 0EF82010#00
(1438758345.405843) can0 12F97450#8040
(1438758345.406447) can0 12F83110#08
(1438758345.407526) can0 12F96050#00000000410A00
(1438758345.408167) can0 12F83210#08
(1438758345.409289) can0 12F85450#1636000000160000
(1438758345.409930) can0 12F83410#20
(1438758345.411043) can0 12F84010#00
(1438758345.412033) can0 12F84110#80
(1438758345.413094) can0 12F84210#80
(1438758345.415834) can0 12F85050#0002EB200008
(1438758345.416478) can0 12F83010#00
(1438758345.417258) can0 12F97150#E001BC
(1438758345.417960) can0 12F97350#0000
(1438758345.419101) can0 0EF86350#000000005555D482
(1438758345.419737) can0 12F84310#00
(1438758345.421087) can0 12F87810#00
(1438758345.425874) can0 12F95A50#00000000
(1438758345.426970) can0 16F86250#02483839464D3700
(1438758345.427610) can0 12F85C50#00
(1438758345.431424) can0 16F97D54#222C7E1F0595C4C1
(1438758345.455360) can0 12F97650#04
(1438758345.460069) can0 12F89090#00010004
(1438758345.465884) can0 12F96D50#04000000
(1438758345.466637) can0 0AF87110#00FF00
(1438758345.485630) can0 1610FF50#
(1438758345.495828) can0 0EF91250#0000000000000008
(1438758345.505517) can0 12F97450#8000
(1438758345.506575) can0 12F96050#00000000410A00
(1438758345.515763) can0 12F85050#0002EC200008
(1438758345.516523) can0 12F97150#E001BC
(1438758345.517651) can0 0EF86350#000000005555D77F
(1438758345.526025) can0 12F85150#4003000060
(1438758345.539694) can0 0EF88190#00
(1438758345.559843) can0 0EF82390#0102
(1438758345.586380) can0 12F81010#3800800000
(1438758345.605798) can0 12F97450#8000
(1438758345.606857) can0 12F96050#00000000410A00
(1438758345.608981) can0 0EF87372#0497
(1438758345.615760) can0 12F85050#0002EB200008
(1438758345.616751) can0 0AF81110#180000000000
(1438758345.617823) can0 12F96150#415F0000000000
(1438758345.618984) can0 0EF86350#000000005555D97D
(1438758345.620116) can0 12F96B50#7FF94D0000000000
(1438758345.620746) can0 12F82290#80
(1438758345.621534) can0 12F97150#E001BC
(1438758345.622711) can0 12F86150#00001000000000FC
(1438758345.626264) can0 12F95F50#8296300000000000
(1438758345.626843) can0 1610FF10#
(1438758345.636071) can0 12F82C10#70
(1438758345.655435) can0 12F97C50#18
(1438758345.665854) can0 12F96D50#04000000
(1438758345.684769) can0 12F88090#00
(1438758345.689740) can0 0EF81490#00
(1438758345.696037) can0 0EF91250#0000000000000008
(1438758345.696751) can0 0AF87010#0004
(1438758345.697366) can0 0AF97950#00
(1438758345.698079) can0 0EF81510#02
(1438758345.699054) can0 0EF82010#00
(1438758345.705816) can0 12F97450#8040
(1438758345.706428) can0 12F83110#08
(1438758345.707511) can0 12F96050#00000000410A00
(1438758345.708139) can0 12F83210#08
(1438758345.709277) can0 12F85450#1636000000160000
(1438758345.709917) can0 12F83410#20
(1438758345.711070) can0 12F84010#00
(1438758345.712051) can0 12F84110#80
(1438758345.713068) can0 12F84210#80
(1438758345.715729) can0 12F85050#0002E6200008
(1438758345.716379) can0 12F83010#00
(1438758345.717172) can0 12F97150#E001BC
(1438758345.717801) can0 12F84310#00
(1438758345.718504) can0 12F97350#0000
(1438758345.719629) can0 0EF86350#000000005555DC7A
(1438758345.720263) can0 12F87810#00
(1438758345.725884) can0 12F95A50#00000000
(1438758345.727032) can0 16F86250#0333333134300000
(1438758345.727619) can0 12F85C50#00
(1438758345.759982) can0 12F89090#00010004
(1438758345.766192) can0 0AF87110#00FF00
(1438758345.805655) can0 12F97450#8000
(1438758345.806704) can0 12F96050#00000000410A00
(1438758345.815689) can0 12F85050#0002EB200008
(1438758345.816454) can0 12F97150#E001BC
(1438758345.817570) can0 0EF86350#000000005555DE78
(1438758345.825972) can0 12F85150#4003000060
(1438758345.839692) can0 0EF88190#00
(1438758345.859796) can0 0EF82390#0102
(1438758345.865775) can0 12F96D50#04000000
(1438758345.886385) can0 12F81010#3800800000
(1438758345.896045) can0 0EF91250#0000000000000008
(1438758345.905771) can0 12F97450#8040
(1438758345.906840) can0 12F96050#00000000410A00
(1438758345.908675) can0 0EF87372#0497
(1438758345.915827) can0 12F85050#0002EE200008
(1438758345.916811) can0 0AF81110#180000000000
(1438758345.917941) can0 0EF86350#000000005555E175
(1438758345.918724) can0 12F97150#E001BC
(1438758345.919881) can0 12F86150#00001000000000FC
(1438758345.936070) can0 12F82C10#70
(1438758345.984720) can0 12F88090#00
(1438758345.989736) can0 0EF81490#00
(1438758345.995393) can0 0AF97950#00
(1438758345.996150) can0 0AF87010#0004
(1438758345.997134) can0 0EF81510#02
(1438758345.998066) can0 0EF82010#00
(1438758346.005841) can0 12F97450#8000
(1438758346.006437) can0 12F83110#08
(1438758346.007518) can0 12F96050#00000000410A00
(1438758346.008146) can0 12F83210#08
(1438758346.009280) can0 12F85450#1636000000160000
(1438758346.009919) can0 12F83410#20
(1438758346.011045) can0 12F84010#00
(1438758346.012039) can0 12F84110#80
(1438758346.013143) can0 12F84210#80
(1438758346.015763) can0 12F85050#0002F3200008
(1438758346.016407) can0 12F83010#00
(1438758346.017191) can0 12F97150#E001BC
(1438758346.017830) can0 12F84310#00
(1438758346.018534) can0 12F97350#0000
(1438758346.019666) can0 0EF86350#000000005555E373
(1438758346.020312) can0 12F87810#00
(1438758346.025814) can0 12F95A50#00000000
(1438758346.026924) can0 16F86250#0431144003050000
(1438758346.027564) can0 12F85C50#00
(1438758346.059961) can0 12F89090#00010004
(1438758346.065905) can0 12F96D50#04000000
(1438758346.066649) can0 0AF87110#00FF00
(1438758346.096140) can0 0EF91250#0000000000000008
(1438758346.105668) can0 12F97450#8000
(1438758346.106729) can0 12F96050#00000000410A00
(1438758346.107561) can0 12F85250#7E003A14
(1438758346.115768) can0 12F85050#0002ED200008
(1438758346.116527) can0 12F97150#E001BC
(1438758346.117643) can0 0EF86350#000000005555E670
(1438758346.126060) can0 12F85150#4003000060
(1438758346.127201) can0 12F95F50#8296300000000000
(1438758346.139681) can0 0EF88190#00
(1438758346.155404) can0 12F97C50#18
(1438758346.159763) can0 0EF82390#0102
(1438758346.186407) can0 12F81010#3800800000
(1438758346.205845) can0 12F97450#8040
(1438758346.206889) can0 12F96050#00000000410A00
(1438758346.208333) can0 0EF87372#0497
(1438758346.215736) can0 12F85050#0002EA200008
(1438758346.216726) can0 0AF81110#180000000000
(1438758346.217850) can0 0EF86350#000000005555E86E
(1438758346.219011) can0 12F86150#00001000000000FC
(1438758346.219792) can0 12F97150#E001BC
(1438758346.228692) can0 1610FF90#
(1438758346.236085) can0 12F82C10#70
(1438758346.265791) can0 12F96D50#04000000
(1438758346.284716) can0 12F88090#00
(1438758346.289735) can0 0EF81490#00
(1438758346.296028) can0 0EF91250#0000000000000008
(1438758346.296728) can0 0AF87010#0004
(1438758346.297400) can0 0AF97950#00
(1438758346.298089) can0 0EF81510#02
(1438758346.299061) can0 0EF82010#00
(1438758346.303929) can0 1610FF54#
(1438758346.305719) can0 12F97450#8040
(1438758346.306338) can0 12F83110#08
(1438758346.307420) can0 12F96050#00000000410A00
(1438758346.308054) can0 12F83210#08
(1438758346.309219) can0 12F85450#1636000000160000
(1438758346.309828) can0 12F83410#20
(1438758346.310394) can0 1610FF72#
(1438758346.311121) can0 12F84010#00
(1438758346.312078) can0 12F84110#80
(1438758346.313072) can0 12F84210#80
(1438758346.315844) can0 12F85050#0002F3200008
(1438758346.316489) can0 12F83010#00
(1438758346.317275) can0 12F97150#E001BC
(1438758346.317976) can0 12F97350#0000
(1438758346.319128) can0 0EF86350#000000005555EB6B
(1438758346.319736) can0 12F84310#00
(1438758346.321062) can0 12F87810#00
(1438758346.325851) can0 12F95A50#00000000
(1438758346.327056) can0 16F86250#0500000000000000
(1438758346.327638) can0 12F85C50#00
(1438758346.359972) can0 12F89090#00010004
(1438758346.366204) can0 0AF87110#00FF00
(1438758346.405819) can0 12F97450#8040
(1438758346.406867) can0 12F96050#00000000410A00
(1438758346.415802) can0 12F85050#0002F5200008
(1438758346.416567) can0 12F97150#E001BC
(1438758346.417695) can0 0EF86350#000000005555ED69
(1438758346.425895) can0 12F85150#4003000060
(1438758346.431154) can0 16F97D54#222C7E1F0595C541
(1438758346.439682) can0 0EF88190#00
(1438758346.455433) can0 12F97650#04
(1438758346.459760) can0 0EF82390#0102
(1438758346.465785) can0 12F96D50#04000000
(1438758346.486400) can0 12F81010#3800800000
(1438758346.490829) can0 1610FF50#
(1438758346.495925) can0 0EF91250#0000000000000008
(1438758346.505808) can0 12F97450#8000
(1438758346.506875) can0 12F96050#00000000410A00
(1438758346.508028) can0 0EF87372#0497
(1438758346.515831) can0 12F85050#0002F6200008
(1438758346.516811) can0 0AF81110#180000000000
(1438758346.517947) can0 0EF86350#000000005555F066
(1438758346.518731) can0 12F97150#E001BC
(1438758346.519893) can0 12F86150#00001000000000FC
(1438758346.536080) can0 12F82C10#70
(1438758346.584700) can0 12F88090#00
(1438758346.589732) can0 0EF81490#00
(1438758346.595358) can0 0AF97950#00
(1438758346.596149) can0 0AF87010#0004
(1438758346.597126) can0 0EF81510#02
(1438758346.598056) can0 0EF82010#00
(1438758346.605770) can0 12F97450#8040
(1438758346.606380) can0 12F83110#08
(1438758346.607489) can0 12F96050#00000000410A00
(1438758346.608088) can0 12F83210#08
(1438758346.609236) can0 12F85450#1636000000160000
(1438758346.609865) can0 12F83410#20
(1438758346.611063) can0 12F84010#00
(1438758346.612059) can0 12F84110#80
(1438758346.613162) can0 12F84210#80
(1438758346.615993) can0 12F85050#0002F1200008
(1438758346.616637) can0 12F83010#00
(1438758346.617418) can0 12F97150#E001BC
(1438758346.618552) can0 0EF86350#000000005555F264
(1438758346.619195) can0 12F84310#00
(1438758346.619826) can0 12F82290#80
(1438758346.620466) can0 12F87810#00
(1438758346.621198) can0 12F97350#0000
(1438758346.626007) can0 12F95A50#00000000
(1438758346.627148) can0 12F95F50#8296300000000000
(1438758346.627785) can0 12F85C50#00
(1438758346.628364) can0 1610FF10#
(1438758346.629532) can0 16F86250#0600000000000000
(1438758346.655380) can0 12F97C50#18
(1438758346.659941) can0 12F89090#00010004
(1438758346.665902) can0 12F96D50#04000000
(1438758346.666657) can0 0AF87110#00FF00
(1438758346.695976) can0 0EF91250#0000000000000008
(1438758346.705814) can0 12F97450#8000
(1438758346.706871) can0 12F96050#00000000410A00
(1438758346.715808) can0 12F85050#0002F1200008
(1438758346.716911) can0 0EF86350#000000005555F561
(1438758346.717688) can0 12F97150#E001BC
(1438758346.725905) can0 12F85150#4003000060
(1438758346.739680) can0 0EF88190#00
(1438758346.759768) can0 0EF82390#0102
(1438758346.786408) can0 12F81010#3800800000
(1438758346.805633) can0 12F97450#8000
(1438758346.806686) can0 12F96050#00000000410A00
(1438758346.807691) can0 0EF87372#0497
(1438758346.815816) can0 12F85050#0002F2200008
(1438758346.816804) can0 0AF81110#180000000000
(1438758346.817936) can0 0EF86350#000000005555F75F
(1438758346.818719) can0 12F97150#E001BC
(1438758346.819881) can0 12F86150#00001000000000FC
(1438758346.836105) can0 12F82C10#70
(1438758346.865881) can0 12F96D50#04000000
(1438758346.884701) can0 12F88090#00
(1438758346.889785) can0 0EF81490#00
(1438758346.895918) can0 0EF91250#0000000000000008
(1438758346.896617) can0 0AF87010#0004
(1438758346.897249) can0 0AF97950#00
(1438758346.898093) can0 0EF81510#02
(1438758346.899069) can0 0EF82010#00
(1438758346.905623) can0 12F97450#8000
(1438758346.906221) can0 12F83110#08
(1438758346.907302) can0 12F96050#00000000410A00
(1438758346.907933) can0 12F83210#08
(1438758346.909143) can0 12F85450#1636000000160000
(1438758346.909711) can0 12F83410#20
(1438758346.911123) can0 12F84010#00
(1438758346.912071) can0 12F84110#80
(1438758346.913090) can0 12F84210#80
(1438758346.915708) can0 12F85050#0002F0200008
(1438758346.916357) can0 12F83010#00
(1438758346.917203) can0 12F97150#E001BC
(1438758346.917782) can0 12F84310#00
